(1543532003.571000) can1 18F00131#FFFFFF3F00FFFFFF
(1543532003.571588) can1 18E0FF31#00FFFFFFFFF0FFFF
(1543532003.572164) can1 18FEF131#F7FFFFC7CCFFFFFF
(1543532003.572760) can1 18FEF031#FFFFFFFFFFFFFFFF
(1543532003.573344) can1 18FEFC31#FF1FFFFFFFFF00FF
(1543532003.573924) can1 18FEAE31#FFFF6E6EFFFFFFFF
(1543532003.574516) can1 18FEF731#FFFFFFFFFA00FFFF
(1543532003.575108) can1 18FF0431#409CFFFFFFFFFFFF
(1543532003.575708) can1 18FF5031#FFFFFFFFFFFAFFFF
(1543532003.576308) can1 18FD8331#F8FFFFFFFFFFFFFF
(1543532003.576900) can1 18FEFA31#00DCDCFFFFFFFFFF
(1543532003.577496) can1 18FEF231#FFFFFFFFFFFFFFFF
(1543532003.578100) can1 18FEF831#FFFFFFFFFFFFFFFF
(1543532003.578684) can1 18FEC131#1710310AFFFFFFFF
(1543532003.579284) can1 0CF00331#FFFFFFFFFFFFFFFF
(1543532003.581404) can1 18EA00F9#ECFE00
(1543532003.581964) can1 18FECA31#C0FFA800117EFFFF
(1543532003.620991) can1 0CF00331#FFFFFFFFFFFFFFFF
(1543532003.671001) can1 18F00131#FFFFFF3F00FFFFFF
(1543532003.671573) can1 18FEF131#F7FFFF07CCFFFFFF
(1543532003.672169) can1 18FEF031#FFFFFFFFFFFFFFFF
(1543532003.672765) can1 18FF0431#409CFFFFFFFFFFFF
(1543532003.673365) can1 18FF5031#FFFFFFFFFFFAFFFF
(1543532003.673961) can1 18FEF231#FFFFFFFFFFFFFFFF
(1543532003.674561) can1 0CF00331#FFFFFFFFFFFFFFFF
(1543532003.707928) can1 08FE6E0B#0000000000000000
(1543532003.720996) can1 0CF00331#FFFFFFFFFFFFFFFF
(1543532003.727827) can1 18F0010B#CFFFF0FFFFDCFFFF
(1543532003.728427) can1 08FE6E0B#0000000000000000
(1543532003.737843) can1 18FEBF0B#00007D7D7D7DFFFF
(1543532003.747863) can1 18FECA0B#04FF00000000FFFF
(1543532003.748514) can1 08FE6E0B#0000000000000000
(1543532003.767902) can1 08FE6E0B#0000000000000000
(1543532003.770994) can1 18F00131#FFFFFF3F00FFFFFF
(1543532003.771566) can1 18FEF131#F7FFFF07CCFFFFFF
(1543532003.772162) can1 18FEF031#FFFFFFFFFFFFFFFF
(1543532003.772758) can1 18FF0431#409CFFFFFFFFFFFF
(1543532003.773358) can1 18FF5031#FFFFFFFFFFFAFFFF
(1543532003.773954) can1 18FEF231#FFFFFFFFFFFFFFFF
(1543532003.774554) can1 0CF00331#FFFFFFFFFFFFFFFF
(1543532003.787901) can1 08FE6E0B#0000000000000000
(1543532003.807945) can1 08FE6E0B#0000000000000000
(1543532003.820984) can1 0CF00331#FFFFFFFFFFFFFFFF
(1543532003.827932) can1 18F0010B#CFFFF0FFFFDCFFFF
(1543532003.828532) can1 08FE6E0B#0000000000000000
(1543532003.838095) can1 18FEBF0B#00007D7D7D7DFFFF
(1543532003.848103) can1 08FE6E0B#0000000000000000
(1543532003.868130) can1 08FE6E0B#0000000000000000
(1543532003.870998) can1 18F00131#FFFFFF3F00FFFFFF
(1543532003.871570) can1 18FEF131#F7FFFF07CCFFFFFF
(1543532003.872166) can1 18FEF031#FFFFFFFFFFFFFFFF
(1543532003.872762) can1 18FF0431#409CFFFFFFFFFFFF
(1543532003.873362) can1 18FF5031#FFFFFFFFFFFAFFFF
(1543532003.873958) can1 18FEF231#FFFFFFFFFFFFFFFF
(1543532003.874558) can1 0CF00331#FFFFFFFFFFFFFFFF
(1543532003.888150) can1 08FE6E0B#0000000000000000
(1543532003.908217) can1 08FE6E0B#0000000000000000
(1543532003.920973) can1 0CF00331#FFFFFFFFFFFFFFFF
(1543532003.926485) can1 18EEFF00#0203A90100000010
(1543532003.928157) can1 18F0010B#CFFFF0FFFFDCFFFF
(1543532003.928756) can1 08FE6E0B#0000000000000000
(1543532003.936504) can1 0CF00400#007D7D000000F07D
(1543532003.937544) can1 0CF00300#F10000FFFF0C00FF
(1543532003.938180) can1 18FEBF0B#00007D7D7D7DFFFF
(1543532003.938768) can1 18FCFD00#FFFFFFFF0000FFFF
(1543532003.939492) can1 18FEDF00#82FFFFFF7D000000
(1543532003.940300) can1 18EA3100#E6FE00
(1543532003.945544) can1 1CECFF00#20270006FFE3FE00
(1543532003.946500) can1 0CF00400#007D7D000000F07D
(1543532003.947500) can1 0CF00A00#00000000FFFFFFFF
(1543532003.948212) can1 08FE6E0B#0000000000000000
(1543532003.948780) can1 18F0000F#007D7DF3007D0061
(1543532003.949540) can1 18FE9900#CCADFFFFFFFFFFFF
(1543532003.956508) can1 0CF00400#007D7D000000F07D
(1543532003.957548) can1 18F00E00#FFFFFE71FFFFFFFF
(1543532003.958500) can1 18FEF200#00000000000000FF
(1543532003.959492) can1 18FEDF00#82FFFFFF7D000000
(1543532003.965552) can1 0CF00400#007D7D000000F07D
(1543532003.966500) can1 10FDA300#FFFF3EFFFFFFFFFF
(1543532003.967488) can1 18FEE000#FFFFFFFFCD5C6800
(1543532003.968276) can1 08FE6E0B#0000000000000000
(1543532003.968860) can1 18FE9800#0032FFFFFFFFFFFF
(1543532003.970984) can1 18F00131#FFFFFF3F00FFFFFF
(1543532003.971560) can1 18FEF131#F7FFFF07CCFFFFFF
(1543532003.972156) can1 18FEF031#FFFFFFFFFFFFFFFF
(1543532003.972752) can1 18FF0431#409CFFFFFFFFFFFF
(1543532003.973352) can1 18FF5031#FFFFFFFFFFFAFFFF
(1543532003.973948) can1 18FEF231#FFFFFFFFFFFFFFFF
(1543532003.974548) can1 0CF00331#FFFFFFFFFFFFFFFF
(1543532003.976500) can1 0CF00400#007D7D000000F07D
(1543532003.977544) can1 18FF4500#FA00FA00FF000000
(1543532003.978492) can1 18FEDF00#82FFFFFF7D000000
(1543532003.979500) can1 1CFE9200#FF80B0FFFFFFFFFF
(1543532003.986496) can1 0CF00400#007D7D000000F07D
(1543532003.987488) can1 0CF00300#F10000FFFF0C00FF
(1543532003.988252) can1 08FE6E0B#0000000000000000
(1543532003.988840) can1 18FFA800#0000000004100FF3
(1543532003.989548) can1 18FE9700#293DFFFFFFFFFFFF
(1543532003.996500) can1 0CF00400#007D7D000000F07D
(1543532003.997556) can1 0CF00A00#00000000FFFFFFFF
(1543532003.998492) can1 0CFD9200#F0FFFFFFFFC3FFFF
(1543532003.999492) can1 18FEDF00#82FFFFFF7D000000
(1543532004.002948) can1 18FEE631#AC0300000000FFFA
