(143.783033) can1      301#096fa73b0ab80c98
(143.783594) can1      302#1d351985000c7e6f
(143.784174) can1      303#0000000002638c01
(143.784770) can1      304#0000000000000000
(143.785354) can1      305#000049c700000000
(143.785946) can1      306#000c000000000000
(143.786426) can1      308#00042fe4eb7b0000
(143.786898) can1      309#fff4974207f40000
(143.787362) can1      310#39ea7029b5b2d4be
(143.787814) can1      311#bd4ff924bb037596
(143.788266) can1      312#bf428f5c3f3d70a4
(143.788718) can1      313#bcf5c28f3f7d8c9e
(143.789270) can1 0CF00400#f07d89861200ff89
(143.789850) can1 14FF3131#0030030000ffffff
(143.790434) can1 18F00100#ffffffffffffffff
(143.791902) can1 14F00031#cfffffffffffffff
(143.792867) can1      301#096fa73c0ab80c98
(143.793431) can1      302#1d35198500067e0f
(143.794011) can1      303#0000000003638c01
(143.794607) can1      304#0000000000000000
(143.795191) can1      305#000049c700000000
(143.795787) can1      306#0008000000000000
(143.796263) can1      308#00042fe4eb750000
(143.796739) can1      309#fff4974207fa0000
(143.797199) can1      310#399d84ccb7069a58
(143.797651) can1      311#bd81d38bbbf8e48f
(143.798103) can1      312#bf1c28f63f19999a
(143.798563) can1      313#bfb851ec3f7e681d
(143.799115) can1 0CF00400#f07d89861200ff89
(143.799703) can1 18F0000F#007dffff0f7dffff
(143.800271) can1 18FEF600#ff005434ffd92cff
(143.800747) can1 18F00F3D#
(143.801919) can1 14F00131#ffffffff00ffffff
(143.802747) can1      301#096fa73d0ab80c98
(143.803299) can1      302#1d351985000a868f
(143.803875) can1      303#0000000004638c01
(143.804471) can1      304#0000000000000000
(143.805055) can1      305#000049c700000000
(143.805651) can1      306#0008000000000000
(143.806131) can1      308#00042fe4eb7b0000
(143.806607) can1      309#fff4974207fa0000
(143.807067) can1      310#39c7798a391ff603
(143.807515) can1      311#bd72873dbcd4dc0c
(143.807967) can1      312#bf88f5c3bfd851ec
(143.808423) can1      313#3f35c28f3f7842a8
(143.808979) can1 0CF00400#f07d88891200ff88
(143.809263) can1 0CF00A01#
(143.809851) can1 10FE6F00#ffffffffffffffff
(143.810131) can1 10F01A01#
(143.810415) can1 10FDA301#
(143.810699) can1 18FDD001#
(143.810987) can1 18FEDB01#
(143.811271) can1 18FD9401#
(143.811551) can1 18FECA01#
(143.812120) can1 14FEF121#f7ffff0fffffffff
(143.812404) can1 18FE9701#
(143.812692) can1 18FE9801#
(143.813256) can1      301#096fa73e0ab80c98
(143.813816) can1      302#1d351985000583f9
(143.814396) can1      303#0000000003638c01
(143.814992) can1      304#0000000000000000
(143.815576) can1      305#000049c700000000
(143.816164) can1      306#0009000000000000
(143.816644) can1      308#00042fe4eb770000
(143.817120) can1      309#fff4974207fa0000
(143.817572) can1      310#39d8f4da36b3ca50
(143.818016) can1      311#bd2a9949bc4e1952
(143.818472) can1      312#bf7851ecbef5c28f
(143.818932) can1      313#3fd47ae13f78720c
(143.819488) can1 0CF00400#f07d88891200ff88
(143.819772) can1 18FE9901#
(143.820336) can1 0CF00300#dd0012ffffff52ff
(143.820620) can1 18FE9A01#
(143.821204) can1 18FEF200#140000000000ffff
(143.821488) can1 18FEDD01#
(143.821768) can1 18FD6601#
(143.822328) can1 14FEF131#cffffff300ffff30
(143.822608) can1 18FE6901#
(143.823169) can1      301#096fa73f0ab80c98
(143.823725) can1      302#1d351985000949fe
(143.824305) can1      303#0000000000638c01
(143.824901) can1      304#0000000000000000
(143.825485) can1      305#000049c700000000
(143.826081) can1      306#000a000000000000
(143.826557) can1      308#00042fe4eb650000
(143.827029) can1      309#fff4974207fd0000
(143.827493) can1      310#39b97d4a36b3ca50
(143.827942) can1      311#bd6331a3bc542ef9
(143.828410) can1      312#bfa666663f400000
(143.828870) can1      313#bf5c28f63f801a1b
(143.829425) can1 0CF00400#f07d888a1200ff88
(143.830002) can1 10FF2121#32000f80f8fffffa
(143.830570) can1 18F0010B#cffffcffff0fffff
(143.831154) can1 18FEDF00#840013ff7dffffff
(143.831726) can1 18FF1919#01430002ffffffff
(143.832306) can1 0CF00421#ffffffffffffffff
(143.832866) can1      301#096fa7400ab80c98
(143.833426) can1      302#1d35198500064eca
(143.834002) can1      303#0000000001638c01
(143.834598) can1      304#0000000000000000
(143.835182) can1      305#000049c700000000
(143.835774) can1      306#000b000000000000
(143.836250) can1      308#00042fe4eb660000
(143.836726) can1      309#fff4974207fa0000
(143.837198) can1      310#39a801fb383ed8f2
(143.837650) can1      311#bd90593bbc98f509
(143.838106) can1      312#bf170a3dbefae148
(143.838562) can1      313#bf2e147b3f8255b6
(143.839114) can1 0CF00400#f07d89891200ff89
(143.839687) can1 14FF2321#045cffffffffffff
(143.840267) can1 18FEBF0B#00007d7d7d7dffff
(143.840847) can1 18FF1B19#fffdffffffffffff
(143.841131) can1 18FFAC01#
(143.841415) can1 18FFAB01#
(143.841703) can1 18FFAA01#
(143.842287) can1 14FDA421#ffffffffffffffff
(143.842843) can1      301#096fa7410ab80c98
(143.843403) can1      302#1d35198500011c77
(143.843979) can1      303#0000000001638c01
(143.844575) can1      304#0000000000000000
(143.845159) can1      305#000049c700000000
(143.845755) can1      306#000f000000000000
(143.846235) can1      308#00042fe4eb680000
(143.846715) can1      309#fff4974207fb0000
(143.847175) can1      310#39b27f2bb5b2d4be
(143.847627) can1      311#bd5e9500bbf0d72f
(143.848083) can1      312#bf4a3d71bf3ae148
(143.848547) can1      313#3f570a3d3f80a6ec
(143.849100) can1 0CF00400#f07d89861200ff89
(143.849684) can1 14FF0121#fffffffffffffcff
(143.850268) can1 18FEF000#ffffff0000f000ff
(143.850844) can1 18FEF117#f7ffffffffffffff
(143.851124) can1 1CFE9201#
(143.851400) can1 18F00F3D#
(143.851676) can1 18FDB23D#
(143.852261) can1 14FEF031#fffffffffffc00ff
(143.852549) can1 18FDB400#
(143.852825) can1 18FD8C3D#
(143.853381) can1      301#096fa7420ab80c98
(143.853941) can1      302#1d351985000706e0
(143.854521) can1      303#0000000000638c01
(143.855117) can1      304#0000000000000000
(143.855701) can1      305#000049c700000000
(143.856289) can1      306#0011000000000000
(143.856769) can1      308#00042fe4eb730000
(143.857241) can1      309#fff4974207fd0000
(143.857717) can1      310#39a801fb390aea0f
(143.858169) can1      311#bd670a40bc0e39d5
(143.858621) can1      312#bf8ccccd3f0a3d71
(143.859077) can1      313#bf87ae143f80a852
(143.859629) can1 0CF00400#f07d89851200ff89
(143.859913) can1 0CF00A01#
(143.860501) can1 14FF0221#ffffffffffffffff
(143.861070) can1 18FEE000#ef9e0e00ef9e0e00
(143.861350) can1 10F01A01#
(143.861926) can1 14FD3E00#c02aff162cffffff
(143.862994) can1      301#096fa7430ab80c98
(143.863546) can1      302#1d351985000435b3
(143.864122) can1      303#000000fffc638c01
(143.864718) can1      304#0000000000000000
(143.865302) can1      305#000049c700000000
(143.865898) can1      306#000f000000000000
(143.866378) can1      308#00042fe4eb6a0000
(143.866854) can1      309#fff4974208000000
(143.867327) can1      310#398c097c3806b912
(143.867779) can1      311#bd87e732bca8965f
(143.868231) can1      312#bfb33333be947ae1
(143.868687) can1      313#bfd333333f7e5528
(143.869239) can1 0CF00400#f07d89851200ff89
(143.869811) can1 0CF00300#dd0012ffffff52ff
(143.870451) can1 18FEF100#c700000000000030
(143.872831) can1      301#096fa7440ab80c98
(143.873387) can1      302#1d35198500073b72
(143.873959) can1      303#000000fff9638c01
(143.874555) can1      304#0000000000000000
(143.875139) can1      305#000049c700000000
(143.875735) can1      306#000f000000000000
(143.876216) can1      308#00042fe4eb640000
(143.876688) can1      309#fff4974208050000
(143.877152) can1      310#39ab810b3911ee0b
(143.877596) can1      311#bd71af4bbce8ea1a
(143.878052) can1      312#bfb9999abf8f5c29
(143.878512) can1      313#3e947ae13f755bea
(143.879072) can1 0CF00400#f07d89831200ff89
(143.879648) can1 10FF2121#32000f80f8fffffa
(143.880232) can1 18FEDF00#840013ff7dffffff
(143.882720) can1      301#096fa7450ab80c97
(143.883280) can1      302#1d35198400012e7f
(143.883852) can1      303#000000fffa638c01
(143.884448) can1      304#0000000000000000
(143.885032) can1      305#000049c700000000
(143.885628) can1      306#000f000000000000
(143.886104) can1      308#00042fe4eb510000
(143.886576) can1      309#fff4974208480000
(143.887032) can1      310#39b27f2b38ddb439
