;$FILEVERSION=2.0
;$STARTTIME=44483.5521034259
;$COLUMNS=N,O,T,I,d,l,D
;
;   Start time: 10/14/2021 13:15:01.736.0
;   Generated by PCAN-View v4.3.3.610
;-------------------------------------------------------------------------------
;   Connection                 Bit rate
;   PCANLight_PCI_13@pcan_pci  250 kBit/s
;-------------------------------------------------------------------------------
;   Message   Time    Type ID     Rx/Tx
;   Number    Offset  |    [hex]  |  Data Length
;   |         [ms]    |    |      |  |  Data [hex] ...
;   |         |       |    |      |  |  |
;---+-- ------+------ +- --+----- +- +- +- +- -- -- -- -- -- -- --
      1      5570.544 ER          Rx    04 01 09 01 00
      2      5570.572 ER          Rx    04 01 11 09 00
      3      5570.668 ER          Rx    04 01 02 0A 00
      4      5570.696 ER          Rx    04 01 11 12 00
      5      5570.764 ER          Rx    04 01 02 13 00
      6      5570.792 ER          Rx    04 01 11 1B 00
      7      5570.860 ER          Rx    04 01 02 1C 00
      8      5570.888 ER          Rx    04 01 11 24 00
      9      5570.968 ER          Rx    04 01 02 25 00
     10      5570.996 ER          Rx    04 01 11 2D 00
     11      5571.064 ER          Rx    04 01 02 2E 00
     12      5571.092 ER          Rx    04 01 11 36 00
     13      5571.160 ER          Rx    04 01 02 37 00
     14      5571.188 ER          Rx    04 01 11 3F 00
     15      5571.268 ER          Rx    04 01 02 40 00
     16      5571.296 ER          Rx    04 01 11 48 00
     17      5571.364 ER          Rx    04 01 02 49 00
     18      5571.392 ER          Rx    04 01 11 51 00
     19      5571.460 ER          Rx    04 01 02 52 00
     20      5571.488 ER          Rx    04 01 11 5A 00
     21      5571.568 ER          Rx    04 01 02 5B 00
     22      5571.596 ER          Rx    04 01 11 63 00
     23      5571.596 ST          Rx    00 00 00 08
     24      5571.664 ER          Rx    04 01 02 64 00
     25      5571.692 ER          Rx    04 01 11 6C 00
     26      5571.760 ER          Rx    04 01 02 6D 00
     27      5571.788 ER          Rx    04 01 11 75 00
     28      5571.868 ER          Rx    04 01 02 76 00
     29      5571.896 ER          Rx    04 01 11 7E 00
     30      5571.964 ER          Rx    04 01 02 7F 00
     31      5571.992 ER          Rx    04 01 11 87 00
     32      5571.992 ST          Rx    00 04 00 08
     33      5572.060 ER          Rx    04 01 02 88 00
     34      5572.088 ER          Rx    04 01 16 88 00
     35      5572.168 ER          Rx    04 01 02 88 00
     36      5572.196 ER          Rx    04 01 16 88 00
     37      5572.264 ER          Rx    04 01 02 88 00
     38      5572.292 ER          Rx    04 01 16 88 00
     39      5572.360 ER          Rx    04 01 02 88 00
     40      5572.388 ER          Rx    04 01 16 88 00
     41      5572.468 ER          Rx    04 01 02 88 00
     42      5572.496 ER          Rx    04 01 16 88 00
     43      5572.564 ER          Rx    04 01 02 88 00
     44      5572.592 ER          Rx    04 01 16 88 00
     45      5572.660 ER          Rx    04 01 02 88 00
     46      5572.688 ER          Rx    04 01 16 88 00
     47      5572.768 ER          Rx    04 01 02 88 00
     48      5572.796 ER          Rx    04 01 16 88 00
     49      5572.864 ER          Rx    04 01 02 88 00
     50      5572.892 ER          Rx    04 01 16 88 00
     51      5572.960 ER          Rx    04 01 02 88 00
     52      5572.988 ER          Rx    04 01 16 88 00
     53      5573.068 ER          Rx    04 01 02 88 00
     54      5573.096 ER          Rx    04 01 16 88 00
     55      5573.164 ER          Rx    04 01 02 88 00
     56      5573.192 ER          Rx    04 01 16 88 00
     57      5573.260 ER          Rx    04 01 02 88 00
     58      5573.288 ER          Rx    04 01 16 88 00
     59      5573.368 ER          Rx    04 01 02 88 00
     60      5573.396 ER          Rx    04 01 16 88 00
     61      5573.464 ER          Rx    04 01 02 88 00
     62      5573.492 ER          Rx    04 01 16 88 00
     63      5573.560 ER          Rx    04 01 02 88 00
     64      5573.588 ER          Rx    04 01 16 88 00
     65      5573.668 ER          Rx    04 01 02 88 00
     66      5573.696 ER          Rx    04 01 16 88 00
     67      5573.764 ER          Rx    04 01 02 88 00
     68      5573.792 ER          Rx    04 01 16 88 00
     69      5573.860 ER          Rx    04 01 02 88 00
     70      5573.888 ER          Rx    04 01 16 88 00
     71      5573.968 ER          Rx    04 01 02 88 00
     72      5573.996 ER          Rx    04 01 16 88 00
     73      5574.064 ER          Rx    04 01 02 88 00
     74      5574.092 ER          Rx    04 01 16 88 00
     75      5574.160 ER          Rx    04 01 02 88 00
     76      5574.188 ER          Rx    04 01 16 88 00
     77      5574.268 ER          Rx    04 01 02 88 00
     78      5574.296 ER          Rx    04 01 16 88 00
     79      5574.364 ER          Rx    04 01 02 88 00
     80      5574.392 ER          Rx    04 01 16 88 00
     81      5574.460 ER          Rx    04 01 02 88 00
     82      5574.488 ER          Rx    04 01 16 88 00
     83      5574.568 ER          Rx    04 01 02 88 00
     84      5574.596 ER          Rx    04 01 16 88 00
     85      5574.664 ER          Rx    04 01 02 88 00
     86      5574.692 ER          Rx    04 01 16 88 00
     87      5574.760 ER          Rx    04 01 02 88 00
     88      5574.788 ER          Rx    04 01 16 88 00
     89      5574.868 ER          Rx    04 01 02 88 00
     90      5574.896 ER          Rx    04 01 16 88 00
     91      5574.964 ER          Rx    04 01 02 88 00
     92      5574.992 ER          Rx    04 01 16 88 00
     93      5575.060 ER          Rx    04 01 02 88 00
     94      5575.088 ER          Rx    04 01 16 88 00
     95      5575.168 ER          Rx    04 01 02 88 00
     96      5575.196 ER          Rx    04 01 16 88 00
     97      5575.264 ER          Rx    04 01 02 88 00
     98      5575.292 ER          Rx    04 01 16 88 00
     99      5575.360 ER          Rx    04 01 02 88 00
    100      5575.388 ER          Rx    04 01 16 88 00
    101      5575.468 ER          Rx    04 01 02 88 00
    102      5575.496 ER          Rx    04 01 16 88 00
    103      5575.564 ER          Rx    04 01 02 88 00
    104      5575.592 ER          Rx    04 01 16 88 00
    105      5575.660 ER          Rx    04 01 02 88 00
    106      5575.688 ER          Rx    04 01 16 88 00
    107      5575.768 ER          Rx    04 01 02 88 00
    108      5575.796 ER          Rx    04 01 16 88 00
    109      5575.864 ER          Rx    04 01 02 88 00
    110      5575.892 ER          Rx    04 01 16 88 00
    111      5575.960 ER          Rx    04 01 02 88 00
    112      5575.988 ER          Rx    04 01 16 88 00
    113      5576.068 ER          Rx    04 01 02 88 00
    114      5576.096 ER          Rx    04 01 16 88 00
    115      5576.164 ER          Rx    04 01 02 88 00
    116      5576.192 ER          Rx    04 01 16 88 00
    117      5576.260 ER          Rx    04 01 02 88 00
    118      5576.288 ER          Rx    04 01 16 88 00
    119      5576.368 ER          Rx    04 01 02 88 00
    120      5576.396 ER          Rx    04 01 16 88 00
    121      5576.464 ER          Rx    04 01 02 88 00
    122      5576.492 ER          Rx    04 01 16 88 00
    123      5576.560 ER          Rx    04 01 02 88 00
    124      5576.588 ER          Rx    04 01 16 88 00
    125      5576.668 ER          Rx    04 01 02 88 00
    126      5576.696 ER          Rx    04 01 16 88 00
    127      5576.764 ER          Rx    04 01 02 88 00
    128      5576.791 ER          Rx    04 01 16 88 00
    129      5576.859 ER          Rx    04 01 02 88 00
    130      5576.887 ER          Rx    04 01 16 88 00
    131      5576.967 ER          Rx    04 01 02 88 00
    132      5576.995 ER          Rx    04 01 16 88 00
    133      5577.063 ER          Rx    04 01 02 88 00
    134      5577.091 ER          Rx    04 01 16 88 00
    135      5577.159 ER          Rx    04 01 02 88 00
    136      5577.187 ER          Rx    04 01 16 88 00
    137      5577.267 ER          Rx    04 01 02 88 00
    138      5577.295 ER          Rx    04 01 16 88 00
    139      5577.363 ER          Rx    04 01 02 88 00
    140      5577.391 ER          Rx    04 01 16 88 00
    141      5577.459 ER          Rx    04 01 02 88 00
    142      5577.487 ER          Rx    04 01 16 88 00
    143      5577.567 ER          Rx    04 01 02 88 00
    144      5577.595 ER          Rx    04 01 16 88 00
    145      5577.663 ER          Rx    04 01 02 88 00
    146      5577.691 ER          Rx    04 01 16 88 00
    147      5577.759 ER          Rx    04 01 02 88 00
    148      5577.787 ER          Rx    04 01 16 88 00
    149      5577.867 ER          Rx    04 01 02 88 00
    150      5577.895 ER          Rx    04 01 16 88 00
    151      5577.963 ER          Rx    04 01 02 88 00
    152      5577.991 ER          Rx    04 01 16 88 00
    153      5578.071 ER          Rx    04 01 02 88 00
    154      5578.099 ER          Rx    04 01 16 88 00
    155      5578.183 ER          Rx    04 01 02 88 00
    156      5578.211 ER          Rx    04 01 16 88 00
    157      5578.295 ER          Rx    04 01 02 88 00
    158      5578.323 ER          Rx    04 01 16 88 00
    159      5578.407 ER          Rx    04 01 02 88 00
    160      5578.435 ER          Rx    04 01 16 88 00
    161      5578.519 ER          Rx    04 01 02 88 00
    162      5578.547 ER          Rx    04 01 16 88 00
    163      5578.631 ER          Rx    04 01 02 88 00
    164      5578.727 ER          Rx    04 01 02 88 00
    165      5578.755 ER          Rx    04 01 16 88 00
    166      5578.823 ER          Rx    04 01 02 88 00
    167      5578.851 ER          Rx    04 01 16 88 00
    168      5578.931 ER          Rx    04 01 02 88 00
    169      5579.027 ER          Rx    04 01 02 88 00
    170      5579.055 ER          Rx    04 01 16 88 00
    171      5579.123 ER          Rx    04 01 02 88 00
    172      5579.151 ER          Rx    04 01 16 88 00
    173      5579.231 ER          Rx    04 01 02 88 00
    174      5579.327 ER          Rx    04 01 02 88 00
    175      5579.355 ER          Rx    04 01 16 88 00
    176      5579.423 ER          Rx    04 01 02 88 00
    177      5579.451 ER          Rx    04 01 16 88 00
    178      5579.531 ER          Rx    04 01 02 88 00
    179      5579.627 ER          Rx    04 01 02 88 00
    180      5579.655 ER          Rx    04 01 16 88 00
    181      5579.723 ER          Rx    04 01 02 88 00
    182      5579.751 ER          Rx    04 01 16 88 00
    183      5579.831 ER          Rx    04 01 02 88 00
    184      5579.927 ER          Rx    04 01 02 88 00
    185      5579.955 ER          Rx    04 01 16 88 00
    186      5580.023 ER          Rx    04 01 02 88 00
    187      5580.051 ER          Rx    04 01 16 88 00
    188      5580.131 ER          Rx    04 01 02 88 00
    189      5580.227 ER          Rx    04 01 02 88 00
    190      5580.255 ER          Rx    04 01 16 88 00
    191      5580.323 ER          Rx    04 01 02 88 00
    192      5580.351 ER          Rx    04 01 16 88 00
    193      5580.431 ER          Rx    04 01 02 88 00
    194      5580.527 ER          Rx    04 01 02 88 00
    195      5580.555 ER          Rx    04 01 16 88 00
    196      5580.623 ER          Rx    04 01 02 88 00
    197      5580.651 ER          Rx    04 01 16 88 00
    198      5580.731 ER          Rx    04 01 02 88 00
    199      5580.827 ER          Rx    04 01 02 88 00
    200      5580.855 ER          Rx    04 01 16 88 00
    201      5580.923 ER          Rx    04 01 02 88 00
    202      5580.951 ER          Rx    04 01 16 88 00
    203      5581.031 ER          Rx    04 01 02 88 00
    204      5581.127 ER          Rx    04 01 02 88 00
    205      5581.155 ER          Rx    04 01 16 88 00
    206      5581.223 ER          Rx    04 01 02 88 00
    207      5581.251 ER          Rx    04 01 16 88 00
    208      5581.331 ER          Rx    04 01 02 88 00
    209      5581.427 ER          Rx    04 01 02 88 00
    210      5581.455 ER          Rx    04 01 16 88 00
    211      5581.523 ER          Rx    04 01 02 88 00
    212      5581.551 ER          Rx    04 01 16 88 00
    213      5581.631 ER          Rx    04 01 02 88 00
    214      5581.727 ER          Rx    04 01 02 88 00
    215      5581.755 ER          Rx    04 01 16 88 00
    216      5581.823 ER          Rx    04 01 02 88 00
    217      5581.851 ER          Rx    04 01 16 88 00
    218      5581.931 ER          Rx    04 01 02 88 00
    219      5582.027 ER          Rx    04 01 02 88 00
    220      5582.055 ER          Rx    04 01 16 88 00
    221      5582.123 ER          Rx    04 01 02 88 00
    222      5582.151 ER          Rx    04 01 16 88 00
    223      5582.231 ER          Rx    04 01 02 88 00
    224      5582.327 ER          Rx    04 01 02 88 00
    225      5582.355 ER          Rx    04 01 16 88 00
    226      5582.423 ER          Rx    04 01 02 88 00
    227      5582.451 ER          Rx    04 01 16 88 00
    228      5582.531 ER          Rx    04 01 02 88 00
    229      5582.627 ER          Rx    04 01 02 88 00
    230      5582.655 ER          Rx    04 01 16 88 00
    231      5582.723 ER          Rx    04 01 02 88 00
    232      5582.751 ER          Rx    04 01 16 88 00
    233      5582.831 ER          Rx    04 01 02 88 00
    234      5582.927 ER          Rx    04 01 02 88 00
    235      5582.955 ER          Rx    04 01 16 88 00
    236      5583.023 ER          Rx    04 01 02 88 00
    237      5583.051 ER          Rx    04 01 16 88 00
    238      5583.131 ER          Rx    04 01 02 88 00
    239      5583.227 ER          Rx    04 01 02 88 00
    240      5583.255 ER          Rx    04 01 16 88 00
    241      5583.323 ER          Rx    04 01 02 88 00
    242      5583.351 ER          Rx    04 01 16 88 00
    243      5583.431 ER          Rx    04 01 02 88 00
    244      5583.527 ER          Rx    04 01 02 88 00
    245      5583.555 ER          Rx    04 01 16 88 00
    246      5583.623 ER          Rx    04 01 02 88 00
    247      5583.651 ER          Rx    04 01 16 88 00
    248      5583.731 ER          Rx    04 01 02 88 00
    249      5583.827 ER          Rx    04 01 02 88 00
    250      5583.855 ER          Rx    04 01 16 88 00
    251      5584.431 EC          Rx    7F 00
    252      5584.431 ST          Rx    00 00 00 08
    253      5584.458 DT 18EEFF00 Rx 8  FF 02 A1 01 00 00 00 10 
    254      5729.550 ER          Rx    04 01 07 80 00
    255      5729.550 ST          Rx    00 04 00 08
    256      5729.658 ER          Rx    04 01 06 81 00
    257      5730.258 EC          Rx    7F 00
    258      5730.258 ST          Rx    00 00 00 08
    259      5730.286 DT 18EEFF00 Rx 8  FF 02 A1 01 00 00 00 10 
    260      5880.914 EC          Rx    7E 00
    261      5880.942 DT 18EEFF00 Rx 8  FF 02 A1 01 00 00 00 10 
    262      5888.926 EC          Rx    7D 00
    263      5888.954 DT 0CF00400 Rx 8  00 7D 7D 00 00 00 F0 7D 
    264      5889.962 EC          Rx    7C 00
    265      5889.984 DT 0CF00300 Rx 8  F1 00 00 FF FF 0C 00 FF 
    266      5890.912 EC          Rx    7B 00
    267      5890.940 DT 18FCFD00 Rx 8  FF FF FF FF 00 00 FF FF 
    268      5891.897 EC          Rx    7A 00
    269      5891.925 DT 18FEDF00 Rx 8  87 FF FF FF 7D 00 00 00 
    270      5892.701 EC          Rx    79 00
    271      5892.728 DT 18EA3100 Rx 3  E6 FE 00 
    272      5898.889 EC          Rx    78 00
    273      5898.916 DT 1CECFF00 Rx 8  20 27 00 06 FF E3 FE 00 
    274      5899.893 EC          Rx    77 00
    275      5899.920 DT 0CF00400 Rx 8  00 7D 7D 00 00 00 F0 7D 
    276      5900.895 EC          Rx    76 00
    277      5900.922 DT 0CF00A00 Rx 8  00 00 00 00 FF FF FF FF 
    278      5901.919 EC          Rx    75 00
    279      5901.946 DT 18F0000F Rx 8  00 7D 7D F3 00 7D 00 64 
    280      5902.867 EC          Rx    74 00
    281      5902.894 DT 18FE9900 Rx 8  F3 A6 FF FF FF FF FF FF 
    282      5908.866 EC          Rx    73 00
    283      5908.894 DT 0CF00400 Rx 8  00 7D 7D 00 00 00 F0 7D 
    284      5909.912 EC          Rx    72 00
    285      5909.940 DT 18F00E00 Rx 8  A0 0F FE 71 FF FF FF FF 
    286      5910.868 EC          Rx    71 00
    287      5910.896 DT 18FEF200 Rx 8  00 00 00 00 00 00 00 FF 
    288      5911.848 EC          Rx    70 00
    289      5911.876 DT 18FEDF00 Rx 8  87 FF FF FF 7D 00 00 00 
    290      5919.831 EC          Rx    6F 00
    291      5919.859 DT 0CF00400 Rx 8  00 7D 7D 00 00 00 F0 7D 
    292      5920.843 EC          Rx    6E 00
    293      5920.865 DT 10FDA300 Rx 8  FF FF FA FF FF FF FF FF 
    294      5921.869 EC          Rx    6D 00
    295      5921.897 DT 18FEE000 Rx 8  FF FF FF FF 33 33 00 00 
    296      5922.821 EC          Rx    6C 00
    297      5922.849 DT 18FE9800 Rx 8  00 32 FF FF FF FF FF FF 
    298      5928.817 EC          Rx    6B 00
    299      5928.845 DT 0CF00400 Rx 8  00 7D 7D 00 00 00 F0 7D 
    300      5929.873 EC          Rx    6A 00
    301      5929.901 DT 18FF4500 Rx 8  FA 00 FA 00 FF 00 00 00 
    302      5930.825 EC          Rx    69 00
    303      5930.853 DT 18FEDF00 Rx 8  87 FF FF FF 7D 00 00 00 
    304      5931.817 EC          Rx    68 00
    305      5931.845 DT 1CFE9200 Rx 8  FF 80 97 FF FF FF FF FF 
    306      5939.825 EC          Rx    67 00
    307      5939.853 DT 0CF00400 Rx 8  00 7D 7D 00 00 00 F0 7D 
    308      5940.821 EC          Rx    66 00
    309      5940.848 DT 0CF00300 Rx 8  F1 00 00 FF FF 0C 00 FF 
    310      5941.872 EC          Rx    65 00
    311      5941.899 DT 18FFA800 Rx 8  FF FE 00 00 04 10 0F FB 
    312      5942.824 EC          Rx    64 00
    313      5942.852 DT 18FE9700 Rx 8  00 32 FF FF FF FF FF FF 
    314      5948.824 EC          Rx    63 00
    315      5948.852 DT 0CF00400 Rx 8  00 7D 7D 00 00 00 F0 7D 
    316      5949.884 EC          Rx    62 00
    317      5949.911 DT 0CF00A00 Rx 8  00 00 00 00 FF FF FF FF 
    318      5950.820 EC          Rx    61 00
    319      5950.847 DT 0CFD9200 Rx 8  F0 FF FF FF FF C3 FF FF 
    320      5951.820 EC          Rx    60 00
    321      5951.847 DT 18FEDF00 Rx 8  87 FF FF FF 7D 00 00 00 
    322      5958.800 EC          Rx    5F 00
    323      5958.800 ST          Rx    00 00 00 00
    324      5958.827 DT 1CEBFF00 Rx 8  01 50 14 A3 60 3B A6 40 
    325      5959.824 EC          Rx    5E 00
    326      5959.851 DT 0CF00400 Rx 8  00 7D 7D 00 00 00 F0 7D 
    327      5960.820 EC          Rx    5D 00
    328      5960.847 DT 18F00E00 Rx 8  A0 0F FE 71 FF FF FF FF 
    329      5961.875 EC          Rx    5C 00
    330      5961.903 DT 18FF4600 Rx 8  FF 00 00 00 FC FF FF FF 
    331      5962.823 EC          Rx    5B 00
    332      5962.851 DT 18FD0700 Rx 8  57 FF FF FF FF FF FF FF 
    333      5963.811 EC          Rx    5A 00
    334      5963.839 DT 18FDD300 Rx 8  49 02 FF FF FF FF FF FF 
    335      5968.823 EC          Rx    59 00
    336      5968.851 DT 0CF00400 Rx 8  00 7D 7D 00 00 00 F0 7D 
    337      5969.867 EC          Rx    58 00
    338      5969.895 DT 0CFEF100 Rx 8  FF 00 00 70 FF 00 1F FF 
    339      5970.823 EC          Rx    57 00
    340      5970.851 DT 18FEDF00 Rx 8  87 FF FF FF 7D 00 00 00 
    341      5971.807 EC          Rx    56 00
    342      5971.835 DT 18FEC100 Rx 8  11 00 05 00 11 00 05 00 
    343      5979.823 EC          Rx    55 00
    344      5979.851 DT 0CF00400 Rx 8  00 7D 7D 00 00 00 F0 7D 
    345      5980.831 EC          Rx    54 00
    346      5980.859 DT 18FD9400 Rx 8  00 00 FF FF FF FF FF FF 
    347      5981.867 EC          Rx    53 00
    348      5981.895 DT 18FD8C00 Rx 8  4C 04 FF FF FF FF FF FF 
    349      5982.815 EC          Rx    52 00
    350      5982.843 DT 18FEF700 Rx 8  FF FF FF FF E3 00 FF FF 
    351      5988.815 EC          Rx    51 00
    352      5988.843 DT 0CF00400 Rx 8  00 7D 7D 00 00 00 F0 7D 
    353      5989.871 EC          Rx    50 00
    354      5989.899 DT 0CF00300 Rx 8  F1 00 00 FF FF 0C 00 FF 
    355      5990.827 EC          Rx    4F 00
    356      5990.855 DT 18FCFD00 Rx 8  FF FF FF FF 00 00 FF FF 
    357      5991.819 EC          Rx    4E 00
    358      5991.846 DT 18FEDF00 Rx 8  87 FF FF FF 7D 00 00 00 
    359      5999.822 EC          Rx    4D 00
    360      5999.850 DT 0CF00400 Rx 8  00 7D 7D 00 00 00 F0 7D 
    361      6000.829 EC          Rx    4C 00
    362      6000.857 DT 0CF00A00 Rx 8  00 00 00 00 FF FF FF FF 
    363      6001.853 EC          Rx    4B 00
    364      6001.881 DT 18F0000F Rx 8  00 7D 7D F3 00 7D 00 64 
    365      6002.825 EC          Rx    4A 00
    366      6002.853 DT 18FF4A00 Rx 8  00 00 00 FF FF FF FF FF 
    367      6008.813 EC          Rx    49 00
    368      6008.841 DT 0CF00400 Rx 8  00 7D 7D 00 00 00 F0 7D 
    369      6009.869 EC          Rx    48 00
    370      6009.897 DT 18F00E00 Rx 8  A0 0F FE 71 FF FF FF FF 
    371      6010.825 EC          Rx    47 00
    372      6010.853 DT 18FEF200 Rx 8  00 00 00 00 00 00 00 FF 
    373      6011.817 EC          Rx    46 00
    374      6011.845 DT 18FEDF00 Rx 8  87 FF FF FF 7D 00 00 00 
    375      6019.797 EC          Rx    45 00
    376      6019.825 DT 1CEBFF00 Rx 8  02 1F B6 50 2D B6 B0 36 
    377      6020.821 EC          Rx    44 00
    378      6020.849 DT 0CF00400 Rx 8  00 7D 7D 00 00 00 F0 7D 
    379      6021.877 EC          Rx    43 00
    380      6021.905 DT 10FDA300 Rx 8  FF FF FA FF FF FF FF FF 
    381      6022.809 EC          Rx    42 00
    382      6022.837 DT 18FEE000 Rx 8  FF FF FF FF 33 33 00 00 
    383      6023.805 EC          Rx    41 00
    384      6023.833 DT 18FD0900 Rx 8  FF FF FF FF E3 DA 09 00 
    385      6028.813 EC          Rx    40 00
    386      6028.841 DT 0CF00400 Rx 8  00 7D 7D 00 00 00 F0 7D 
    387      6029.869 EC          Rx    3F 00
    388      6029.897 DT 18FF4500 Rx 8  FA 00 FA 00 FF 00 00 00 
    389      6030.821 EC          Rx    3E 00
    390      6030.849 DT 18FEDF00 Rx 8  87 FF FF FF 7D 00 00 00 
    391      6031.813 EC          Rx    3D 00
    392      6031.841 DT 1CFE9200 Rx 8  FF 80 97 FF FF FF FF FF 
    393      6039.821 EC          Rx    3C 00
    394      6039.848 DT 0CF00400 Rx 8  00 7D 7D 00 00 00 F0 7D 
    395      6040.813 EC          Rx    3B 00
    396      6040.840 DT 0CF00300 Rx 8  F1 00 00 FF FF 0C 00 FF 
    397      6041.865 EC          Rx    3A 00
    398      6041.892 DT 18FEEF00 Rx 8  4B FF FF FE FF FF FF 00 
    399      6042.813 EC          Rx    39 00
    400      6042.840 DT 18FF4800 Rx 8  00 00 F0 FF 00 00 00 00 
    401      6048.824 EC          Rx    38 00
    402      6048.852 DT 0CF00400 Rx 8  00 7D 7D 00 00 00 F0 7D 
    403      6049.880 EC          Rx    37 00
    404      6049.908 DT 0CF00A00 Rx 8  00 00 00 00 FF FF FF FF 
    405      6050.820 EC          Rx    36 00
    406      6050.848 DT 18FEDF00 Rx 8  87 FF FF FF 7D 00 00 00 
    407      6059.820 EC          Rx    35 00
    408      6059.848 DT 0CF00400 Rx 8  00 7D 7D 00 00 00 F0 7D 
    409      6060.812 EC          Rx    34 00
    410      6060.840 DT 18F00E00 Rx 8  A0 0F FE 71 FF FF FF FF 
    411      6061.884 EC          Rx    33 00
    412      6061.912 DT 18FEDB00 Rx 8  FF FF 00 00 FF FF FF FF 
    413      6068.792 EC          Rx    32 00
    414      6068.820 DT 1CECFF0F Rx 8  20 13 00 03 FF E1 FE 00 
    415      6069.872 EC          Rx    31 00
    416      6069.900 DT 0CF00400 Rx 8  00 7D 7D 00 00 00 F0 7D 
    417      6070.808 EC          Rx    30 00
    418      6070.836 DT 0CFEF100 Rx 8  FF 00 00 70 FF 00 1F FF 
    419      6071.816 EC          Rx    2F 00
    420      6071.844 DT 18FEDF00 Rx 8  87 FF FF FF 7D 00 00 00 
    421      6072.820 EC          Rx    2E 00
    422      6072.848 DT 18FEFF00 Rx 8  FC FF FF FF FF FF FF FF 
    423      6079.812 EC          Rx    2D 00
    424      6079.839 DT 1CEBFF00 Rx 8  03 AE C0 44 00 05 10 09 
    425      6080.820 EC          Rx    2C 00
    426      6080.847 DT 0CF00400 Rx 8  00 7D 7D 00 00 00 F0 7D 
    427      6081.872 EC          Rx    2B 00
    428      6081.899 DT 18FD9400 Rx 8  00 00 FF FF FF FF FF FF 
    429      6082.804 EC          Rx    2A 00
    430      6082.831 DT 18FEF600 Rx 8  FE 39 FE 63 FF FF FE FF 
    431      6088.811 EC          Rx    29 00
    432      6088.839 DT 0CF00400 Rx 8  00 7D 7D 00 00 00 F0 7D 
    433      6089.867 EC          Rx    28 00
    434      6089.895 DT 0CF00300 Rx 8  F1 00 00 FF FF 0C 00 FF 
    435      6090.823 EC          Rx    27 00
    436      6090.851 DT 18FCFD00 Rx 8  FF FF FF FF 00 00 FF FF 
    437      6091.815 EC          Rx    26 00
    438      6091.843 DT 18FEDF00 Rx 8  87 FF FF FF 7D 00 00 00 
    439      6099.819 EC          Rx    25 00
    440      6099.847 DT 0CF00400 Rx 8  00 7D 7D 00 00 00 F0 7D 
    441      6100.827 EC          Rx    24 00
    442      6100.855 DT 0CF00A00 Rx 8  00 00 00 00 FF FF FF FF 
    443      6101.851 EC          Rx    23 00
    444      6101.879 DT 18F0000F Rx 8  00 7D 7D F3 00 7D 00 64 
    445      6108.819 EC          Rx    22 00
    446      6108.847 DT 0CF00400 Rx 8  00 7D 7D 00 00 00 F0 7D 
    447      6109.867 EC          Rx    21 00
    448      6109.895 DT 18F00E00 Rx 8  A0 0F FE 71 FF FF FF FF 
    449      6110.823 EC          Rx    20 00
    450      6110.851 DT 18FEF200 Rx 8  00 00 00 00 00 00 00 FF 
    451      6111.815 EC          Rx    1F 00
    452      6111.843 DT 18FEDF00 Rx 8  87 FF FF FF 7D 00 00 00 
    453      6119.819 EC          Rx    1E 00
    454      6119.846 DT 0CF00400 Rx 8  00 7D 7D 00 00 00 F0 7D 
    455      6120.823 EC          Rx    1D 00
    456      6120.850 DT 10FDA300 Rx 8  FF FF FA FF FF FF FF FF 
    457      6121.863 EC          Rx    1C 00
    458      6121.890 DT 18FEE000 Rx 8  FF FF FF FF 33 33 00 00 
    459      6128.806 EC          Rx    1B 00
    460      6128.834 DT 1CEBFF0F Rx 8  01 FF 0F C0 12 64 E0 47 
    461      6129.870 EC          Rx    1A 00
    462      6129.898 DT 0CF00400 Rx 8  00 7D 7D 00 00 00 F0 7D 
    463      6130.806 EC          Rx    19 00
    464      6130.834 DT 18FF4500 Rx 8  FA 00 FA 00 FF 00 00 00 
    465      6131.814 EC          Rx    18 00
    466      6131.842 DT 18FEDF00 Rx 8  87 FF FF FF 7D 00 00 00 
    467      6132.814 EC          Rx    17 00
    468      6132.841 DT 1CFE9200 Rx 8  FF 80 97 FF FF FF FF FF 
    469      6139.797 EC          Rx    16 00
    470      6139.825 DT 1CEBFF00 Rx 8  04 C0 44 03 41 96 7D E1 
    471      6140.817 EC          Rx    15 00
    472      6140.845 DT 0CF00400 Rx 8  00 7D 7D 00 00 00 F0 7D 
    473      6141.861 EC          Rx    14 00
    474      6141.889 DT 0CF00300 Rx 8  F1 00 00 FF FF 0C 00 FF 
    475      6142.809 EC          Rx    13 00
    476      6142.837 DT 18FFA800 Rx 8  FF FE 00 00 04 10 0F FB 
    477      6148.817 EC          Rx    12 00
    478      6148.845 DT 0CF00400 Rx 8  00 7D 7D 00 00 00 F0 7D 
    479      6149.877 EC          Rx    11 00
    480      6149.905 DT 0CF00A00 Rx 8  00 00 00 00 FF FF FF FF 
    481      6150.817 EC          Rx    10 00
    482      6150.845 DT 18FEDF00 Rx 8  87 FF FF FF 7D 00 00 00 
    483      6159.817 EC          Rx    0F 00
    484      6159.844 DT 0CF00400 Rx 8  00 7D 7D 00 00 00 F0 7D 
    485      6160.813 EC          Rx    0E 00
    486      6160.840 DT 18F00E00 Rx 8  A0 0F FE 71 FF FF FF FF 
    487      6161.873 EC          Rx    0D 00
    488      6161.900 DT 18FDD000 Rx 8  FF FF FF FF 19 FF FF FF 
    489      6168.808 EC          Rx    0C 00
    490      6168.836 DT 0CF00400 Rx 8  00 7D 7D 00 00 00 F0 7D 
    491      6169.860 EC          Rx    0B 00
    492      6169.888 DT 0CFEF100 Rx 8  FF 00 00 70 FF 00 1F FF 
    493      6170.816 EC          Rx    0A 00
    494      6170.844 DT 18FEDF00 Rx 8  87 FF FF FF 7D 00 00 00 
    495      6179.816 EC          Rx    09 00
    496      6179.844 DT 0CF00400 Rx 8  00 7D 7D 00 00 00 F0 7D 
    497      6180.816 EC          Rx    08 00
    498      6180.844 DT 18FD9400 Rx 8  00 00 FF FF FF FF FF FF 
    499      6181.868 EC          Rx    07 00
    500      6181.896 DT 18FEA600 Rx 8  00 00 FF FF FF FF FF FF 
    501      6188.780 EC          Rx    06 00
    502      6188.808 DT 1CEBFF0F Rx 8  02 25 60 22 56 E0 2E 2C 
    503      6189.868 EC          Rx    05 00
    504      6189.895 DT 0CF00400 Rx 8  00 7D 7D 00 00 00 F0 7D 
    505      6190.808 EC          Rx    04 00
    506      6190.835 DT 0CF00300 Rx 8  F1 00 00 FF FF 0C 00 FF 
    507      6191.820 EC          Rx    03 00
    508      6191.848 DT 18FCFD00 Rx 8  FF FF FF FF 00 00 FF FF 
    509      6192.816 EC          Rx    02 00
    510      6192.844 DT 18FEDF00 Rx 8  87 FF FF FF 7D 00 00 00 
    511      6198.800 EC          Rx    01 00
    512      6198.827 DT 1CEBFF00 Rx 8  05 E0 2E A2 03 FF FF 80 
    513      6199.812 EC          Rx    00 00
    514      6199.839 DT 0CF00400 Rx 8  00 7D 7D 00 00 00 F0 7D 
    515      6200.847 DT 0CF00A00 Rx 8  00 00 00 00 FF FF FF FF 
    516      6201.891 DT 0CFD9200 Rx 8  F0 FF FF FF FF C3 FF FF 
    517      6202.819 DT 18F0000F Rx 8  00 7D 7D F3 00 7D 00 64 
    518      6208.843 DT 0CF00400 Rx 8  00 7D 7D 00 00 00 F0 7D 
    519      6209.891 DT 18F00E00 Rx 8  A0 0F FE 71 FF FF FF FF 
    520      6210.847 DT 18FEF200 Rx 8  00 00 00 00 00 00 00 FF 
    521      6211.835 DT 18FF4600 Rx 8  FF 00 00 00 FC FF FF FF 
    522      6212.839 DT 18FEDF00 Rx 8  87 FF FF FF 7D 00 00 00 
    523      6219.843 DT 0CF00400 Rx 8  00 7D 7D 00 00 00 F0 7D 
    524      6220.851 DT 10FDA300 Rx 8  FF FF FA FF FF FF FF FF 
    525      6221.887 DT 18FEE000 Rx 8  FF FF FF FF 33 33 00 00 
    526      6228.835 DT 0CF00400 Rx 8  00 7D 7D 00 00 00 F0 7D 
    527      6229.891 DT 18FF4500 Rx 8  FA 00 FA 00 FF 00 00 00 
    528      6230.843 DT 18FEDF00 Rx 8  87 FF FF FF 7D 00 00 00 
    529      6231.835 DT 1CFE9200 Rx 8  FF 80 97 FF FF FF FF FF 
    530      6239.842 DT 0CF00400 Rx 8  00 7D 7D 00 00 00 F0 7D 
    531      6240.838 DT 0CF00300 Rx 8  FA FE 00 FF FF 0C 00 FF 
    532      6241.870 DT 18FFA600 Rx 8  F0 FF FF 1F BA BA 11 00 
    533      6248.830 DT 1CEBFF0F Rx 8  03 A0 41 34 06 1F FF FF 
    534      6249.894 DT 0CF00400 Rx 8  00 7D 7D 00 00 00 F0 7D 
    535      6250.846 DT 0CF00A00 Rx 8  00 00 00 00 FF FF FF FF 
    536      6251.838 DT 18FEDF00 Rx 8  87 FF FF FF 7D 00 00 00 
    537      6259.846 DT 1CEBFF00 Rx 8  06 E0 FF FF FF FF FF FF 
    538      6260.834 DT 0CF00400 Rx 8  00 7D 7D 00 00 00 F0 7D 
    539      6261.886 DT 18F00E00 Rx 8  A0 0F FE 71 FF FF FF FF 
    540      6262.834 DT 18FEF500 Rx 8  A7 FF FF FF FE FF FF FF 
    541      6268.846 DT 0CF00400 Rx 8  00 7D 7D 00 00 00 F0 7D 
    542      6269.886 DT 0CFEF100 Rx 8  FF 00 00 70 FF 00 1F FF 
    543      6270.842 DT 18FEDF00 Rx 8  87 FF FF FF 7D 00 00 00 
    544      6279.837 DT 0CF00400 Rx 8  00 7D 7D 00 00 00 F0 7D 
    545      6280.837 DT 18FD9400 Rx 8  00 00 FF FF FF FF FF FF 
    546      6281.876 DT 18FE5600 Rx 8  FF 3C FF FF 9F BF 00 FF 
    547      6288.840 DT 0CF00400 Rx 8  00 7D 7D 00 00 00 F0 7D 
    548      6289.888 DT 0CF00300 Rx 8  FA FE 00 FF FF 0C 00 FF 
    549      6290.844 DT 18FCFD00 Rx 8  FF FF FF FF 00 00 FF FF 
    550      6291.836 DT 18FEDF00 Rx 8  87 FF FF FF 7D 00 00 00 
    551      6299.836 DT 0CF00400 Rx 8  00 7D 7D 00 00 00 F0 7D 
    552      6300.852 DT 0CF00A00 Rx 8  00 00 00 00 FF FF FF FF 
    553      6301.872 DT 18F0000F Rx 8  20 7D 7D F3 00 7D FE 64 
    554      6308.832 DT 0CF00400 Rx 8  00 7D 7D 00 00 00 F0 7D 
    555      6309.888 DT 18F00E00 Rx 8  A0 0F FE 71 FF FF FF FF 
    556      6310.840 DT 18FEF200 Rx 8  00 00 00 00 00 00 FE FF 
    557      6311.836 DT 18FEDF00 Rx 8  87 FF FF FF 7D 00 00 00 
    558      6319.835 DT 0CF00400 Rx 8  00 7D 7D 00 00 00 F0 7D 
    559      6320.847 DT 10FDA300 Rx 8  FF FF FA FF FF FF FF FF 
    560      6321.883 DT 18FEE000 Rx 8  FF FF FF FF 33 33 00 00 
    561      6328.831 DT 0CF00400 Rx 8  00 7D 7D 00 00 00 F0 7D 
    562      6329.887 DT 18FF4500 Rx 8  FA 00 FA 00 FF 00 00 00 
    563      6330.839 DT 18FEDF00 Rx 8  87 FF FF FF 7D 00 00 00 
    564      6331.831 DT 1CFE9200 Rx 8  FF 80 97 FF FF FF FF FF 
    565      6339.835 DT 0CF00400 Rx 8  00 7D 7D 00 00 00 F0 7D 
    566      6340.831 DT 0CF00300 Rx 8  FA FE 00 FF FF 0C 00 FF 
    567      6341.887 DT 18FFA800 Rx 8  FF FE 00 00 04 10 0F FB 
    568      6348.831 DT 0CF00400 Rx 8  00 7D 7D 00 00 00 F0 7D 
    569      6349.899 DT 0CF00A00 Rx 8  00 00 00 00 FF FF FF FF 
    570      6350.839 DT 18FEDF00 Rx 8  87 FF FF FF 7D 00 00 00 
    571      6359.834 DT 0CF00400 Rx 8  00 7D 7D 00 00 00 F0 7D 
    572      6360.830 DT 18F00E00 Rx 8  A0 0F FE 71 FF FF FF FF 
    573      6361.894 DT 18FD0700 Rx 8  57 FF FF FF FF FF FF FF 
    574      6368.837 DT 0CF00400 Rx 8  00 7D 7D 00 00 00 F0 7D 
    575      6369.881 DT 0CFEF100 Rx 8  FF 00 00 70 FF 00 1F FF 
    576      6370.837 DT 18FEDF00 Rx 8  87 FF FF FF 7D 00 00 00 
    577      6379.833 DT 0CF00400 Rx 8  00 7D 7D 00 00 00 F0 7D 
    578      6380.841 DT 18FD9400 Rx 8  00 00 FF FF FF FF FF FF 
    579      6381.897 DT 18FD7C00 Rx 8  FF FF FF FF FF FF E3 FF 
    580      6388.829 DT 0CF00400 Rx 8  00 7D 7D 00 00 00 F0 7D 
    581      6389.885 DT 0CF00300 Rx 8  FA FE 00 FF FF 0C 00 FF 
    582      6390.841 DT 18FCFD00 Rx 8  FF FF FF FF 00 00 FF FF 
    583      6391.833 DT 18FEDF00 Rx 8  87 FF FF FF 7D 00 00 00 
    584      6399.832 DT 0CF00400 Rx 8  00 7D 7D 00 00 00 F0 7D 
    585      6400.844 DT 0CF00A00 Rx 8  00 00 00 00 FF FF FF FF 
    586      6401.868 DT 18F0000F Rx 8  20 7D 7D F3 00 7D FE 64 
    587      6408.828 DT 0CF00400 Rx 8  00 7D 7D 00 00 00 F0 7D 
    588      6409.884 DT 18F00E00 Rx 8  A0 0F FE 71 FF FF FF FF 
    589      6410.836 DT 18FEF200 Rx 8  00 00 00 00 00 00 FE FF 
    590      6411.832 DT 18FEDF00 Rx 8  87 FF FF FF 7D 00 00 00 
    591      6419.832 DT 0CF00400 Rx 8  00 7D 7D 00 00 00 F0 7D 
    592      6420.840 DT 10FDA300 Rx 8  FF FF FA FF FF FF FF FF 
    593      6421.880 DT 18FEE000 Rx 8  FF FF FF FF 33 33 00 00 
    594      6428.840 DT 0CF00400 Rx 8  00 7D 7D 00 00 00 F0 7D 
    595      6429.884 DT 18FF4500 Rx 8  FA 00 FA 00 FF 00 00 00 
    596      6430.835 DT 18FEDF00 Rx 8  87 FF FF FF 7D 00 00 00 
    597      6431.827 DT 1CFE9200 Rx 8  FF 80 97 FF FF FF FF FF 
    598      6439.835 DT 0CF00400 Rx 8  00 7D 7D 00 00 00 F0 7D 
    599      6440.827 DT 0CF00300 Rx 8  FA FE 00 FF FF 0C 00 FF 
    600      6441.887 DT 18FEEE00 Rx 8  FE FE FF FE FF FF FF FF 
    601      6448.827 DT 0CF00400 Rx 8  00 7D 7D 00 00 00 F0 7D 
    602      6449.895 DT 0CF00A00 Rx 8  00 00 00 00 FF FF FF FF 
    603      6450.831 DT 0CFD9200 Rx 8  F0 FF FF FF FF C3 FF FF 
    604      6451.831 DT 18FEDF00 Rx 8  87 FF FF FF 7D 00 00 00 
    605      6459.831 DT 0CF00400 Rx 8  00 7D 7D 00 00 00 F0 7D 
    606      6460.835 DT 18F00E00 Rx 8  A0 0F FE 71 FF FF FF FF 
    607      6461.883 DT 18FF4600 Rx 8  FF 00 00 00 FC FF FF FF 
    608      6468.835 DT 0CF00400 Rx 8  00 7D 7D 00 00 00 F0 7D 
    609      6469.879 DT 0CFEF100 Rx 8  FF 00 00 70 FF 00 1F FF 
    610      6470.835 DT 18FEDF00 Rx 8  87 FF FF FF 7D 00 00 00 
    611      6479.831 DT 0CF00400 Rx 8  00 7D 7D 00 00 00 F0 7D 
    612      6480.835 DT 18FD9400 Rx 8  00 00 FF FF FF FF FF FF 
    613      6481.894 DT 18FD8C00 Rx 8  FF FE FF FF FF FF FF FF 
    614      6488.826 DT 0CF00400 Rx 8  00 7D 7D 00 00 00 F0 7D 
    615      6489.882 DT 0CF00300 Rx 8  FA FE 00 FF FF 0C 00 FF 
    616      6490.838 DT 18FCFD00 Rx 8  FF FF FF FF 00 00 FF FF 
    617      6491.830 DT 18FEDF00 Rx 8  87 FF FF FF 7D 00 00 00 
    618      6499.829 DT 0CF00400 Rx 8  00 7D 7D 00 00 00 F0 7D 
    619      6500.837 DT 0CF00A00 Rx 8  00 00 00 00 FF FF FF FF 
    620      6501.865 DT 18F0000F Rx 8  20 7D 7D F3 00 7D FE 64 
    621      6508.825 DT 0CF00400 Rx 8  00 7D 7D 00 00 00 F0 7D 
    622      6509.881 DT 18F00E00 Rx 8  A0 0F FE 71 FF FF FF FF 
    623      6510.833 DT 18FEF200 Rx 8  00 00 00 00 00 00 FE FF 
    624      6511.829 DT 18FEDF00 Rx 8  87 FF FF FF 7D 00 00 00 
    625      6519.829 DT 0CF00400 Rx 8  00 7D 7D 00 00 00 F0 7D 
    626      6520.837 DT 10FDA300 Rx 8  FF FF FA FF FF FF FF FF 
    627      6521.881 DT 18FEE000 Rx 8  FF FF FF FF 33 33 00 00 
    628      6528.837 DT 0CF00400 Rx 8  00 7D 7D 00 00 00 F0 7D 
    629      6529.881 DT 18FF4500 Rx 8  FA 00 FA 00 FF 00 00 00 
    630      6530.833 DT 18FEDF00 Rx 8  87 FF FF FF 7D 00 00 00 
    631      6531.824 DT 1CFE9200 Rx 8  FF 80 97 FF FF FF FF FF 
    632      6539.828 DT 0CF00400 Rx 8  00 7D 7D 00 00 00 F0 7D 
    633      6540.824 DT 0CF00300 Rx 8  FA FE 00 FF FF 0C 00 FF 
    634      6541.880 DT 18FFA800 Rx 8  FF FE 00 00 04 10 0F FB 
    635      6542.824 DT 18FEEF00 Rx 8  FE FF FF FE FF FF FF 00 
    636      6548.832 DT 0CF00400 Rx 8  00 7D 7D 00 00 00 F0 7D 
    637      6549.892 DT 0CF00A00 Rx 8  00 00 00 00 FF FF FF FF 
    638      6550.832 DT 18FEDF00 Rx 8  87 FF FF FF 7D 00 00 00 
    639      6559.828 DT 0CF00400 Rx 8  00 7D 7D 00 00 00 F0 7D 
    640      6560.828 DT 18F00E00 Rx 8  A0 0F FE 71 FF FF FF FF 
    641      6561.892 DT 18FEDB00 Rx 8  FF FF 00 00 FF FF FF FF 
    642      6568.831 DT 0CF00400 Rx 8  00 7D 7D 00 00 00 F0 7D 
    643      6569.875 DT 0CFEF100 Rx 8  FF 00 00 70 FF 00 1F FF 
    644      6570.831 DT 18FEDF00 Rx 8  87 FF FF FF 7D 00 00 00 
    645      6579.833 DT 0CF00400 Rx 8  00 7D 7D 00 00 00 F0 7D 
    646      6580.841 DT 18FD9400 Rx 8  00 00 FF FF FF FF FF FF 
    647      6581.884 DT 18FEF600 Rx 8  FE 24 FE 4E FF FF FE FF 
    648      6588.855 DT 0CF00400 Rx 8  00 7D 7D 00 00 00 F0 7D 
    649      6589.903 DT 0CF00300 Rx 8  FA FE 00 FF FF 0C 00 FF 
    650      6590.870 DT 18FCFD00 Rx 8  FF FF FF FF 00 00 FF FF 
    651      6591.862 DT 18FEDF00 Rx 8  87 FF FF FF 7D 00 00 00 
    652      6599.876 DT 0CF00400 Rx 8  00 7D 7D 00 00 00 F0 7D 
    653      6600.884 DT 0CF00A00 Rx 8  00 00 00 00 FF FF FF FF 
    654      6601.912 DT 18F0000F Rx 8  20 7D 7D F3 00 7D FE 64 
    655      6608.890 DT 0CF00400 Rx 8  00 7D 7D 00 00 00 F0 7D 
    656      6609.965 DT 18F00E00 Rx 8  A0 0F FE 71 FF FF FF FF 
    657      6610.913 DT 18FEF200 Rx 8  00 00 00 00 13 05 FE FF 
    658      6611.913 DT 18FEDF00 Rx 8  87 FF FF FF 7D 00 00 00 
    659      6619.927 DT 0CF00400 Rx 8  00 7D 7D 00 00 00 F0 7D 
    660      6620.943 DT 10FDA300 Rx 8  FF FF FA FF FF FF FF FF 
    661      6621.991 DT 18FEE000 Rx 8  FF FF FF FF 33 33 00 00 
    662      6628.941 DT 0CF00400 Rx 8  00 7D 7D 00 00 00 F0 7D 
    663      6629.997 DT 18FF4500 Rx 8  78 00 FA 00 FF 00 00 AC 
    664      6630.945 DT 18FEDF00 Rx 8  87 FF FF FF 7D 00 00 00 
    665      6631.941 DT 1CFE9200 Rx 8  FF 80 97 FF FF FF FF FF 
    666      6639.944 DT 1CECFF00 Rx 8  20 CA 00 1D FF CA FE 00 
    667      6640.952 DT 0CF00400 Rx 8  00 7D 7D 00 00 00 F0 7D 
    668      6642.006 DT 0CF00300 Rx 8  FA FE 00 FF FF 0C 00 FF 
    669      6642.950 DT 18FEA400 Rx 8  FF FF FF FF FF FF 20 4A 
    670      6648.968 DT 0CF00400 Rx 8  00 7D 7D 00 00 00 F0 7D 
    671      6650.036 DT 0CF00A00 Rx 8  00 00 00 00 FF FF FF FF 
    672      6650.976 DT 18FEDF00 Rx 8  87 FF FF FF 7D 00 00 00 
    673      6659.986 DT 0CF00400 Rx 8  00 7D 7D 00 00 00 F0 7D 
    674      6660.982 DT 18F00E00 Rx 8  A0 0F FE 71 FF FF FF FF 
    675      6662.053 DT 18FDD000 Rx 8  FF FF FF FF 19 FF FF FF 
    676      6669.007 DT 0CF00400 Rx 8  00 7D 7D 00 00 00 F0 7D 
    677      6670.082 DT 0CFEF100 Rx 8  FF 00 00 70 FF 00 1F FF 
    678      6671.038 DT 18FEDF00 Rx 8  87 FF FF FF 7D 00 00 00 
    679      6680.041 DT 0CF00400 Rx 8  00 7D 7D 00 00 00 F0 7D 
    680      6681.058 DT 18FD9400 Rx 8  00 00 FF FF FF FF FF FF 
    681      6682.130 DT 18FEA600 Rx 8  00 00 FF FF FF FF FF FF 
    682      6689.094 DT 0CF00400 Rx 8  00 7D 7D 00 00 00 F0 7D 
    683      6690.138 DT 0CF00300 Rx 8  FA FE 00 FF FF 0C 00 FF 
    684      6691.093 DT 18FCFD00 Rx 8  FF FF FF FF 00 00 FF FF 
    685      6692.085 DT 18FEDF00 Rx 8  87 FF FF FF 7D 00 00 00 
    686      6700.072 DT 1CEBFF00 Rx 8  01 57 FF 9D 00 03 01 FB 
    687      6701.080 DT 0CF00400 Rx 8  00 7D 7D 00 00 00 F0 7D 
    688      6702.143 DT 0CF00A00 Rx 8  00 00 00 00 FF FF FF FF 
    689      6703.079 DT 0CFD9200 Rx 8  F0 FF FF FF FF C3 FF FF 
    690      6704.054 DT 18F0000F Rx 8  20 7D 7D F3 00 7D FE 64 
    691      6709.072 DT 0CF00400 Rx 8  00 7D 7D 00 00 00 F0 7D 
    692      6710.120 DT 18F00E00 Rx 8  A0 0F FE 71 FF FF FF FF 
    693      6711.068 DT 18FEF200 Rx 8  00 00 00 00 13 05 FE FF 
    694      6712.068 DT 18FF4600 Rx 8  FF 00 00 00 FF FF FF FF 
    695      6713.076 DT 18FEDF00 Rx 8  87 FF FF FF 7D 00 00 00 
    696      6720.063 DT 0CF00400 Rx 8  00 7D 7D 00 00 00 F0 7D 
    697      6721.075 DT 10FDA300 Rx 8  FF FF FA FF FF FF FF FF 
    698      6722.097 DT 18FEE000 Rx 8  FF FF FF FF 33 33 00 00 
    699      6729.055 DT 0CF00400 Rx 8  00 7D 7D 00 00 00 F0 7D 
    700      6730.111 DT 18FF4500 Rx 8  78 00 FA 00 FF 00 00 AC 
    701      6731.063 DT 18FEDF00 Rx 8  87 FF FF FF 7D 00 00 00 
    702      6732.047 DT 1CFE9200 Rx 8  FF 80 97 FF FF FF FF FF 
    703      6740.064 DT 0CF00400 Rx 8  00 7D 7D 00 00 00 F0 7D 
    704      6741.056 DT 0CF00300 Rx 8  FA FE 00 FF FF 0C 00 FF 
    705      6742.116 DT 18FFA800 Rx 8  FF FE 00 00 04 10 0F FB 
    706      6749.065 DT 0CF00400 Rx 8  00 7D 7D 00 00 00 F0 7D 
    707      6750.117 DT 0CF00A00 Rx 8  00 00 00 00 FF FF FF FF 
    708      6751.061 DT 18FEDF00 Rx 8  87 FF FF FF 7D 00 00 00 
    709      6760.025 DT 1CEBFF00 Rx 8  02 06 0B 24 4A 00 0E 23 
    710      6761.035 DT 0CF00400 Rx 8  00 7D 7D 00 00 00 F0 7D 
    711      6762.083 DT 18F00E00 Rx 8  A0 0F FE 71 FF FF FF FF 
    712      6763.027 DT 18FE6900 Rx 8  FF FF FF FF FF FF 20 1D 
    713      6769.031 DT 0CF00400 Rx 8  00 7D 7D 00 00 00 F0 7D 
    714      6770.069 DT 0CFEF100 Rx 8  FF 00 00 70 FF 00 1F FF 
    715      6771.025 DT 18FEDF00 Rx 8  87 FF FF FF 7D 00 00 00 
    716      6779.995 DT 0CF00400 Rx 8  00 7D 7D 00 00 00 F0 7D 
    717      6781.007 DT 18FD9400 Rx 8  00 00 FF FF FF FF FF FF 
    718      6782.028 DT 18FEBD00 Rx 8  FF FF 00 00 FF FF FF FF 
    719      6788.957 DT 0CF00400 Rx 8  00 7D 7D 00 00 00 F0 7D 
    720      6789.984 DT 0CF00300 Rx 8  FA FE 00 FF FF 0C 00 FF 
    721      6790.940 DT 18FCFD00 Rx 8  FF FF FF FF 00 00 FF FF 
    722      6791.919 DT 18FEDF00 Rx 8  87 FF FF FF 7D 00 00 00 
    723      6799.913 DT 0CF00400 Rx 8  00 7D 7D 00 00 00 F0 7D 
    724      6800.921 DT 0CF00A00 Rx 8  00 00 00 00 FF FF FF FF 
    725      6801.942 DT 18F0000F Rx 8  20 7D 7D F3 00 7D FE 64 
    726      6808.896 DT 0CF00400 Rx 8  00 7D 7D 00 00 00 F0 7D 
    727      6809.952 DT 18F00E00 Rx 8  A0 0F FE 71 FF FF FF FF 
    728      6810.886 DT 18FEF200 Rx 8  00 00 00 00 13 05 FE FF 
    729      6811.886 DT 18FEDF00 Rx 8  87 FF FF FF 7D 00 00 00 
    730      6819.874 DT 1CEBFF00 Rx 8  03 E1 06 0E 24 66 00 04 
    731      6820.886 DT 0CF00400 Rx 8  00 7D 7D 00 00 00 F0 7D 
    732      6821.932 DT 10FDA300 Rx 8  FF FF FA FF FF FF FF FF 
    733      6822.864 DT 18FEE000 Rx 8  FF FF FF FF 33 33 00 00 
    734      6828.862 DT 0CF00400 Rx 8  00 7D 7D 00 00 00 F0 7D 
    735      6829.908 DT 18FF4500 Rx 8  78 00 FA 00 FF 00 00 AC 
    736      6830.860 DT 18FEDF00 Rx 8  87 FF FF FF 7D 00 00 00 
    737      6831.852 DT 1CFE9200 Rx 8  FF 80 97 FF FF FF FF FF 
    738      6839.819 DT 0CF00400 Rx 8  00 7D 7D 00 00 00 F0 7D 
    739      6840.815 DT 0CF00300 Rx 8  FA FE 00 FF FF 0C 00 FF 
    740      6841.867 DT 18FEE400 Rx 8  00 7F FD FC F0 FF FF FF 
    741      6848.822 DT 0CF00400 Rx 8  00 7D 7D 00 00 00 F0 7D 
    742      6849.882 DT 0CF00A00 Rx 8  00 00 00 00 FF FF FF FF 
    743      6850.822 DT 18FEDF00 Rx 8  87 FF FF FF 7D 00 00 00 
    744      6859.818 DT 0CF00400 Rx 8  00 7D 7D 00 00 00 F0 7D 
    745      6860.810 DT 18F00E00 Rx 8  A0 0F FE 71 FF FF FF FF 
    746      6861.874 DT 18FEDD00 Rx 8  FF 00 00 FF FF FF FF FF 
    747      6868.822 DT 0CF00400 Rx 8  00 7D 7D 00 00 00 F0 7D 
    748      6869.870 DT 0CFEF100 Rx 8  FF 00 00 70 FF 00 1F FF 
    749      6870.822 DT 18FEDF00 Rx 8  87 FF FF FF 7D 00 00 00 
    750      6879.802 DT 1CEBFF00 Rx 8  04 01 51 00 04 01 B9 04 
    751      6880.822 DT 0CF00400 Rx 8  00 7D 7D 00 00 00 F0 7D 
    752      6881.874 DT 18FD9400 Rx 8  00 00 FF FF FF FF FF FF 
    753      6882.814 DT 18FE9A00 Rx 8  A0 24 FF FF FF FF FF FF 
    754      6889.873 DT 0CF00400 Rx 8  00 7D 7D 00 00 00 F0 7D 
    755      6890.813 DT 0CF00300 Rx 8  FA FE 00 FF FF 0C 00 FF 
    756      6891.821 DT 18FCFD00 Rx 8  FF FF FF FF 00 00 FF FF 
    757      6892.821 DT 18FEDF00 Rx 8  87 FF FF FF 7D 00 00 00 
    758      6899.817 DT 0CF00400 Rx 8  00 7D 7D 00 00 00 F0 7D 
    759      6900.821 DT 0CF00A00 Rx 8  00 00 00 00 FF FF FF FF 
    760      6901.853 DT 18F0000F Rx 8  20 7D 7D F3 00 7D FE 64 
    761      6902.809 DT 18FE9900 Rx 8  F3 A6 FF FF FF FF FF FF 
    762      6908.824 DT 0CF00400 Rx 8  00 7D 7D 00 00 00 F0 7D 
    763      6909.868 DT 18F00E00 Rx 8  A0 0F FE 71 FF FF FF FF 
    764      6910.816 DT 18FEF200 Rx 8  00 00 00 00 13 05 FE FF 
    765      6911.816 DT 18FEDF00 Rx 8  87 FF FF FF 7D FF FE 00 
    766      6919.816 DT 0CF00400 Rx 8  00 7D 7D 00 00 00 F0 7D 
    767      6920.820 DT 10FDA300 Rx 8  FF FF FA FF FF FF FF FF 
    768      6921.864 DT 18FEE000 Rx 8  FF FF FF FF 33 33 00 00 
    769      6922.812 DT 18FE9800 Rx 8  00 32 FF FF FF FF FF FF 
    770      6929.872 DT 0CF00400 Rx 8  00 7D 7D 00 00 00 F0 7D 
    771      6930.811 DT 18FF4500 Rx 8  78 00 FA 00 FF 00 00 AC 
    772      6931.815 DT 18FEDF00 Rx 8  87 FF FF FF 7D FF FE 00 
    773      6932.811 DT 1CFE9200 Rx 8  FF 80 97 FF FF FF FF FF 
    774      6939.799 DT 1CEBFF00 Rx 8  05 04 01 69 00 03 01 46 
    775      6940.819 DT 0CF00400 Rx 8  00 7D 7D 00 00 00 F0 7D 
    776      6941.863 DT 0CF00300 Rx 8  FA FE 00 FF FF 0C 00 FF 
    777      6942.815 DT 18FFA800 Rx 8  FF FE FF FE 04 10 0F FB 
    778      6943.819 DT 18FE9700 Rx 8  00 32 FF FF FF FF FF FF 
    779      6948.811 DT 0CF00400 Rx 8  00 7D 7D 00 00 00 F0 7D 
    780      6949.879 DT 0CF00A00 Rx 8  00 00 00 00 FF FF FF FF 
    781      6950.815 DT 0CFD9200 Rx 8  F0 FF FF FF FF C3 FF FF 
    782      6951.815 DT 18FEDF00 Rx 8  87 FF FF FF 7D FF FE 00 
    783      6959.815 DT 0CF00400 Rx 8  00 7D 7D 00 00 00 F0 7D 
    784      6960.811 DT 18F00E00 Rx 8  A0 0F FE 71 FF FF FF FF 
    785      6961.871 DT 18FF4600 Rx 8  FF 00 00 00 FF FF FF FF 
    786      6962.819 DT 18FDD300 Rx 8  FF FE FF FF FF FF FF FF 
    787      6969.874 DT 0CF00400 Rx 8  00 7D 7D 00 00 00 F0 7D 
    788      6970.807 DT 0CFEF100 Rx 8  FF 00 00 70 FF 00 1F FF 
    789      6971.815 DT 18FEDF00 Rx 8  87 FF FF FF 7D FF FE 00 
    790      6972.807 DT 18FEC100 Rx 8  11 00 05 00 11 00 05 00 
    791      6979.814 DT 0CF00400 Rx 8  00 7D 7D 00 00 00 F0 7D 
    792      6980.818 DT 18FD9400 Rx 8  00 00 FF FF FF FF FF FF 
    793      6981.878 DT 18FD8C00 Rx 8  FF FE FF FF FF FF FF FF 
    794      6982.814 DT 18FEF700 Rx 8  FF FF FF FF F1 00 FF FF 
    795      6988.818 DT 0CF00400 Rx 8  00 7D 7D 00 00 00 F0 7D 
    796      6989.866 DT 0CF00300 Rx 8  FA FE 00 FF FF 0C 00 FF 
    797      6990.818 DT 18FCFD00 Rx 8  FF FF FF FF 00 00 FF FF 
    798      6991.814 DT 18FEDF00 Rx 8  87 FF FF FF 7D FF FE 00 
    799      6998.802 DT 1CEBFF00 Rx 8  06 0A 03 01 AB 00 03 01 
    800      6999.814 DT 0CF00400 Rx 8  00 7D 7D 00 00 00 F0 7D 
    801      7000.822 DT 0CF00A00 Rx 8  00 00 00 00 FF FF FF FF 
    802      7001.850 DT 18F0000F Rx 8  20 7D 7D F3 00 7D FE 64 
    803      7002.822 DT 18FF4A00 Rx 8  00 00 00 FF FF FF FF FF 
    804      7009.870 DT 0CF00400 Rx 8  00 7D 7D 00 00 00 F0 7D 
    805      7010.810 DT 18F00E00 Rx 8  A0 0F FE 71 FF FF FF FF 
    806      7011.810 DT 18FEF200 Rx 8  00 00 00 00 13 05 FE FF 
    807      7012.813 DT 18FEDF00 Rx 8  87 FF FF FF 7D FF FE 00 
    808      7019.812 DT 0CF00400 Rx 8  00 7D 7D 00 00 00 F0 7D 
    809      7020.820 DT 10FDA300 Rx 8  FF FF FA FF FF FF FF FF 
    810      7021.860 DT 18FEE000 Rx 8  FF FF FF FF 33 33 00 00 
    811      7022.796 DT 18FD0900 Rx 8  FF FF FF FF E3 DA 09 00 
    812      7029.868 DT 0CF00400 Rx 8  00 7D 7D 00 00 00 F0 7D 
    813      7030.808 DT 18FF4500 Rx 8  78 00 FA 00 FF 00 00 AC 
    814      7031.812 DT 18FEDF00 Rx 8  87 FF FF FF 7D FF FE 00 
    815      7032.808 DT 1CFE9200 Rx 8  FF 80 97 FF FF FF FF FF 
    816      7039.812 DT 0CF00400 Rx 8  00 7D 7D 00 00 00 F0 7D 
    817      7040.812 DT 0CF00300 Rx 8  FA FE 00 FF FF 0C 00 FF 
    818      7041.864 DT 18FEEF00 Rx 8  FE FF FF FE FF FF FF 00 
    819      7042.812 DT 18FF4800 Rx 8  00 00 F3 FF 00 00 00 00 
    820      7048.808 DT 0CF00400 Rx 8  00 7D 7D 00 00 00 F0 7D 
    821      7049.876 DT 0CF00A00 Rx 8  00 00 00 00 FF FF FF FF 
    822      7050.816 DT 18FEDF00 Rx 8  87 FF FF FF 7D FF FE 00 
    823      7059.799 DT 1CEBFF00 Rx 8  07 CF 04 02 01 D3 04 02 
    824      7060.811 DT 0CF00400 Rx 8  00 7D 7D 00 00 00 F0 7D 
    825      7061.859 DT 18F00E00 Rx 8  A0 0F FE 71 FF FF FF FF 
    826      7062.815 DT 18FEDB00 Rx 8  FF FF 00 00 FF FF FF FF 
    827      7069.867 DT 0CF00400 Rx 8  00 7D 7D 00 00 00 F0 7D 
    828      7070.803 DT 0CFEF100 Rx 8  FF 00 00 70 FF 00 1F FF 
    829      7071.811 DT 18FEDF00 Rx 8  87 FF FF FF 7D FF FE 00 
    830      7079.811 DT 0CF00400 Rx 8  00 7D 7D 00 00 00 F0 7D 
    831      7080.815 DT 18FD9400 Rx 8  00 00 FF FF FF FF FF FF 
    832      7081.855 DT 18FEF600 Rx 8  FE FE FE FE FF FF FE FF 
    833      7088.807 DT 0CF00400 Rx 8  00 7D 7D 00 00 00 F0 7D 
    834      7089.863 DT 0CF00300 Rx 8  FA FE 00 FF FF 0C 00 FF 
    835      7090.815 DT 18FCFD00 Rx 8  FF FF FF FF 00 00 FF FF 
    836      7091.811 DT 18FEDF00 Rx 8  87 FF FF FF 7D FF FE 00 
    837      7099.814 DT 0CF00400 Rx 8  00 7D 7D 00 00 00 F0 7D 
    838      7100.818 DT 0CF00A00 Rx 8  00 00 00 00 FF FF FF FF 
    839      7101.846 DT 18F0000F Rx 8  20 7D 7D F3 00 7D FE 64 
    840      7108.814 DT 0CF00400 Rx 8  00 7D 7D 00 00 00 F0 7D 
    841      7109.862 DT 18F00E00 Rx 8  A0 0F FE 71 FF FF FF FF 
    842      7110.806 DT 18FEF200 Rx 8  00 00 00 00 13 05 FE FF 
    843      7111.810 DT 18FEDF00 Rx 8  87 FF FF FF 7D FF FE 00 
    844      7119.802 DT 1CEBFF00 Rx 8  08 01 84 06 02 01 6E 00 
    845      7120.810 DT 0CF00400 Rx 8  00 7D 7D 00 00 00 F0 7D 
    846      7121.870 DT 10FDA300 Rx 8  FF FF FA FF FF FF FF FF 
    847      7122.798 DT 18FEE000 Rx 8  FF FF FF FF 33 33 00 00 
    848      7129.866 DT 0CF00400 Rx 8  00 7D 7D 00 00 00 F0 7D 
    849      7130.802 DT 18FF4500 Rx 8  78 00 FA 00 FF 00 00 AC 
    850      7131.810 DT 18FEDF00 Rx 8  87 FF FF FF 7D FF FE 00 
    851      7132.806 DT 1CFE9200 Rx 8  FF 80 97 FF FF FF FF FF 
    852      7139.808 DT 0CF00400 Rx 8  00 7D 7D 00 00 00 F0 7D 
    853      7140.804 DT 0CF00300 Rx 8  FA FE 00 FF FF 0C 00 FF 
    854      7141.864 DT 18FFA800 Rx 8  FF FE FF FE 04 10 0F FB 
    855      7148.816 DT 0CF00400 Rx 8  00 7D 7D 00 00 00 F0 7D 
    856      7149.872 DT 0CF00A00 Rx 8  00 00 00 00 FF FF FF FF 
    857      7150.812 DT 18FEDF00 Rx 8  87 FF FF FF 7D FF FE 00 
    858      7159.808 DT 0CF00400 Rx 8  00 7D 7D 00 00 00 F0 7D 
    859      7160.804 DT 18F00E00 Rx 8  A0 0F FE 71 FF FF FF FF 
    860      7161.864 DT 18FDD000 Rx 8  FF FF FF FF 19 FF FF FF 
    861      7169.864 DT 0CF00400 Rx 8  00 7D 7D 00 00 00 F0 7D 
    862      7170.796 DT 0CFEF100 Rx 8  FF 00 00 70 FF 00 1F FF 
    863      7171.808 DT 18FEDF00 Rx 8  87 FF FF FF 7D FF FE 00 
    864      7179.796 DT 1CEBFF00 Rx 8  09 03 01 5E 00 04 01 AE 
    865      7180.808 DT 0CF00400 Rx 8  00 7D 7D 00 00 00 F0 7D 
    866      7181.863 DT 18FD9400 Rx 8  00 00 FF FF FF FF FF FF 
    867      7182.803 DT 18FEA600 Rx 8  00 00 FF FF FF FF FF FF 
    868      7189.863 DT 0CF00400 Rx 8  00 7D 7D 00 00 00 F0 7D 
    869      7190.803 DT 0CF00300 Rx 8  FA FE 00 FF FF 0C 00 FF 
    870      7191.811 DT 18FCFD00 Rx 8  FF FF FF FF 00 00 FF FF 
    871      7192.807 DT 18FEDF00 Rx 8  87 FF FF FF 7D FF FE 00 
    872      7199.807 DT 0CF00400 Rx 8  00 7D 7D 00 00 00 F0 7D 
    873      7200.815 DT 0CF00A00 Rx 8  00 00 00 00 FF FF FF FF 
    874      7201.859 DT 0CFD9200 Rx 8  F0 FF FF FF FF C3 FF FF 
    875      7202.783 DT 18F0000F Rx 8  20 7D 7D F3 00 7D FE 64 
    876      7208.811 DT 0CF00400 Rx 8  00 7D 7D 00 00 00 F0 7D 
    877      7209.859 DT 18F00E00 Rx 8  A0 0F FE 71 FF FF FF FF 
    878      7210.803 DT 18FEF200 Rx 8  00 00 00 00 13 05 FE FF 
    879      7211.807 DT 18FF4600 Rx 8  FF 00 00 00 FF FF FF FF 
    880      7212.807 DT 18FEDF00 Rx 8  87 FF FF FF 7D FF FE 00 
    881      7219.807 DT 0CF00400 Rx 8  00 7D 7D 00 00 00 F0 7D 
    882      7220.815 DT 10FDA300 Rx 8  FF FF FA FF FF FF FF FF 
    883      7221.854 DT 18FEE000 Rx 8  FF FF FF FF 33 33 00 00 
    884      7229.862 DT 0CF00400 Rx 8  00 7D 7D 00 00 00 F0 7D 
    885      7230.802 DT 18FF4500 Rx 8  78 00 FA 00 FF 00 00 AC 
    886      7231.806 DT 18FEDF00 Rx 8  87 FF FF FF 7D FF FE 00 
    887      7232.806 DT 1CFE9200 Rx 8  FF 80 97 FF FF FF FF FF 
    888      7239.802 DT 1CEBFF00 Rx 8  0A 00 03 01 61 02 09 01 
    889      7240.806 DT 0CF00400 Rx 8  00 7D 7D 00 00 00 F0 7D 
    890      7241.854 DT 0CF00300 Rx 8  FA FE 00 FF FF 0C 00 FF 
    891      7242.778 DT 18FFA600 Rx 8  F0 FF FF 1F BA BA 11 00 
    892      7248.802 DT 0CF00400 Rx 8  00 7D 7D 00 00 00 F0 7D 
    893      7249.870 DT 0CF00A00 Rx 8  00 00 00 00 FF FF FF FF 
    894      7250.806 DT 18FEDF00 Rx 8  87 FF FF FF 7D FF FE 00 
    895      7259.805 DT 0CF00400 Rx 8  00 7D 7D 00 00 00 F0 7D 
    896      7260.805 DT 18F00E00 Rx 8  A0 0F FE 71 FF FF FF FF 
    897      7261.857 DT 18FEF500 Rx 8  A7 FF FF FF FE FF FF FF 
    898      7269.861 DT 0CF00400 Rx 8  00 7D 7D 00 00 00 F0 7D 
    899      7270.797 DT 0CFEF100 Rx 8  FF 00 00 70 FF 00 1F FF 
    900      7271.805 DT 18FEDF00 Rx 8  87 FF FF FF 7D FF FE 00 
    901      7279.804 DT 0CF00400 Rx 8  00 7D 7D 00 00 00 F0 7D 
    902      7280.808 DT 18FD9400 Rx 8  00 00 FF FF FF FF FF FF 
    903      7281.844 DT 18FE5600 Rx 8  FF 3C FF FF 9F BF 00 FF 
    904      7288.800 DT 0CF00400 Rx 8  00 7D 7D 00 00 00 F0 7D 
    905      7289.856 DT 0CF00300 Rx 8  FA FE 00 FF FF 0C 00 FF 
    906      7290.808 DT 18FCFD00 Rx 8  FF FF FF FF 00 00 FF FF 
    907      7291.804 DT 18FEDF00 Rx 8  87 FF FF FF 7D FF FE 00 
    908      7299.792 DT 1CEBFF00 Rx 8  0B 7F 02 09 01 84 06 09 
    909      7300.804 DT 0CF00400 Rx 8  00 7D 7D 00 00 00 F0 7D 
    910      7301.864 DT 0CF00A00 Rx 8  00 00 00 00 FF FF FF FF 
    911      7302.780 DT 18F0000F Rx 8  20 7D 7D F3 00 7D FE 64 
    912      7308.800 DT 0CF00400 Rx 8  00 7D 7D 00 00 00 F0 7D 
    913      7309.856 DT 18F00E00 Rx 8  A0 0F FE 71 FF FF FF FF 
    914      7310.803 DT 18FEF200 Rx 8  00 00 00 00 13 05 FE FF 
    915      7311.803 DT 18FEDF00 Rx 8  87 FF FF FF 7D FF FE 00 
    916      7319.803 DT 0CF00400 Rx 8  00 7D 7D 00 00 00 F0 7D 
    917      7320.811 DT 10FDA300 Rx 8  FF FF FA FF FF FF FF FF 
    918      7321.851 DT 18FEE000 Rx 8  FF FF FF FF 33 33 00 00 
    919      7329.863 DT 0CF00400 Rx 8  00 7D 7D 00 00 00 F0 7D 
    920      7330.799 DT 18FF4500 Rx 8  78 00 FA 00 FF 00 00 AC 
    921      7331.803 DT 18FEDF00 Rx 8  87 FF FF FF 7D FF FE 00 
    922      7332.799 DT 1CFE9200 Rx 8  FF 80 97 FF FF FF FF FF 
    923      7339.803 DT 0CF00400 Rx 8  00 7D 7D 00 00 00 F0 7D 
    924      7340.799 DT 0CF00300 Rx 8  FA FE 00 FF FF 0C 00 FF 
    925      7341.858 DT 18FFA800 Rx 8  FF FE FF FE 04 10 0F FB 
    926      7348.797 DT 0CF00400 Rx 8  00 7D 7D 00 00 00 F0 7D 
    927      7349.865 DT 0CF00A00 Rx 8  00 00 00 00 FF FF FF FF 
    928      7350.805 DT 18FEDF00 Rx 8  87 FF FF FF 7D FF FE 00 
    929      7359.789 DT 1CEBFF00 Rx 8  0C 01 84 06 09 01 F8 13 
    930      7360.801 DT 0CF00400 Rx 8  00 7D 7D 00 00 00 F0 7D 
    931      7361.849 DT 18F00E00 Rx 8  A0 0F FE 71 FF FF FF FF 
    932      7362.801 DT 18FD0700 Rx 8  57 FF FF FF FF FF FF FF 
    933      7369.857 DT 0CF00400 Rx 8  00 7D 7D 00 00 00 F0 7D 
    934      7370.789 DT 0CFEF100 Rx 8  FF 00 00 70 FF 00 1F FF 
    935      7371.801 DT 18FEDF00 Rx 8  87 FF FF FF 7D FF FE 00 
    936      7379.801 DT 0CF00400 Rx 8  00 7D 7D 00 00 00 F0 7D 
    937      7380.801 DT 18FD9400 Rx 8  00 00 FF FF FF FF FF FF 
    938      7381.865 DT 18FD7C00 Rx 8  FF FF FF FF FF FF E3 FF 
    939      7388.812 DT 0CF00400 Rx 8  00 7D 7D 00 00 00 F0 7D 
    940      7389.852 DT 0CF00300 Rx 8  FA FE 00 FF FF 0C 00 FF 
    941      7390.808 DT 18FCFD00 Rx 8  FF FF FF FF 00 00 FF FF 
    942      7391.800 DT 18FEDF00 Rx 8  87 FF FF FF 7D FF FE 00 
    943      7399.800 DT 0CF00400 Rx 8  00 7D 7D 00 00 00 F0 7D 
    944      7400.808 DT 0CF00A00 Rx 8  00 00 00 00 FF FF FF FF 
    945      7401.836 DT 18F0000F Rx 8  20 7D 7D F3 00 7D FE 64 
    946      7408.796 DT 0CF00400 Rx 8  00 7D 7D 00 00 00 F0 7D 
    947      7409.852 DT 18F00E00 Rx 8  A0 0F FE 71 FF FF FF FF 
    948      7410.800 DT 18FEF200 Rx 8  00 00 00 00 13 05 FE FF 
    949      7411.800 DT 18FEDF00 Rx 8  87 FF FF FF 7D FF FE 00 
    950      7419.788 DT 1CEBFF00 Rx 8  0D 09 01 84 06 09 01 84 
    951      7420.800 DT 0CF00400 Rx 8  00 7D 7D 00 00 00 F0 7D 
    952      7421.860 DT 10FDA300 Rx 8  FF FF FA FF FF FF FF FF 
    953      7422.792 DT 18FEE000 Rx 8  FF FF FF FF 33 33 00 00 
    954      7429.859 DT 0CF00400 Rx 8  00 7D 7D 00 00 00 F0 7D 
    955      7430.795 DT 18FF4500 Rx 8  78 00 FA 00 FF 00 00 AC 
    956      7431.799 DT 18FEDF00 Rx 8  87 FF FF FF 7D FF FE 00 
    957      7432.795 DT 1CFE9200 Rx 8  FF 80 97 FF FF FF FF FF 
    958      7439.799 DT 0CF00400 Rx 8  00 7D 7D 00 00 00 F0 7D 
    959      7440.795 DT 0CF00300 Rx 8  FA FE 00 FF FF 0C 00 FF 
    960      7441.855 DT 18FEEE00 Rx 8  FE FE FF FE FF FF FF FF 
    961      7448.805 DT 0CF00400 Rx 8  00 7D 7D 00 00 00 F0 7D 
    962      7449.873 DT 0CF00A00 Rx 8  00 00 00 00 FF FF FF FF 
    963      7450.809 DT 0CFD9200 Rx 8  F0 FF FF FF FF C3 FF FF 
    964      7451.809 DT 18FEDF00 Rx 8  87 FF FF FF 7D FF FE 00 
    965      7459.826 DT 0CF00400 Rx 8  00 7D 7D 00 00 00 F0 7D 
    966      7460.822 DT 18F00E00 Rx 8  A0 0F FE 71 FF FF FF FF 
    967      7461.898 DT 18FF4600 Rx 8  FF 00 00 00 FF FF FF FF 
    968      7469.919 DT 0CF00400 Rx 8  00 7D 7D 00 00 00 F0 7D 
    969      7470.856 DT 0CFEF100 Rx 8  FF 00 00 70 FF 00 1F FF 
    970      7471.884 DT 18FEDF00 Rx 8  87 FF FF FF 7D FF FE 00 
    971      7479.881 DT 1CEBFF00 Rx 8  0E 06 09 01 84 06 09 01 
    972      7480.893 DT 0CF00400 Rx 8  00 7D 7D 00 00 00 F0 7D 
    973      7481.963 DT 18FD9400 Rx 8  00 00 FF FF FF FF FF FF 
    974      7482.915 DT 18FD8C00 Rx 8  FF FE FF FF FF FF FF FF 
    975      7489.978 DT 0CF00400 Rx 8  00 7D 7D 00 00 00 F0 7D 
    976      7490.918 DT 0CF00300 Rx 8  FA FE 00 FF FF 0C 00 FF 
    977      7491.926 DT 18FCFD00 Rx 8  FF FF FF FF 00 00 FF FF 
    978      7492.922 DT 18FEDF00 Rx 8  87 FF FF FF 7D FF FE 00 
    979      7499.935 DT 0CF00400 Rx 8  00 7D 7D 00 00 00 F0 7D 
    980      7500.947 DT 0CF00A00 Rx 8  00 00 00 00 FF FF FF FF 
    981      7501.971 DT 18F0000F Rx 8  20 7D 7D F3 00 7D FE 64 
    982      7508.948 DT 0CF00400 Rx 8  00 7D 7D 00 00 00 F0 7D 
    983      7510.000 DT 18F00E00 Rx 8  A0 0F FE 71 FF FF FF FF 
    984      7510.948 DT 18FEF200 Rx 8  00 00 00 00 13 05 FE FF 
    985      7511.949 DT 18FEDF00 Rx 8  87 FF FF FF 7D FF FE 00 
    986      7519.961 DT 0CF00400 Rx 8  00 7D 7D 00 00 00 F0 7D 
    987      7520.977 DT 10FDA300 Rx 8  FF FF FA FF FF FF FF FF 
    988      7522.022 DT 18FEE000 Rx 8  FF FF FF FF 33 33 00 00 
    989      7530.040 DT 0CF00400 Rx 8  00 7D 7D 00 00 00 F0 7D 
    990      7530.976 DT 18FF4500 Rx 8  78 00 FA 00 FF 00 00 AC 
    991      7531.980 DT 18FEDF00 Rx 8  87 FF FF FF 7D FF FE 00 
    992      7532.976 DT 1CFE9200 Rx 8  FF 80 97 FF FF FF FF FF 
    993      7539.984 DT 1CEBFF00 Rx 8  0F 84 06 09 01 FD 13 09 
    994      7540.992 DT 0CF00400 Rx 8  00 7D 7D 00 00 00 F0 7D 
    995      7542.044 DT 0CF00300 Rx 8  FA FE 00 FF FF 0C 00 FF 
    996      7542.988 DT 18FFA800 Rx 8  FF FE FF FE 04 10 0F FB 
    997      7543.988 DT 18FEEF00 Rx 8  FE FF FF FE FF FF FF 00 
    998      7549.006 DT 0CF00400 Rx 8  00 7D 7D 00 00 00 F0 7D 
    999      7550.062 DT 0CF00A00 Rx 8  00 00 00 00 FF FF FF FF 
   1000      7551.002 DT 18FEDF00 Rx 8  87 FF FF FF 7D FF FE 00 
   1001      7560.006 DT 0CF00400 Rx 8  00 7D 7D 00 00 00 F0 7D 
   1002      7560.998 DT 18F00E00 Rx 8  A0 0F FE 71 FF FF FF FF 
   1003      7562.075 DT 18FEDB00 Rx 8  FF FF 00 00 FF FF FF FF 
   1004      7570.050 DT 0CF00400 Rx 8  00 7D 7D 00 00 00 F0 7D 
   1005      7570.986 DT 0CFEF100 Rx 8  FF 00 00 70 FF 00 1F FF 
   1006      7571.977 DT 18FEDF00 Rx 8  87 FF FF FF 7D FF FE 00 
   1007      7579.973 DT 0CF00400 Rx 8  00 7D 7D 00 00 00 F0 7D 
   1008      7580.985 DT 18FD9400 Rx 8  00 00 FF FF FF FF FF FF 
   1009      7582.020 DT 18FEF600 Rx 8  FE FE FE FE FF FF FE FF 
   1010      7588.965 DT 0CF00400 Rx 8  00 7D 7D 00 00 00 F0 7D 
   1011      7590.021 DT 0CF00300 Rx 8  FA FE 00 FF FF 0C 00 FF 
   1012      7590.977 DT 18FCFD00 Rx 8  FF FF FF FF 00 00 FF FF 
   1013      7591.959 DT 18FEDF00 Rx 8  87 FF FF FF 7D FF FE 00 
   1014      7598.938 DT 1CEBFF00 Rx 8  10 01 84 06 09 01 84 06 
   1015      7599.966 DT 0CF00400 Rx 8  00 7D 7D 00 00 00 F0 7D 
   1016      7600.974 DT 0CF00A00 Rx 8  00 00 00 00 FF FF FF FF 
   1017      7601.989 DT 18F0000F Rx 8  20 7D 7D F3 00 7D FE 64 
   1018      7608.962 DT 0CF00400 Rx 8  00 7D 7D 00 00 00 F0 7D 
   1019      7610.035 DT 18F00E00 Rx 8  A0 0F FE 71 FF FF FF FF 
   1020      7610.983 DT 18FEF200 Rx 8  00 00 00 00 13 05 FE FF 
   1021      7611.971 DT 18FEDF00 Rx 8  87 FF FF FF 7D FF FE 00 
   1022      7619.985 DT 0CF00400 Rx 8  00 7D 7D 00 00 00 F0 7D 
   1023      7620.993 DT 10FDA300 Rx 8  FF FF FA FF FF FF FF FF 
   1024      7622.039 DT 18FEE000 Rx 8  FF FF FF FF 33 33 00 00 
   1025      7630.052 DT 0CF00400 Rx 8  00 7D 7D 00 00 00 F0 7D 
   1026      7630.975 DT 18FF4500 Rx 8  78 00 FA 00 FF 00 00 AC 
   1027      7631.983 DT 18FEDF00 Rx 8  87 FF FF FF 7D FF FE 00 
   1028      7632.979 DT 1CFE9200 Rx 8  FF 80 97 FF FF FF FF FF 
   1029      7639.989 DT 0CF00400 Rx 8  00 7D 7D 00 00 00 F0 7D 
   1030      7640.985 DT 0CF00300 Rx 8  FA FE 00 FF FF 0C 00 FF 
   1031      7642.035 DT 18FEA400 Rx 8  FF FF FF FF FF FF 20 4A 
   1032      7649.000 DT 0CF00400 Rx 8  00 7D 7D 00 00 00 F0 7D 
   1033      7650.060 DT 0CF00A00 Rx 8  00 00 00 00 FF FF FF FF 
   1034      7651.002 DT 18FEDF00 Rx 8  87 FF FF FF 7D FF FE 00 
   1035      7659.984 DT 1CEBFF00 Rx 8  11 09 01 84 06 09 01 D4 
   1036      7661.004 DT 0CF00400 Rx 8  00 7D 7D 00 00 00 F0 7D 
   1037      7662.054 DT 18F00E00 Rx 8  A0 0F FE 71 FF FF FF FF 
   1038      7663.006 DT 18FDD000 Rx 8  FF FF FF FF 19 FF FF FF 
   1039      7670.066 DT 0CF00400 Rx 8  00 7D 7D 00 00 00 F0 7D 
   1040      7671.002 DT 0CFEF100 Rx 8  FF 00 00 70 FF 00 1F FF 
   1041      7672.014 DT 18FEDF00 Rx 8  87 FF FF FF 7D FF FE 00 
   1042      7680.020 DT 0CF00400 Rx 8  00 7D 7D 00 00 00 F0 7D 
   1043      7681.028 DT 18FD9400 Rx 8  00 00 FF FF FF FF FF FF 
   1044      7682.076 DT 18FEA600 Rx 8  00 00 FF FF FF FF FF FF 
   1045      7689.020 DT 0CF00400 Rx 8  00 7D 7D 00 00 00 F0 7D 
   1046      7690.076 DT 0CF00300 Rx 8  FA FE 00 FF FF 0C 00 FF 
   1047      7691.031 DT 18FCFD00 Rx 8  FF FF FF FF 00 00 FF FF 
   1048      7692.023 DT 18FEDF00 Rx 8  87 FF FF FF 7D FF FE 00 
   1049      7700.029 DT 0CF00400 Rx 8  00 7D 7D 00 00 00 F0 7D 
   1050      7701.037 DT 0CF00A00 Rx 8  00 00 00 00 FF FF FF FF 
   1051      7702.075 DT 0CFD9200 Rx 8  F0 FF FF FF FF C3 FF FF 
   1052      7702.999 DT 18F0000F Rx 8  20 7D 7D F3 00 7D FE 64 
   1053      7709.004 DT 0CF00400 Rx 8  00 7D 7D 00 00 00 F0 7D 
   1054      7710.074 DT 18F00E00 Rx 8  A0 0F FE 71 FF FF FF FF 
   1055      7711.018 DT 18FEF200 Rx 8  00 00 00 00 13 05 FE FF 
   1056      7712.015 DT 18FF4600 Rx 8  FF 00 00 00 FF FF FF FF 
   1057      7713.019 DT 18FEDF00 Rx 8  87 FF FF FF 7D FF FE 00 
   1058      7720.009 DT 1CEBFF00 Rx 8  12 04 09 01 84 06 09 01 
   1059      7720.989 DT 0CF00400 Rx 8  00 7D 7D 00 00 00 F0 7D 
   1060      7722.052 DT 10FDA300 Rx 8  FF FF FA FF FF FF FF FF 
   1061      7722.980 DT 18FEE000 Rx 8  FF FF FF FF 33 33 00 00 
   1062      7730.047 DT 0CF00400 Rx 8  00 7D 7D 00 00 00 F0 7D 
   1063      7730.987 DT 18FF4500 Rx 8  78 00 FA 00 FF 00 00 AC 
   1064      7731.976 DT 18FEDF00 Rx 8  87 FF FF FF 7D FF FE 00 
   1065      7732.972 DT 1CFE9200 Rx 8  FF 80 97 FF FF FF FF FF 
   1066      7739.970 DT 0CF00400 Rx 8  00 7D 7D 00 00 00 F0 7D 
   1067      7740.966 DT 0CF00300 Rx 8  FA FE 00 FF FF 0C 00 FF 
   1068      7742.019 DT 18FFA800 Rx 8  FF FE FF FE 04 10 0F FB 
   1069      7748.961 DT 0CF00400 Rx 8  00 7D 7D 00 00 00 F0 7D 
   1070      7750.021 DT 0CF00A00 Rx 8  00 00 00 00 FF FF FF FF 
   1071      7750.950 DT 18FEDF00 Rx 8  87 FF FF FF 7D FF FE 00 
   1072      7759.937 DT 0CF00400 Rx 8  00 7D 7D 00 00 00 F0 7D 
   1073      7760.933 DT 18F00E00 Rx 8  A0 0F FE 71 FF FF FF FF 
   1074      7761.977 DT 18FE6900 Rx 8  FF FF FF FF FF FF 20 1D 
   1075      7769.978 DT 0CF00400 Rx 8  00 7D 7D 00 00 00 F0 7D 
   1076      7770.911 DT 0CFEF100 Rx 8  FF 00 00 70 FF 00 1F FF 
   1077      7771.909 DT 18FEDF00 Rx 8  87 FF FF FF 7D FF FE 00 
   1078      7779.880 DT 1CEBFF00 Rx 8  13 84 06 09 01 AF 00 03 
   1079      7780.888 DT 0CF00400 Rx 8  00 7D 7D 00 00 00 F0 7D 
   1080      7781.937 DT 18FD9400 Rx 8  00 00 FF FF FF FF FF FF 
   1081      7782.877 DT 18FEBD00 Rx 8  FF FF 00 00 FF FF FF FF 
   1082      7788.877 DT 0CF00400 Rx 8  00 7D 7D 00 00 00 F0 7D 
   1083      7789.933 DT 0CF00300 Rx 8  FA FE 00 FF FF 0C 00 FF 
   1084      7790.871 DT 18FCFD00 Rx 8  FF FF FF FF 00 00 FF FF 
   1085      7791.867 DT 18FEDF00 Rx 8  87 FF FF FF 7D FF FE 00 
   1086      7799.844 DT 0CF00400 Rx 8  00 7D 7D 00 00 00 F0 7D 
   1087      7800.844 DT 0CF00A00 Rx 8  00 00 00 00 FF FF FF FF 
   1088      7801.874 DT 18F0000F Rx 8  20 7D 7D F3 00 7D FE 64 
   1089      7808.845 DT 0CF00400 Rx 8  00 7D 7D 00 00 00 F0 7D 
   1090      7809.889 DT 18F00E00 Rx 8  A0 0F FE 71 FF FF FF FF 
   1091      7810.833 DT 18FEF200 Rx 8  00 00 00 00 13 05 FE FF 
   1092      7811.833 DT 18FEDF00 Rx 8  87 FF FF FF 7D FF FE 00 
   1093      7819.825 DT 0CF00400 Rx 8  00 7D 7D 00 00 00 F0 7D 
   1094      7820.833 DT 10FDA300 Rx 8  FF FF FA FF FF FF FF FF 
   1095      7821.855 DT 18FEE000 Rx 8  FF FF FF FF 33 33 00 00 
   1096      7829.855 DT 0CF00400 Rx 8  00 7D 7D 00 00 00 F0 7D 
   1097      7830.791 DT 18FF4500 Rx 8  78 00 FA 00 FF 00 00 AC 
   1098      7831.795 DT 18FEDF00 Rx 8  87 FF FF FF 7D FF FE 00 
   1099      7832.795 DT 1CFE9200 Rx 8  FF 80 97 FF FF FF FF FF 
   1100      7839.784 DT 1CEBFF00 Rx 8  14 01 9C 01 03 01 9B 01 
   1101      7840.796 DT 0CF00400 Rx 8  00 7D 7D 00 00 00 F0 7D 
   1102      7841.830 DT 0CF00300 Rx 8  FA FE 00 FF FF 0C 00 FF 
   1103      7842.778 DT 18FEE400 Rx 8  00 7F FD FC F0 FF FF FF 
   1104      7848.782 DT 0CF00400 Rx 8  00 7D 7D 00 00 00 F0 7D 
   1105      7849.850 DT 0CF00A00 Rx 8  00 00 00 00 FF FF FF FF 
   1106      7850.786 DT 18FEDF00 Rx 8  87 FF FF FF 7D FF FE 00 
   1107      7859.785 DT 0CF00400 Rx 8  00 7D 7D 00 00 00 F0 7D 
   1108      7860.781 DT 18F00E00 Rx 8  A0 0F FE 71 FF FF FF FF 
   1109      7861.837 DT 18FEDD00 Rx 8  FF 00 00 FF FF FF FF FF 
   1110      7869.841 DT 0CF00400 Rx 8  00 7D 7D 00 00 00 F0 7D 
   1111      7870.773 DT 0CFEF100 Rx 8  FF 00 00 70 FF 00 1F FF 
   1112      7871.785 DT 18FEDF00 Rx 8  87 FF FF FF 7D FF FE 00 
   1113      7879.785 DT 0CF00400 Rx 8  00 7D 7D 00 00 00 F0 7D 
   1114      7880.781 DT 18FD9400 Rx 8  00 00 FF FF FF FF FF FF 
   1115      7881.841 DT 18FE9A00 Rx 8  20 27 FF FF FF FF FF FF 
   1116      7889.841 DT 0CF00400 Rx 8  00 7D 7D 00 00 00 F0 7D 
   1117      7890.777 DT 0CF00300 Rx 8  FA FE 00 FF FF 0C 00 FF 
   1118      7891.785 DT 18FCFD00 Rx 8  FF FF FF FF 00 00 FF FF 
   1119      7892.784 DT 18FEDF00 Rx 8  87 FF FF FF 7D FF FE 00 
   1120      7899.768 DT 1CEBFF00 Rx 8  15 04 01 84 06 09 01 84 
   1121      7900.788 DT 0CF00400 Rx 8  00 7D 7D 00 00 00 F0 7D 
   1122      7901.844 DT 0CF00A00 Rx 8  00 00 00 00 FF FF FF FF 
   1123      7902.760 DT 18F0000F Rx 8  20 7D 7D F3 00 7D FE 64 
   1124      7903.772 DT 18FE9900 Rx 8  F3 A6 FF FF FF FF FF FF 
   1125      7908.784 DT 0CF00400 Rx 8  00 7D 7D 00 00 00 F0 7D 
   1126      7909.832 DT 18F00E00 Rx 8  A0 0F FE 71 FF FF FF FF 
   1127      7910.780 DT 18FEF200 Rx 8  00 00 00 00 13 05 FE FF 
   1128      7911.780 DT 18FEDF00 Rx 8  87 FF FF FF 7D FF FE 00 
   1129      7919.784 DT 0CF00400 Rx 8  00 7D 7D 00 00 00 F0 7D 
   1130      7920.792 DT 10FDA300 Rx 8  FF FF FA FF FF FF FF FF 
   1131      7921.832 DT 18FEE000 Rx 8  FF FF FF FF 33 33 00 00 
   1132      7922.780 DT 18FE9800 Rx 8  00 32 FF FF FF FF FF FF 
   1133      7929.840 DT 0CF00400 Rx 8  00 7D 7D 00 00 00 F0 7D 
   1134      7930.775 DT 18FF4500 Rx 8  78 00 FA 00 FF 00 00 AC 
   1135      7931.779 DT 18FEDF00 Rx 8  87 FF FF FF 7D FF FE 00 
   1136      7932.783 DT 1CFE9200 Rx 8  FF 80 97 FF FF FF FF FF 
   1137      7939.783 DT 0CF00400 Rx 8  00 7D 7D 00 00 00 F0 7D 
   1138      7940.779 DT 0CF00300 Rx 8  FA FE 00 FF FF 0C 00 FF 
   1139      7941.834 DT 18FFA800 Rx 8  FF FE FF FE 04 10 0F FB 
   1140      7942.782 DT 18FE9700 Rx 8  00 32 FF FF FF FF FF FF 
   1141      7948.779 DT 0CF00400 Rx 8  00 7D 7D 00 00 00 F0 7D 
   1142      7949.847 DT 0CF00A00 Rx 8  00 00 00 00 FF FF FF FF 
   1143      7950.779 DT 0CFD9200 Rx 8  F0 FF FF FF FF C3 FF FF 
   1144      7951.779 DT 18FEDF00 Rx 8  87 FF FF FF 7D FF FE 00 
   1145      7959.775 DT 1CEBFF00 Rx 8  16 06 09 01 84 06 09 01 
   1146      7960.783 DT 0CF00400 Rx 8  00 7D 7D 00 00 00 F0 7D 
   1147      7961.831 DT 18F00E00 Rx 8  A0 0F FE 71 FF FF FF FF 
   1148      7962.779 DT 18FF4600 Rx 8  FF 00 00 00 FF FF FF FF 
   1149      7963.783 DT 18FDD300 Rx 8  FF FE FF FF FF FF FF FF 
   1150      7969.839 DT 0CF00400 Rx 8  00 7D 7D 00 00 00 F0 7D 
   1151      7970.771 DT 0CFEF100 Rx 8  FF 00 00 70 FF 00 1F FF 
   1152      7971.779 DT 18FEDF00 Rx 8  87 FF FF FF 7D FF FE 00 
   1153      7972.763 DT 18FEC100 Rx 8  11 00 05 00 11 00 05 00 
   1154      7979.782 DT 0CF00400 Rx 8  00 7D 7D 00 00 00 F0 7D 
   1155      7980.786 DT 18FD9400 Rx 8  00 00 FF FF FF FF FF FF 
   1156      7981.845 DT 18FD8C00 Rx 8  FF FE FF FF FF FF FF FF 
   1157      7982.777 DT 18FEF700 Rx 8  FF FF FF FF F1 00 FF FF 
   1158      7988.777 DT 0CF00400 Rx 8  00 7D 7D 00 00 00 F0 7D 
   1159      7989.833 DT 0CF00300 Rx 8  FA FE 00 FF FF 0C 00 FF 
   1160      7990.785 DT 18FCFD00 Rx 8  FF FF FF FF 00 00 FF FF 
   1161      7991.777 DT 18FEDF00 Rx 8  87 FF FF FF 7D FF FE 00 
   1162      7999.777 DT 0CF00400 Rx 8  00 7D 7D 00 00 00 F0 7D 
   1163      8000.789 DT 0CF00A00 Rx 8  00 00 00 00 FF FF FF FF 
   1164      8001.817 DT 18F0000F Rx 8  20 7D 7D F3 00 7D FE 64 
   1165      8002.785 DT 18FF4A00 Rx 8  00 00 00 FF FF FF FF FF 
   1166      8008.777 DT 0CF00400 Rx 8  00 7D 7D 00 00 00 F0 7D 
   1167      8009.833 DT 18F00E00 Rx 8  A0 0F FE 71 FF FF FF FF 
   1168      8010.777 DT 18FEF200 Rx 8  00 00 00 00 13 05 FE FF 
   1169      8011.777 DT 18FEDF00 Rx 8  87 FF FF FF 7D FF FE 00 
   1170      8019.760 DT 1CEBFF00 Rx 8  17 75 02 05 01 F9 13 09 
   1171      8020.780 DT 0CF00400 Rx 8  00 7D 7D 00 00 00 F0 7D 
   1172      8021.840 DT 10FDA300 Rx 8  FF FF FA FF FF FF FF FF 
   1173      8022.768 DT 18FEE000 Rx 8  FF FF FF FF 33 33 00 00 
   1174      8023.764 DT 18FD0900 Rx 8  FF FF FF FF E3 DA 09 00 
   1175      8029.836 DT 0CF00400 Rx 8  00 7D 7D 00 00 00 F0 7D 
   1176      8030.772 DT 18FF4500 Rx 8  78 00 FA 00 FF 00 00 AC 
   1177      8031.776 DT 18FEDF00 Rx 8  87 FF FF FF 7D FF FE 00 
   1178      8032.780 DT 1CFE9200 Rx 8  FF 80 97 FF FF FF FF FF 
   1179      8039.780 DT 0CF00400 Rx 8  00 7D 7D 00 00 00 F0 7D 
   1180      8040.776 DT 0CF00300 Rx 8  FA FE 00 FF FF 0C 00 FF 
   1181      8041.832 DT 18FEEF00 Rx 8  FE FF FF FE FF FF FF 00 
   1182      8042.780 DT 18FF4800 Rx 8  00 00 F3 FF 00 00 00 00 
   1183      8048.776 DT 0CF00400 Rx 8  00 7D 7D 00 00 00 F0 7D 
   1184      8049.844 DT 0CF00A00 Rx 8  00 00 00 00 FF FF FF FF 
   1185      8050.780 DT 18FEDF00 Rx 8  87 FF FF FF 7D FF FE 00 
   1186      8059.779 DT 0CF00400 Rx 8  00 7D 7D 00 00 00 F0 7D 
   1187      8060.783 DT 18F00E00 Rx 8  A0 0F FE 71 FF FF FF FF 
   1188      8061.839 DT 18FEDB00 Rx 8  FF FF 00 00 FF FF FF FF 
   1189      8069.835 DT 0CF00400 Rx 8  00 7D 7D 00 00 00 F0 7D 
   1190      8070.767 DT 0CFEF100 Rx 8  FF 00 00 70 FF 00 1F FF 
   1191      8071.779 DT 18FEDF00 Rx 8  87 FF FF FF 7D FF FE 00 
   1192      8079.771 DT 1CEBFF00 Rx 8  18 01 FA 13 09 01 5B 00 
   1193      8080.779 DT 0CF00400 Rx 8  00 7D 7D 00 00 00 F0 7D 
   1194      8081.835 DT 18FD9400 Rx 8  00 00 FF FF FF FF FF FF 
   1195      8082.763 DT 18FEF600 Rx 8  FE FE FE FE FF FF FE FF 
   1196      8089.835 DT 0CF00400 Rx 8  00 7D 7D 00 00 00 F0 7D 
   1197      8090.771 DT 0CF00300 Rx 8  FA FE 00 FF FF 0C 00 FF 
   1198      8091.778 DT 18FCFD00 Rx 8  FF FF FF FF 00 00 FF FF 
   1199      8092.782 DT 18FEDF00 Rx 8  87 FF FF FF 7D FF FE 00 
   1200      8099.777 DT 0CF00400 Rx 8  00 7D 7D 00 00 00 F0 7D 
   1201      8100.785 DT 0CF00A00 Rx 8  00 00 00 00 FF FF FF FF 
   1202      8101.813 DT 18F0000F Rx 8  20 7D 7D F3 00 7D FE 64 
   1203      8108.773 DT 0CF00400 Rx 8  00 7D 7D 00 00 00 F0 7D 
   1204      8109.829 DT 18F00E00 Rx 8  A0 0F FE 71 FF FF FF FF 
   1205      8110.773 DT 18FEF200 Rx 8  00 00 00 00 13 05 FE FF 
   1206      8111.773 DT 18FEDF00 Rx 8  87 FF FF FF 7D FF FE 00 
   1207      8119.821 DT 0CF00400 Rx 8  00 7D 7D 00 00 00 F0 7D 
   1208      8120.785 DT 10FDA300 Rx 8  FF FF FA FF FF FF FF FF 
   1209      8121.821 DT 18FEE000 Rx 8  FF FF FF FF 33 33 00 00 
   1210      8129.852 DT 0CF00400 Rx 8  00 7D 7D 00 00 00 F0 7D 
   1211      8130.788 DT 18FF4500 Rx 8  78 00 FA 00 FF 00 00 AC 
   1212      8131.792 DT 18FEDF00 Rx 8  87 FF FF FF 7D FF FE 00 
   1213      8132.794 DT 1CFE9200 Rx 8  FF 80 97 FF FF FF FF FF 
   1214      8139.815 DT 1CEBFF00 Rx 8  19 04 01 5B 00 08 01 5B 
   1215      8140.823 DT 0CF00400 Rx 8  00 7D 7D 00 00 00 F0 7D 
   1216      8141.870 DT 0CF00300 Rx 8  FA FE 00 FF FF 0C 00 FF 
   1217      8142.822 DT 18FFA800 Rx 8  FF FE FF FE 04 10 0F FB 
   1218      8148.832 DT 0CF00400 Rx 8  00 7D 7D 00 00 00 F0 7D 
   1219      8149.916 DT 0CF00A00 Rx 8  00 00 00 00 FF FF FF FF 
   1220      8150.852 DT 18FEDF00 Rx 8  87 FF FF FF 7D FF FE 00 
   1221      8159.858 DT 0CF00400 Rx 8  00 7D 7D 00 00 00 F0 7D 
