(1634254884.935126) can1 0CF00100#FFFFFFFF00FFFFFF
(1634254884.935748) can1 0CF00300#DF0000FFFFFFFFFF
(1634254884.936348) can1 0CF00400#F87D7D000000FF7D
(1634254884.936973) can1 10FE6F00#FFFF00F8FFFFFFFF
(1634254884.937628) can1 0CFF1100#0000000000000000
(1634254884.938197) can1 18F0000F#C07DFFFF017DFF77
(1634254884.950580) can1 0CF00400#F87D7D000000FF7D
(1634254884.951180) can1 18FEF000#FFFFFFFFFFF0CCFF
(1634254884.951834) can1 18EBFF00#04016400031D840B
(1634254884.965202) can1 0CF00400#F87D7D000000FF7D
(1634254884.965830) can1 18FEF100#FF000050CC001FFF
(1634254884.980204) can1 0CF00300#DF0000FFFFFFFFFF
(1634254884.980805) can1 0CF00400#F87D7D000000FF7D
(1634254884.981428) can1 18FEEE00#41FE4025FFFFFFFF
(1634254884.982033) can1 18FEF200#000000006E06FFFF
(1634254884.995335) can1 0CF00400#F87D7D000000FF7D
(1634254884.996013) can1 0CFF1100#0000000000000000
(1634254885.010158) can1 0CF00400#F87D7D000000FF7D
(1634254885.010799) can1 18EBFF00#05037EAC00040104
(1634254885.025171) can1 0CF00100#FFFFFFFF00FFFFFF
(1634254885.025836) can1 0CF00300#DF0000FFFFFFFFFF
(1634254885.026421) can1 0CF00400#F87D7D000000FF7D
(1634254885.026994) can1 10FE6F00#FFFF00F8FFFFFFFF
(1634254885.027606) can1 18F0000F#C07DFFFF017DFF77
(1634254885.040542) can1 0CF00400#F87D7D000000FF7D
(1634254885.041159) can1 18FEF000#FFFFFFFFFFF0CCFF
(1634254885.055272) can1 0CF00400#F87D7D000000FF7D
(1634254885.055864) can1 18FEDF00#88E015FF7DFFFFFF
(1634254885.056460) can1 18FEF100#FF000050CC001FFF
(1634254885.057089) can1 0CFF1100#0000000000000000
(1634254885.070433) can1 0CF00300#DF0000FFFFFFFFFF
(1634254885.071030) can1 0CF00400#F87D7D000000FF7D
(1634254885.071645) can1 18FEF200#000000006E06FFFF
(1634254885.072285) can1 18EBFF00#06F0E37E05F0E37D
(1634254885.085388) can1 0CF00400#F87D7D000000FF7D
(1634254885.100168) can1 0CF00400#F87D7D000000FF7D
(1634254885.115213) can1 0CF00100#FFFFFFFF00FFFFFF
(1634254885.115810) can1 0CF00300#DF0000FFFFFFFFFF
(1634254885.116446) can1 0CF00400#F87D7D000000FF7D
(1634254885.117035) can1 10FE6F00#FFFF00F8FFFFFFFF
(1634254885.117724) can1 0CFF1100#0000000000000000
(1634254885.118310) can1 18F0000F#C07DFFFF017DFF77
(1634254885.130664) can1 0CF00400#F87D7D000000FF7D
(1634254885.131321) can1 18FEF000#FFFFFFFFFFF0CCFF
(1634254885.131852) can1 18EBFF00#0701F0E379650003
(1634254885.145355) can1 0CF00400#F87D7D000000FF7D
(1634254885.146018) can1 18FEF100#FF000050CC001FFF
(1634254885.160326) can1 0CF00300#DF0000FFFFFFFFFF
(1634254885.160980) can1 0CF00400#F87D7D000000FF7D
(1634254885.161559) can1 18FEF200#000000006E06FFFF
(1634254885.175406) can1 0CF00400#F87D7D000000FF7D
(1634254885.176038) can1 0CFF1100#0000000000000000
(1634254885.190298) can1 0CF00400#F87D7D000000FF7D
(1634254885.190931) can1 18EBFF00#0821980D037EED0F
(1634254885.205286) can1 0CF00100#FFFFFFFF00FFFFFF
(1634254885.205902) can1 0CF00300#DF0000FFFFFFFFFF
(1634254885.206587) can1 0CF00400#F87D7D000000FF7D
(1634254885.207195) can1 10FE6F00#FFFF00F8FFFFFFFF
(1634254885.207736) can1 18F0000F#C07DFFFF017DFF77
(1634254885.220680) can1 0CF00400#F87D7D000000FF7D
(1634254885.221329) can1 18FEE700#FFFFFFFF00000000
(1634254885.221906) can1 18FEF000#FFFFFFFFFFF0CCFF
(1634254885.235429) can1 0CF00400#F87D7D000000FF7D
(1634254885.236083) can1 18FEF100#FF000050CC001FFF
(1634254885.236678) can1 0CFF1100#0000000000000000
(1634254885.250443) can1 0CF00300#DF0000FFFFFFFFFF
(1634254885.251099) can1 0CF00400#F87D7D000000FF7D
(1634254885.251663) can1 18FEF200#000000006E06FFFF
(1634254885.252248) can1 18EBFF00#09037EB10C0370F6
(1634254885.265512) can1 0CF00400#F87D7D000000FF7D
(1634254885.280283) can1 0CF00400#F87D7D000000FF7D
(1634254885.295337) can1 0CF00100#FFFFFFFF00FFFFFF
(1634254885.295954) can1 0CF00300#DF0000FFFFFFFFFF
(1634254885.296581) can1 0CF00400#F87D7D000000FF7D
(1634254885.297214) can1 10FE6F00#FFFF00F8FFFFFFFF
(1634254885.297831) can1 18FEDF00#88E015FF7DFFFFFF
(1634254885.298601) can1 0CFF1100#0000000000000000
(1634254885.299120) can1 18F0000F#C07DFFFF017DFF77
(1634254885.310955) can1 0CF00400#F87D7D000000FF7D
(1634254885.311649) can1 18FEF000#FFFFFFFFFFF0CCFF
(1634254885.312197) can1 18EBFF00#0A0E037EAD0C0370
(1634254885.325477) can1 0CF00400#F87D7D000000FF7D
(1634254885.326081) can1 18FEF100#FF000050CC001FFF
(1634254885.340481) can1 0CF00300#DF0000FFFFFFFFFF
(1634254885.341081) can1 0CF00400#F87D7D000000FF7D
(1634254885.341699) can1 18FEF200#000000006E06FFFF
(1634254885.355526) can1 0CF00400#F87D7D000000FF7D
(1634254885.356210) can1 0CFF1100#0000000000000000
(1634254885.370428) can1 0CF00400#F87D7D000000FF7D
(1634254885.371011) can1 18EBFF00#0BA90C0372B30C03
(1634254885.385425) can1 0CF00100#FFFFFFFF00FFFFFF
(1634254885.386070) can1 0CF00300#DF0000FFFFFFFFFF
(1634254885.386654) can1 0CF00400#F87D7D000000FF7D
(1634254885.387345) can1 10FE6F00#FFFF00F8FFFFFFFF
(1634254885.387931) can1 18F0000F#C07DFFFF017DFF77
(1634254885.400801) can1 0CF00400#F87D7D000000FF7D
(1634254885.401452) can1 18FEF000#FFFFFFFFFFF0CCFF
(1634254885.415524) can1 0CF00400#F87D7D000000FF7D
(1634254885.416126) can1 18FEF100#FF000050CC001FFF
(1634254885.416745) can1 18FDC100#FFFEFFFFFFFFFFFF
(1634254885.417373) can1 0CFF1100#0000000000000000
(1634254885.418168) can1 18FD9F00#FFFFFFFFFFFF00CF
(1634254885.418593) can1 18FDAF00#1E221E22FFFFFFFF
(1634254885.419239) can1 18FDB000#1E22FFFFFFFFFFFF
(1634254885.419862) can1 18FDB100#1E22FFFFFFFFFFFF
(1634254885.420430) can1 18FDB200#1E221E22FFFEFFFF
(1634254885.421076) can1 18FDB300#2022FFFEFFFFFFFF
(1634254885.421679) can1 18FDB400#2022FFFEFFFFFFFF
(1634254885.422294) can1 18FEEF00#FFFFFFFEFFFFFFFE
(1634254885.431293) can1 0CF00300#DF0000FFFFFFFFFF
(1634254885.432041) can1 0CF00400#F87D7D000000FF7D
(1634254885.432533) can1 18FEF200#000000006E06FFFF
(1634254885.433189) can1 18FEF600#FFFE41FFFF2022FF
(1634254885.433734) can1 18EBFF00#0C73AA0C036BFFFF
(1634254885.445704) can1 0CF00400#F87D7D000000FF7D
(1634254885.446296) can1 18ECFF00#20220005FFE3FE00
(1634254885.460513) can1 0CF00400#F87D7D000000FF7D
(1634254885.475459) can1 0CF00100#FFFFFFFF00FFFFFF
(1634254885.476128) can1 0CF00300#DF0000FFFFFFFFFF
(1634254885.476690) can1 0CF00400#F87D7D000000FF7D
(1634254885.477377) can1 10FE6F00#FFFF00F8FFFFFFFF
(1634254885.477983) can1 0CFF1100#0000000000000000
(1634254885.478577) can1 18F0000F#C07DFFFF017DFF77
(1634254885.490929) can1 0CF00400#F87D7D000000FF7D
(1634254885.491545) can1 18FEF000#FFFFFFFFFFF0CCFF
(1634254885.505572) can1 0CF00400#F87D7D000000FF7D
(1634254885.506255) can1 18FEF100#FF000050CC001FFF
(1634254885.506779) can1 18EBFF00#01E015B9A041B580
(1634254885.520614) can1 18E0FF00#00FFFFFFFFFBFFFF
(1634254885.521279) can1 0CF00300#DF0000FFFFFFFFFF
(1634254885.521905) can1 0CF00400#F87D7D000000FF7D
(1634254885.522452) can1 18FD7C00#F8835D00C0CC03FF
(1634254885.523141) can1 18FEF200#000000006E06FFFF
(1634254885.523768) can1 18FEF700#FFFFFFFFF200FFFF
(1634254885.524366) can1 18FD9D00#64006400FFFFFFFF
(1634254885.525011) can1 18FE9700#2022FFFFFFFFFFFF
(1634254885.525606) can1 18FEF500#FEFFFFFFFFFEFFFF
(1634254885.536293) can1 0CF00400#F87D7D000000FF7D
(1634254885.536900) can1 18FEDF00#88E015FF7DFFFFFF
(1634254885.537523) can1 0CFF1100#0000000000000000
(1634254885.550640) can1 0CF00400#F87D7D000000FF7D
(1634254885.565519) can1 0CF00100#FFFFFFFF00FFFFFF
(1634254885.566128) can1 0CF00300#DF0000FFFFFFFFFF
(1634254885.566738) can1 0CF00400#F87D7D000000FF7D
(1634254885.567364) can1 10FE6F00#FFFF00F8FFFFFFFF
(1634254885.568009) can1 18FEBD00#F9040000FFFFFFFF
(1634254885.568670) can1 18F0000F#C07DFFFF017DFF77
(1634254885.569227) can1 18EBFF00#0225CCE02EC94038
(1634254885.581069) can1 0CF00400#F87D7D000000FF7D
(1634254885.581693) can1 18FEF000#FFFFFFFFFFF0CCFF
(1634254885.595645) can1 0CF00400#F87D7D000000FF7D
(1634254885.596341) can1 18FEF100#FF000050CC001FFF
(1634254885.596936) can1 0CFF1100#0000000000000000
(1634254885.610704) can1 0CF00300#DF0000FFFFFFFFFF
(1634254885.611395) can1 0CF00400#F87D7D000000FF7D
(1634254885.611927) can1 18FEF200#000000006E06FFFF
(1634254885.625723) can1 0CF00400#F87D7D000000FF7D
(1634254885.626473) can1 18FEC100#360DAC03FFFFFFFF
(1634254885.626945) can1 18EBFF00#03BF4042FFFFDC09
(1634254885.640656) can1 0CF00400#F87D7D000000FF7D
(1634254885.655605) can1 0CF00100#FFFFFFFF00FFFFFF
(1634254885.656230) can1 0CF00300#DF0000FFFFFFFFFF
(1634254885.656898) can1 0CF00400#F87D7D000000FF7D
(1634254885.657524) can1 10FE6F00#FFFF00F8FFFFFFFF
(1634254885.658133) can1 0CFF1100#0000000000000000
(1634254885.658683) can1 18F0000F#C07DFFFF017DFF77
(1634254885.659277) can1 18ECFF0F#20130003FFE1FE00
(1634254885.671254) can1 0CF00400#F87D7D000000FF7D
(1634254885.671847) can1 18FEF000#FFFFFFFFFFF0CCFF
(1634254885.685724) can1 0CF00400#F87D7D000000FF7D
(1634254885.686318) can1 18FEF100#FF000050CC001FFF
(1634254885.687038) can1 18EBFF00#04C04EFAFFFFFFFF
(1634254885.700791) can1 0CF00300#DF0000FFFFFFFFFF
(1634254885.701403) can1 0CF00400#F87D7D000000FF7D
(1634254885.702025) can1 18FEF200#000000006E06FFFF
(1634254885.715797) can1 0CF00400#F87D7D000000FF7D
(1634254885.716447) can1 0CFF1100#0000000000000000
(1634254885.717141) can1 18EBFF0F#010303E01576204E
(1634254885.730727) can1 0CF00400#F87D7D000000FF7D
(1634254885.745654) can1 0CF00100#FFFFFFFF00FFFFFF
(1634254885.746321) can1 0CF00300#DF0000FFFFFFFFFF
(1634254885.746877) can1 0CF00400#F87D7D000000FF7D
(1634254885.747489) can1 10FE6F00#FFFF00F8FFFFFFFF
(1634254885.748157) can1 18FEE400#007FFD0000FFFFFF
(1634254885.748724) can1 18F0000F#C07DFFFF017DFF77
(1634254885.749367) can1 18EBFF00#05FFFF9001FFFFFF
(1634254885.761258) can1 0CF00400#F87D7D000000FF7D
(1634254885.761850) can1 18FEF000#FFFFFFFFFFF0CCFF
(1634254885.775793) can1 0CF00400#F87D7D000000FF7D
(1634254885.776482) can1 18FEDF00#88E015FF7DFFFFFF
(1634254885.777038) can1 18FEF100#FF000050CC001FFF
(1634254885.777679) can1 0CFF1100#0000000000000000
(1634254885.778247) can1 18EBFF0F#0219003228A04120
(1634254885.791024) can1 0CF00300#DF0000FFFFFFFFFF
(1634254885.791701) can1 0CF00400#F87D7D000000FF7D
(1634254885.792246) can1 18FEF200#000000006E06FFFF
(1634254885.792878) can1 18ECFF00#2052000CFFCAFE00
(1634254885.805961) can1 0CF00400#F87D7D000000FF7D
(1634254885.820715) can1 0CF00400#F87D7D000000FF7D
(1634254885.835742) can1 0CF00100#FFFFFFFF00FFFFFF
(1634254885.836405) can1 0CF00300#DF0000FFFFFFFFFF
(1634254885.837010) can1 0CF00400#F87D7D000000FF7D
(1634254885.837589) can1 10FE6F00#FFFF00F8FFFFFFFF
(1634254885.838266) can1 0CFF1100#0000000000000000
(1634254885.838849) can1 18F0000F#C07DFFFF017DFF77
(1634254885.839417) can1 18EBFF0F#03204E030819FFFF
(1634254885.851260) can1 0CF00400#F87D7D000000FF7D
(1634254885.851856) can1 18FEF000#FFFFFFFFFFF0CCFF
(1634254885.852467) can1 18EBFF00#0104FF5B0008019D
(1634254885.865887) can1 0CF00400#F87D7D000000FF7D
(1634254885.866494) can1 18FEF100#FF000050CC001FFF
(1634254885.880849) can1 0CF00300#DF0000FFFFFFFFFF
(1634254885.881496) can1 0CF00400#F87D7D000000FF7D
(1634254885.882070) can1 18FEF200#000000006E06FFFF
(1634254885.895944) can1 0CF00400#F87D7D000000FF7D
(1634254885.896576) can1 0CFF1100#0000000000000000
(1634254885.910841) can1 0CF00400#F87D7D000000FF7D
(1634254885.911469) can1 18EBFF00#020305016F000301
(1634254885.925831) can1 0CF00100#FFFFFFFF00FFFFFF
(1634254885.926497) can1 0CF00300#DF0000FFFFFFFFFF
(1634254885.927121) can1 0CF00400#F87D7D000000FF7D
(1634254885.927708) can1 10FE6F00#FFFF00F8FFFFFFFF
(1634254885.928311) can1 18FDC100#FFFEFFFFFFFFFFFF
(1634254885.928910) can1 18FD9F00#FFFFFFFFFFFF00CF
(1634254885.929537) can1 18FDAF00#1E221E22FFFFFFFF
(1634254885.930126) can1 18FDB000#1E22FFFFFFFFFFFF
(1634254885.930786) can1 18FDB100#1E22FFFFFFFFFFFF
(1634254885.931345) can1 18FDB200#1E221E22FFFEFFFF
(1634254885.932002) can1 18FDB300#2022FFFEFFFFFFFF
(1634254885.932582) can1 18FDB400#2022FFFEFFFFFFFF
(1634254885.933207) can1 18FEEF00#FFFFFFFEFFFFFFFE
(1634254885.933863) can1 18F0000F#C07DFFFF017DFF77
(1634254885.941781) can1 0CF00400#F87D7D000000FF7D
(1634254885.942764) can1 18FEF000#FFFFFFFFFFF0CCFF
(1634254885.942995) can1 18FEF600#FFFE41FFFF2022FF
(1634254885.955971) can1 0CF00400#F87D7D000000FF7D
(1634254885.956656) can1 18FEF100#FF000050CC001FFF
(1634254885.957313) can1 0CFF1100#0000000000000000
(1634254885.970998) can1 0CF00300#DF0000FFFFFFFFFF
(1634254885.971650) can1 0CF00400#F87D7D000000FF7D
(1634254885.972248) can1 18FEF200#000000006E06FFFF
(1634254885.972816) can1 18EBFF00#03700E0901AE0003
(1634254885.986054) can1 0CF00400#F87D7D000000FF7D
(1634254885.986689) can1 18FEEE00#41FE4025FFFFFFFF
(1634254886.000886) can1 0CF00400#F87D7D000000FF7D
(1634254886.015872) can1 0CF00100#FFFFFFFF00FFFFFF
(1634254886.016551) can1 0CF00300#DF0000FFFFFFFFFF
(1634254886.017178) can1 0CF00400#F87D7D000000FF7D
(1634254886.017860) can1 10FE6F00#FFFF00F8FFFFFFFF
(1634254886.018492) can1 18FEDF00#88E015FF7DFFFFFF
(1634254886.019024) can1 0CFF1100#0000000000000000
(1634254886.019614) can1 18F0000F#C07DFFFF017DFF77
(1634254886.031490) can1 0CF00400#F87D7D000000FF7D
(1634254886.032153) can1 18FEF000#FFFFFFFFFFF0CCFF
(1634254886.032761) can1 18EBFF00#04016400031D840B
(1634254886.046020) can1 0CF00400#F87D7D000000FF7D
(1634254886.046622) can1 18FEF100#FF000050CC001FFF
(1634254886.061010) can1 0CF00300#DF0000FFFFFFFFFF
(1634254886.061611) can1 0CF00400#F87D7D000000FF7D
(1634254886.062230) can1 18FEF200#000000006E06FFFF
(1634254886.076069) can1 0CF00400#F87D7D000000FF7D
(1634254886.076734) can1 0CFF1100#0000000000000000
(1634254886.090967) can1 0CF00400#F87D7D000000FF7D
(1634254886.091554) can1 18EBFF00#05037EAC00040104
(1634254886.105969) can1 0CF00100#FFFFFFFF00FFFFFF
(1634254886.106579) can1 0CF00300#DF0000FFFFFFFFFF
(1634254886.107200) can1 0CF00400#F87D7D000000FF7D
(1634254886.107819) can1 10FE6F00#FFFF00F8FFFFFFFF
(1634254886.108448) can1 18F0000F#C07DFFFF017DFF77
(1634254886.121339) can1 0CF00400#F87D7D000000FF7D
(1634254886.122051) can1 18FEF000#FFFFFFFFFFF0CCFF
(1634254886.136079) can1 0CF00400#F87D7D000000FF7D
(1634254886.136669) can1 18FEF100#FF000050CC001FFF
(1634254886.137290) can1 0CFF1100#0000000000000000
(1634254886.151154) can1 0CF00300#DF0000FFFFFFFFFF
(1634254886.151765) can1 0CF00400#F87D7D000000FF7D
(1634254886.152403) can1 18FEF200#000000006E06FFFF
(1634254886.152964) can1 18EBFF00#06F0E37E05F0E37D
(1634254886.166192) can1 0CF00400#F87D7D000000FF7D
(1634254886.180984) can1 0CF00400#F87D7D000000FF7D
(1634254886.196004) can1 0CF00100#FFFFFFFF00FFFFFF
(1634254886.196663) can1 0CF00300#DF0000FFFFFFFFFF
(1634254886.197231) can1 0CF00400#F87D7D000000FF7D
(1634254886.197873) can1 10FE6F00#FFFF00F8FFFFFFFF
(1634254886.198497) can1 0CFF1100#0000000000000000
(1634254886.199214) can1 18F0000F#C07DFFFF017DFF77
(1634254886.211473) can1 0CF00400#F87D7D000000FF7D
(1634254886.212082) can1 18FEF000#FFFFFFFFFFF0CCFF
(1634254886.212700) can1 18EBFF00#0701F0E379650003
(1634254886.226150) can1 0CF00400#F87D7D000000FF7D
(1634254886.226764) can1 18FEE700#FFFFFFFF00000000
(1634254886.227367) can1 18FEF100#FF000050CC001FFF
(1634254886.241187) can1 0CF00300#DF0000FFFFFFFFFF
(1634254886.241824) can1 0CF00400#F87D7D000000FF7D
(1634254886.242477) can1 18FEF200#000000006E06FFFF
(1634254886.256216) can1 0CF00400#F87D7D000000FF7D
(1634254886.256822) can1 18FEDF00#88E015FF7DFFFFFF
(1634254886.257495) can1 0CFF1100#0000000000000000
(1634254886.271166) can1 0CF00400#F87D7D000000FF7D
(1634254886.271774) can1 18EBFF00#0821980D037EED0F
(1634254886.286104) can1 0CF00100#FFFFFFFF00FFFFFF
(1634254886.286770) can1 0CF00300#DF0000FFFFFFFFFF
(1634254886.287334) can1 0CF00400#F87D7D000000FF7D
(1634254886.287986) can1 10FE6F00#FFFF00F8FFFFFFFF
(1634254886.288549) can1 18F0000F#C07DFFFF017DFF77
(1634254886.301493) can1 0CF00400#F87D7D000000FF7D
(1634254886.302112) can1 18FEF000#FFFFFFFFFFF0CCFF
(1634254886.316186) can1 0CF00400#F87D7D000000FF7D
(1634254886.316865) can1 18FEF100#FF000050CC001FFF
(1634254886.317419) can1 0CFF1100#0000000000000000
(1634254886.331259) can1 0CF00300#DF0000FFFFFFFFFF
(1634254886.331861) can1 0CF00400#F87D7D000000FF7D
(1634254886.332543) can1 18FEF200#000000006E06FFFF
(1634254886.333108) can1 18EBFF00#09037EB10C0370F6
(1634254886.346334) can1 0CF00400#F87D7D000000FF7D
(1634254886.361093) can1 0CF00400#F87D7D000000FF7D
(1634254886.376147) can1 0CF00100#FFFFFFFF00FFFFFF
(1634254886.376768) can1 0CF00300#DF0000FFFFFFFFFF
(1634254886.377366) can1 0CF00400#F87D7D000000FF7D
(1634254886.378020) can1 10FE6F00#FFFF00F8FFFFFFFF
(1634254886.378619) can1 0CFF1100#0000000000000000
(1634254886.379222) can1 18F0000F#C07DFFFF017DFF77
(1634254886.391676) can1 0CF00400#F87D7D000000FF7D
(1634254886.392284) can1 18FEF000#FFFFFFFFFFF0CCFF
(1634254886.392943) can1 18EBFF00#0A0E037EAD0C0370
(1634254886.406294) can1 0CF00400#F87D7D000000FF7D
(1634254886.406887) can1 18FEF100#FF000050CC001FFF
(1634254886.421281) can1 0CF00300#DF0000FFFFFFFFFF
(1634254886.421901) can1 0CF00400#F87D7D000000FF7D
(1634254886.422490) can1 18FEF200#000000006E06FFFF
(1634254886.436338) can1 0CF00400#F87D7D000000FF7D
(1634254886.436993) can1 18FDC100#FFFEFFFFFFFFFFFF
(1634254886.437684) can1 0CFF1100#0000000000000000
(1634254886.438201) can1 18FD9F00#FFFFFFFFFFFF00CF
(1634254886.438854) can1 18FDAF00#1E221E22FFFFFFFF
(1634254886.439478) can1 18FDB000#1E22FFFFFFFFFFFF
(1634254886.440103) can1 18FDB100#1E22FFFFFFFFFFFF
(1634254886.440721) can1 18FDB200#1E221E22FFFEFFFF
(1634254886.441306) can1 18FDB300#2022FFFEFFFFFFFF
(1634254886.441938) can1 18FDB400#2022FFFEFFFFFFFF
(1634254886.442574) can1 18FEEF00#FFFFFFFEFFFFFFFE
(1634254886.451795) can1 0CF00400#F87D7D000000FF7D
(1634254886.452388) can1 18FEF600#FFFE41FFFF2022FF
(1634254886.452988) can1 18EBFF00#0BA90C0372B30C03
(1634254886.466316) can1 0CF00100#FFFFFFFF00FFFFFF
(1634254886.466902) can1 0CF00300#DF0000FFFFFFFFFF
(1634254886.467592) can1 0CF00400#F87D7D000000FF7D
(1634254886.468166) can1 10FE6F00#FFFF00F8FFFFFFFF
(1634254886.468735) can1 18F0000F#C07DFFFF017DFF77
(1634254886.481609) can1 0CF00400#F87D7D000000FF7D
(1634254886.482211) can1 18FEF000#FFFFFFFFFFF0CCFF
(1634254886.496348) can1 0CF00400#F87D7D000000FF7D
(1634254886.496943) can1 18FEDF00#88E015FF7DFFFFFF
(1634254886.497540) can1 18FEF100#FF000050CC001FFF
(1634254886.498204) can1 0CFF1100#0000000000000000
(1634254886.511511) can1 0CF00300#DF0000FFFFFFFFFF
(1634254886.512110) can1 0CF00400#F87D7D000000FF7D
(1634254886.512727) can1 18FEF200#000000006E06FFFF
(1634254886.513341) can1 18EBFF00#0C73AA0C036BFFFF
(1634254886.526461) can1 18E0FF00#00FFFFFFFFFBFFFF
(1634254886.527123) can1 0CF00400#F87D7D000000FF7D
(1634254886.527679) can1 18FD7C00#F8835D00C0CC03FF
(1634254886.528318) can1 18FEF700#FFFFFFFFF200FFFF
(1634254886.528894) can1 18FD9D00#64006400FFFFFFFF
(1634254886.529603) can1 18FE9700#2022FFFFFFFFFFFF
(1634254886.530253) can1 18FEF500#FEFFFFFFFFFEFFFF
(1634254886.541838) can1 0CF00400#F87D7D000000FF7D
(1634254886.556275) can1 0CF00100#FFFFFFFF00FFFFFF
(1634254886.556948) can1 0CF00300#DF0000FFFFFFFFFF
(1634254886.557503) can1 0CF00400#F87D7D000000FF7D
(1634254886.558112) can1 10FE6F00#FFFF00F8FFFFFFFF
(1634254886.558789) can1 0CFF1100#0000000000000000
(1634254886.559403) can1 18F0000F#C07DFFFF017DFF77
(1634254886.571742) can1 0CF00400#F87D7D000000FF7D
(1634254886.572386) can1 18FEBD00#F9040000FFFFFFFF
(1634254886.572964) can1 18FEF000#FFFFFFFFFFF0CCFF
(1634254886.586447) can1 0CF00400#F87D7D000000FF7D
(1634254886.587060) can1 18FEF100#FF000050CC001FFF
(1634254886.601414) can1 0CF00300#DF0000FFFFFFFFFF
(1634254886.602008) can1 0CF00400#F87D7D000000FF7D
(1634254886.602675) can1 18FEF200#000000006E06FFFF
(1634254886.616499) can1 0CF00400#F87D7D000000FF7D
(1634254886.617120) can1 0CFF1100#0000000000000000
(1634254886.631384) can1 0CF00400#F87D7D000000FF7D
(1634254886.632013) can1 18FEC100#360DAC03FFFFFFFF
(1634254886.646402) can1 0CF00100#FFFFFFFF00FFFFFF
(1634254886.647087) can1 0CF00300#DF0000FFFFFFFFFF
(1634254886.647606) can1 0CF00400#F87D7D000000FF7D
(1634254886.648254) can1 10FE6F00#FFFF00F8FFFFFFFF
(1634254886.648855) can1 18F0000F#C07DFFFF017DFF77
(1634254886.661763) can1 0CF00400#F87D7D000000FF7D
(1634254886.662574) can1 18FEF000#FFFFFFFFFFF0CCFF
(1634254886.676470) can1 0CF00400#F87D7D000000FF7D
(1634254886.677144) can1 18FEF100#FF000050CC001FFF
(1634254886.677694) can1 0CFF1100#0000000000000000
(1634254886.691533) can1 0CF00300#DF0000FFFFFFFFFF
(1634254886.692127) can1 0CF00400#F87D7D000000FF7D
(1634254886.692808) can1 18FEF200#000000006E06FFFF
(1634254886.706526) can1 0CF00400#F87D7D000000FF7D
(1634254886.721370) can1 0CF00400#F87D7D000000FF7D
(1634254886.736436) can1 0CF00100#FFFFFFFF00FFFFFF
(1634254886.737035) can1 0CF00300#DF0000FFFFFFFFFF
(1634254886.737810) can1 0CF00400#F87D7D000000FF7D
(1634254886.738283) can1 10FE6F00#FFFF00F8FFFFFFFF
(1634254886.738893) can1 18FEDF00#88E015FF7DFFFFFF
(1634254886.739582) can1 0CFF1100#0000000000000000
(1634254886.740206) can1 18F0000F#C07DFFFF017DFF77
(1634254886.752018) can1 0CF00400#F87D7D000000FF7D
(1634254886.752729) can1 18FEE400#007FFD0000FFFFFF
(1634254886.753308) can1 18FEF000#FFFFFFFFFFF0CCFF
(1634254886.766648) can1 0CF00400#F87D7D000000FF7D
(1634254886.767297) can1 18FEF100#FF000050CC001FFF
(1634254886.781550) can1 0CF00300#DF0000FFFFFFFFFF
(1634254886.782154) can1 0CF00400#F87D7D000000FF7D
(1634254886.782767) can1 18FEF200#000000006E06FFFF
(1634254886.796611) can1 0CF00400#F87D7D000000FF7D
(1634254886.797287) can1 0CFF1100#0000000000000000
(1634254886.811506) can1 0CF00400#F87D7D000000FF7D
(1634254886.826478) can1 0CF00100#FFFFFFFF00FFFFFF
(1634254886.827149) can1 0CF00300#DF0000FFFFFFFFFF
(1634254886.827719) can1 0CF00400#F87D7D000000FF7D
(1634254886.828309) can1 10FE6F00#FFFF00F8FFFFFFFF
(1634254886.828921) can1 18F0000F#C07DFFFF017DFF77
(1634254886.841891) can1 0CF00400#F87D7D000000FF7D
(1634254886.842559) can1 18FEF000#FFFFFFFFFFF0CCFF
(1634254886.856606) can1 0CF00400#F87D7D000000FF7D
(1634254886.857209) can1 18FEF100#FF000050CC001FFF
(1634254886.857834) can1 0CFF1100#0000000000000000
(1634254886.871696) can1 0CF00300#DF0000FFFFFFFFFF
(1634254886.872292) can1 0CF00400#F87D7D000000FF7D
(1634254886.872914) can1 18FEF200#000000006E06FFFF
(1634254886.873544) can1 18ECFF00#2052000CFFCAFE00
(1634254886.886781) can1 0CF00400#F87D7D000000FF7D
(1634254886.901525) can1 0CF00400#F87D7D000000FF7D
(1634254886.916568) can1 0CF00100#FFFFFFFF00FFFFFF
(1634254886.917167) can1 0CF00300#DF0000FFFFFFFFFF
(1634254886.917768) can1 0CF00400#F87D7D000000FF7D
(1634254886.918505) can1 10FE6F00#FFFF00F8FFFFFFFF
(1634254886.919035) can1 0CFF1100#0000000000000000
(1634254886.919617) can1 18F0000F#C07DFFFF017DFF77
(1634254886.932011) can1 0CF00400#F87D7D000000FF7D
(1634254886.932647) can1 18FEF000#FFFFFFFFFFF0CCFF
(1634254886.933250) can1 18EBFF00#0104FF5B0008019D
(1634254886.946704) can1 0CF00400#F87D7D000000FF7D
(1634254886.947315) can1 18FEF100#FF000050CC001FFF
(1634254886.947950) can1 18FDC100#FFFEFFFFFFFFFFFF
(1634254886.948544) can1 18FD9F00#FFFFFFFFFFFF00CF
(1634254886.949128) can1 18FDAF00#1E221E22FFFFFFFF
(1634254886.949751) can1 18FDB000#1E22FFFFFFFFFFFF
(1634254886.950427) can1 18FDB100#1E22FFFFFFFFFFFF
(1634254886.950999) can1 18FDB200#1E221E22FFFEFFFF
(1634254886.951597) can1 18FDB300#2022FFFEFFFFFFFF
(1634254886.952219) can1 18FDB400#2022FFFEFFFFFFFF
(1634254886.952870) can1 18FEEF00#FFFFFFFEFFFFFFFE
(1634254886.962313) can1 0CF00300#DF0000FFFFFFFFFF
(1634254886.962852) can1 0CF00400#F87D7D000000FF7D
(1634254886.963472) can1 18FEF200#000000006E06FFFF
(1634254886.964069) can1 18FEF600#FFFE41FFFF2022FF
(1634254886.976835) can1 0CF00400#F87D7D000000FF7D
(1634254886.977494) can1 18FEDF00#88E015FF7DFFFFFF
(1634254886.978065) can1 0CFF1100#0000000000000000
(1634254886.991743) can1 0CF00400#F87D7D000000FF7D
(1634254886.992326) can1 18FEEE00#41FE4025FFFFFFFF
(1634254886.993004) can1 18EBFF00#020305016F000301
(1634254887.006711) can1 0CF00100#FFFFFFFF00FFFFFF
(1634254887.007345) can1 0CF00300#DF0000FFFFFFFFFF
(1634254887.007949) can1 0CF00400#F87D7D000000FF7D
(1634254887.008543) can1 10FE6F00#FFFF00F8FFFFFFFF
(1634254887.009147) can1 18F0000F#C07DFFFF017DFF77
(1634254887.022032) can1 0CF00400#F87D7D000000FF7D
(1634254887.022633) can1 18FEF000#FFFFFFFFFFF0CCFF
(1634254887.036731) can1 0CF00400#F87D7D000000FF7D
(1634254887.037422) can1 18FEF100#FF000050CC001FFF
(1634254887.037965) can1 0CFF1100#0000000000000000
(1634254887.051800) can1 0CF00300#DF0000FFFFFFFFFF
(1634254887.052393) can1 0CF00400#F87D7D000000FF7D
(1634254887.053097) can1 18FEF200#000000006E06FFFF
(1634254887.053610) can1 18EBFF00#03700E0901AE0003
(1634254887.066875) can1 0CF00400#F87D7D000000FF7D
(1634254887.081646) can1 0CF00400#F87D7D000000FF7D
(1634254887.096691) can1 0CF00100#FFFFFFFF00FFFFFF
(1634254887.097307) can1 0CF00300#DF0000FFFFFFFFFF
(1634254887.097925) can1 0CF00400#F87D7D000000FF7D
(1634254887.098532) can1 10FE6F00#FFFF00F8FFFFFFFF
(1634254887.099231) can1 0CFF1100#0000000000000000
(1634254887.099832) can1 18F0000F#C07DFFFF017DFF77
(1634254887.112193) can1 0CF00400#F87D7D000000FF7D
(1634254887.112802) can1 18FEF000#FFFFFFFFFFF0CCFF
(1634254887.113424) can1 18EBFF00#04016400031D840B
(1634254887.126851) can1 0CF00400#F87D7D000000FF7D
(1634254887.127437) can1 18FEF100#FF000050CC001FFF
(1634254887.141824) can1 0CF00300#DF0000FFFFFFFFFF
(1634254887.142779) can1 0CF00400#F87D7D000000FF7D
(1634254887.143037) can1 18FEF200#000000006E06FFFF
(1634254887.156886) can1 0CF00400#F87D7D000000FF7D
(1634254887.157563) can1 0CFF1100#0000000000000000
(1634254887.171759) can1 0CF00400#F87D7D000000FF7D
(1634254887.172434) can1 18EBFF00#05037EAC00040104
(1634254887.186821) can1 0CF00100#FFFFFFFF00FFFFFF
(1634254887.187388) can1 0CF00300#DF0000FFFFFFFFFF
(1634254887.188058) can1 0CF00400#F87D7D000000FF7D
(1634254887.188631) can1 10FE6F00#FFFF00F8FFFFFFFF
(1634254887.189263) can1 18F0000F#C07DFFFF017DFF77
(1634254887.202159) can1 0CF00400#F87D7D000000FF7D
(1634254887.202751) can1 18FEF000#FFFFFFFFFFF0CCFF
(1634254887.216877) can1 0CF00400#F87D7D000000FF7D
(1634254887.217541) can1 18FEDF00#88E015FF7DFFFFFF
(1634254887.218082) can1 18FEF100#FF000050CC001FFF
(1634254887.218729) can1 0CFF1100#0000000000000000
(1634254887.232058) can1 0CF00300#DF0000FFFFFFFFFF
(1634254887.232755) can1 0CF00400#F87D7D000000FF7D
(1634254887.233320) can1 18FEE700#FFFFFFFF00000000
(1634254887.233918) can1 18FEF200#000000006E06FFFF
(1634254887.234498) can1 18EBFF00#06F0E37E05F0E37D
(1634254887.247063) can1 0CF00400#F87D7D000000FF7D
(1634254887.261791) can1 0CF00400#F87D7D000000FF7D
(1634254887.276812) can1 0CF00100#FFFFFFFF00FFFFFF
(1634254887.277487) can1 0CF00300#DF0000FFFFFFFFFF
(1634254887.278055) can1 0CF00400#F87D7D000000FF7D
(1634254887.278694) can1 10FE6F00#FFFF00F8FFFFFFFF
(1634254887.279308) can1 0CFF1100#0000000000000000
(1634254887.279905) can1 18F0000F#C07DFFFF017DFF77
(1634254887.292281) can1 0CF00400#F87D7D000000FF7D
(1634254887.292925) can1 18FEF000#FFFFFFFFFFF0CCFF
(1634254887.293504) can1 18EBFF00#0701F0E379650003
(1634254887.306973) can1 0CF00400#F87D7D000000FF7D
(1634254887.307685) can1 18FEF100#FF000050CC001FFF
(1634254887.321957) can1 0CF00300#DF0000FFFFFFFFFF
(1634254887.322647) can1 0CF00400#F87D7D000000FF7D
(1634254887.323167) can1 18FEF200#000000006E06FFFF
(1634254887.337028) can1 0CF00400#F87D7D000000FF7D
(1634254887.337658) can1 0CFF1100#0000000000000000
(1634254887.351921) can1 0CF00400#F87D7D000000FF7D
(1634254887.352559) can1 18EBFF00#0821980D037EED0F
(1634254887.366924) can1 0CF00100#FFFFFFFF00FFFFFF
(1634254887.367583) can1 0CF00300#DF0000FFFFFFFFFF
(1634254887.368168) can1 0CF00400#F87D7D000000FF7D
(1634254887.368784) can1 10FE6F00#FFFF00F8FFFFFFFF
(1634254887.369351) can1 18F0000F#C07DFFFF017DFF77
(1634254887.382299) can1 0CF00400#F87D7D000000FF7D
(1634254887.382902) can1 18FEF000#FFFFFFFFFFF0CCFF
(1634254887.396997) can1 0CF00400#F87D7D000000FF7D
(1634254887.397665) can1 18FEF100#FF000050CC001FFF
(1634254887.398457) can1 0CFF1100#0000000000000000
(1634254887.412069) can1 0CF00300#DF0000FFFFFFFFFF
(1634254887.412739) can1 0CF00400#F87D7D000000FF7D
(1634254887.413338) can1 18FEF200#000000006E06FFFF
(1634254887.413896) can1 18EBFF00#09037EB10C0370F6
(1634254887.427139) can1 0CF00400#F87D7D000000FF7D
(1634254887.441910) can1 0CF00400#F87D7D000000FF7D
(1634254887.456964) can1 0CF00100#FFFFFFFF00FFFFFF
(1634254887.457578) can1 0CF00300#DF0000FFFFFFFFFF
(1634254887.458182) can1 0CF00400#F87D7D000000FF7D
(1634254887.458801) can1 10FE6F00#FFFF00F8FFFFFFFF
(1634254887.459439) can1 18FEDF00#88E015FF7DFFFFFF
(1634254887.460026) can1 18FDC100#FFFEFFFFFFFFFFFF
(1634254887.460702) can1 0CFF1100#0000000000000000
(1634254887.461282) can1 18FD9F00#FFFFFFFFFFFF00CF
(1634254887.461932) can1 18FDAF00#1E221E22FFFFFFFF
(1634254887.462494) can1 18FDB000#1E22FFFFFFFFFFFF
(1634254887.463173) can1 18FDB100#1E22FFFFFFFFFFFF
(1634254887.463736) can1 18FDB200#1E221E22FFFEFFFF
(1634254887.464388) can1 18FDB300#2022FFFEFFFFFFFF
(1634254887.464961) can1 18FDB400#2022FFFEFFFFFFFF
(1634254887.465611) can1 18FEEF00#FFFFFFFEFFFFFFFE
(1634254887.466209) can1 18F0000F#C07DFFFF017DFF77
(1634254887.473257) can1 0CF00400#F87D7D000000FF7D
(1634254887.473903) can1 18FEF000#FFFFFFFFFFF0CCFF
(1634254887.474476) can1 18FEF600#FFFE41FFFF2022FF
(1634254887.475072) can1 18EBFF00#0A0E037EAD0C0370
(1634254887.487203) can1 0CF00400#F87D7D000000FF7D
(1634254887.487864) can1 18FEF100#FF000050CC001FFF
(1634254887.502091) can1 0CF00300#DF0000FFFFFFFFFF
(1634254887.502695) can1 0CF00400#F87D7D000000FF7D
(1634254887.503310) can1 18FEF200#000000006E06FFFF
(1634254887.517150) can1 0CF00400#F87D7D000000FF7D
(1634254887.517812) can1 0CFF1100#0000000000000000
(1634254887.532030) can1 18E0FF00#00FFFFFFFFFBFFFF
(1634254887.532636) can1 0CF00400#F87D7D000000FF7D
(1634254887.533245) can1 18FD7C00#F8835D00C0CC03FF
(1634254887.533882) can1 18FEF700#FFFFFFFFF200FFFF
(1634254887.534519) can1 18FD9D00#64006400FFFFFFFF
(1634254887.535169) can1 18FE9700#2022FFFFFFFFFFFF
(1634254887.535709) can1 18FEF500#FEFFFFFFFFFEFFFF
(1634254887.536321) can1 18EBFF00#0BA90C0372B30C03
(1634254887.547645) can1 0CF00100#FFFFFFFF00FFFFFF
(1634254887.548292) can1 0CF00300#DF0000FFFFFFFFFF
(1634254887.548876) can1 0CF00400#F87D7D000000FF7D
(1634254887.549492) can1 10FE6F00#FFFF00F8FFFFFFFF
(1634254887.550101) can1 18F0000F#C07DFFFF017DFF77
(1634254887.562417) can1 0CF00400#F87D7D000000FF7D
(1634254887.563025) can1 18FEF000#FFFFFFFFFFF0CCFF
(1634254887.577147) can1 0CF00400#F87D7D000000FF7D
(1634254887.577767) can1 18FEBD00#F9040000FFFFFFFF
(1634254887.578562) can1 18FEF100#FF000050CC001FFF
(1634254887.578995) can1 0CFF1100#0000000000000000
(1634254887.592323) can1 0CF00300#DF0000FFFFFFFFFF
(1634254887.592921) can1 0CF00400#F87D7D000000FF7D
(1634254887.593556) can1 18FEF200#000000006E06FFFF
(1634254887.594193) can1 18EBFF00#0C73AA0C036BFFFF
(1634254887.607269) can1 0CF00400#F87D7D000000FF7D
(1634254887.622067) can1 0CF00400#F87D7D000000FF7D
(1634254887.637080) can1 0CF00100#FFFFFFFF00FFFFFF
(1634254887.637789) can1 0CF00300#DF0000FFFFFFFFFF
(1634254887.638534) can1 0CF00400#F87D7D000000FF7D
(1634254887.638938) can1 10FE6F00#FFFF00F8FFFFFFFF
(1634254887.639623) can1 18FEC100#360DAC03FFFFFFFF
(1634254887.640244) can1 0CFF1100#0000000000000000
(1634254887.640820) can1 18F0000F#C07DFFFF017DFF77
(1634254887.652627) can1 0CF00400#F87D7D000000FF7D
(1634254887.653270) can1 18FEF000#FFFFFFFFFFF0CCFF
(1634254887.667195) can1 0CF00400#F87D7D000000FF7D
(1634254887.667838) can1 18FEF100#FF000050CC001FFF
(1634254887.682207) can1 0CF00300#DF0000FFFFFFFFFF
(1634254887.682815) can1 0CF00400#F87D7D000000FF7D
(1634254887.683471) can1 18FEF200#000000006E06FFFF
(1634254887.697298) can1 0CF00400#F87D7D000000FF7D
(1634254887.697904) can1 18FEDF00#88E015FF7DFFFFFF
(1634254887.698559) can1 0CFF1100#0000000000000000
(1634254887.712233) can1 0CF00400#F87D7D000000FF7D
(1634254887.727135) can1 0CF00100#FFFFFFFF00FFFFFF
(1634254887.727750) can1 0CF00300#DF0000FFFFFFFFFF
(1634254887.728380) can1 0CF00400#F87D7D000000FF7D
(1634254887.729029) can1 10FE6F00#FFFF00F8FFFFFFFF
(1634254887.729627) can1 18F0000F#C07DFFFF017DFF77
(1634254887.742577) can1 0CF00400#F87D7D000000FF7D
(1634254887.743169) can1 18FEF000#FFFFFFFFFFF0CCFF
(1634254887.757265) can1 0CF00400#F87D7D000000FF7D
(1634254887.757931) can1 18FEE400#007FFD0000FFFFFF
(1634254887.758487) can1 18FEF100#FF000050CC001FFF
(1634254887.759118) can1 0CFF1100#0000000000000000
(1634254887.772479) can1 0CF00300#DF0000FFFFFFFFFF
(1634254887.773068) can1 0CF00400#F87D7D000000FF7D
(1634254887.773766) can1 18FEF200#000000006E06FFFF
(1634254887.787343) can1 0CF00400#F87D7D000000FF7D
(1634254887.802167) can1 0CF00400#F87D7D000000FF7D
(1634254887.817242) can1 0CF00100#FFFFFFFF00FFFFFF
(1634254887.817857) can1 0CF00300#DF0000FFFFFFFFFF
(1634254887.818489) can1 0CF00400#F87D7D000000FF7D
(1634254887.819082) can1 10FE6F00#FFFF00F8FFFFFFFF
(1634254887.819792) can1 0CFF1100#0000000000000000
(1634254887.820319) can1 18F0000F#C07DFFFF017DFF77
(1634254887.832747) can1 0CF00400#F87D7D000000FF7D
(1634254887.833358) can1 18FEF000#FFFFFFFFFFF0CCFF
(1634254887.847329) can1 0CF00400#F87D7D000000FF7D
(1634254887.847962) can1 18FEF100#FF000050CC001FFF
(1634254887.862452) can1 0CF00300#DF0000FFFFFFFFFF
(1634254887.862968) can1 0CF00400#F87D7D000000FF7D
(1634254887.863635) can1 18FEF200#000000006E06FFFF
(1634254887.877422) can1 0CF00400#F87D7D000000FF7D
(1634254887.878101) can1 0CFF1100#0000000000000000
(1634254887.892318) can1 0CF00400#F87D7D000000FF7D
(1634254887.907284) can1 0CF00100#FFFFFFFF00FFFFFF
(1634254887.907885) can1 0CF00300#DF0000FFFFFFFFFF
(1634254887.908497) can1 0CF00400#F87D7D000000FF7D
(1634254887.909123) can1 10FE6F00#FFFF00F8FFFFFFFF
(1634254887.909784) can1 18F0000F#C07DFFFF017DFF77
(1634254887.922683) can1 0CF00400#F87D7D000000FF7D
(1634254887.923395) can1 18FEF000#FFFFFFFFFFF0CCFF
(1634254887.937430) can1 0CF00400#F87D7D000000FF7D
(1634254887.938026) can1 18FEDF00#88E015FF7DFFFFFF
(1634254887.938620) can1 18FEF100#FF000050CC001FFF
(1634254887.939249) can1 0CFF1100#0000000000000000
(1634254887.952591) can1 0CF00300#DF0000FFFFFFFFFF
(1634254887.953203) can1 0CF00400#F87D7D000000FF7D
(1634254887.953840) can1 18FEF200#000000006E06FFFF
(1634254887.954482) can1 18ECFF00#2052000CFFCAFE00
(1634254887.967582) can1 0CF00400#F87D7D000000FF7D
(1634254887.968238) can1 18FDC100#FFFEFFFFFFFFFFFF
(1634254887.968823) can1 18FD9F00#FFFFFFFFFFFF00CF
(1634254887.969429) can1 18FDAF00#1E221E22FFFFFFFF
(1634254887.970049) can1 18FDB000#1E22FFFFFFFFFFFF
(1634254887.970691) can1 18FDB100#1E22FFFFFFFFFFFF
(1634254887.971247) can1 18FDB200#1E221E22FFFEFFFF
(1634254887.971907) can1 18FDB300#2022FFFEFFFFFFFF
(1634254887.972483) can1 18FDB400#2022FFFEFFFFFFFF
(1634254887.973120) can1 18FEEF00#FFFFFFFEFFFFFFFE
(1634254887.982893) can1 0CF00400#F87D7D000000FF7D
(1634254887.983505) can1 18FEF600#FFFE41FFFF2022FF
(1634254887.997434) can1 0CF00100#FFFFFFFF00FFFFFF
(1634254887.998104) can1 0CF00300#DF0000FFFFFFFFFF
(1634254887.998657) can1 0CF00400#F87D7D000000FF7D
(1634254887.999269) can1 10FE6F00#FFFF00F8FFFFFFFF
(1634254887.999881) can1 18FEEE00#41FE4025FFFFFFFF
(1634254888.000522) can1 0CFF1100#0000000000000000
(1634254888.001121) can1 18F0000F#C07DFFFF017DFF77
(1634254888.012899) can1 0CF00400#F87D7D000000FF7D
(1634254888.013529) can1 18FEF000#FFFFFFFFFFF0CCFF
(1634254888.014101) can1 18EBFF00#0104FF5B0008019D
(1634254888.027500) can1 0CF00400#F87D7D000000FF7D
(1634254888.028160) can1 18FEF100#FF000050CC001FFF
(1634254888.042485) can1 0CF00300#DF0000FFFFFFFFFF
(1634254888.043150) can1 0CF00400#F87D7D000000FF7D
(1634254888.043742) can1 18FEF200#000000006E06FFFF
(1634254888.057567) can1 0CF00400#F87D7D000000FF7D
(1634254888.058200) can1 0CFF1100#0000000000000000
(1634254888.072468) can1 0CF00400#F87D7D000000FF7D
(1634254888.073107) can1 18EBFF00#020305016F000301
(1634254888.087459) can1 0CF00100#FFFFFFFF00FFFFFF
(1634254888.088192) can1 0CF00300#DF0000FFFFFFFFFF
(1634254888.088754) can1 0CF00400#F87D7D000000FF7D
(1634254888.089341) can1 10FE6F00#FFFF00F8FFFFFFFF
(1634254888.089953) can1 18F0000F#C07DFFFF017DFF77
(1634254888.102839) can1 0CF00400#F87D7D000000FF7D
(1634254888.103444) can1 18FEF000#FFFFFFFFFFF0CCFF
(1634254888.117550) can1 0CF00400#F87D7D000000FF7D
(1634254888.118144) can1 18FEF100#FF000050CC001FFF
(1634254888.118901) can1 0CFF1100#0000000000000000
(1634254888.132619) can1 0CF00300#DF0000FFFFFFFFFF
(1634254888.133222) can1 0CF00400#F87D7D000000FF7D
(1634254888.133873) can1 18FEF200#000000006E06FFFF
(1634254888.134537) can1 18EBFF00#03700E0901AE0003
(1634254888.147675) can1 0CF00400#F87D7D000000FF7D
(1634254888.162454) can1 0CF00400#F87D7D000000FF7D
(1634254888.177500) can1 0CF00100#FFFFFFFF00FFFFFF
(1634254888.178120) can1 0CF00300#DF0000FFFFFFFFFF
(1634254888.178876) can1 0CF00400#F87D7D000000FF7D
(1634254888.179371) can1 10FE6F00#FFFF00F8FFFFFFFF
(1634254888.180054) can1 18FEDF00#88E015FF7DFFFFFF
(1634254888.180645) can1 0CFF1100#0000000000000000
(1634254888.181233) can1 18F0000F#C07DFFFF017DFF77
(1634254888.193099) can1 0CF00400#F87D7D000000FF7D
(1634254888.193703) can1 18FEF000#FFFFFFFFFFF0CCFF
(1634254888.194405) can1 18EBFF00#04016400031D840B
(1634254888.207645) can1 0CF00400#F87D7D000000FF7D
(1634254888.208274) can1 18FEF100#FF000050CC001FFF
(1634254888.222623) can1 0CF00300#DF0000FFFFFFFFFF
(1634254888.223235) can1 0CF00400#F87D7D000000FF7D
(1634254888.223853) can1 18FEF200#000000006E06FFFF
(1634254888.237767) can1 0CF00400#F87D7D000000FF7D
(1634254888.238501) can1 18FEE700#FFFFFFFF00000000
(1634254888.239016) can1 0CFF1100#0000000000000000
(1634254888.252641) can1 0CF00400#F87D7D000000FF7D
(1634254888.253320) can1 18EBFF00#05037EAC00040104
(1634254888.267590) can1 0CF00100#FFFFFFFF00FFFFFF
(1634254888.268288) can1 0CF00300#DF0000FFFFFFFFFF
(1634254888.268849) can1 0CF00400#F87D7D000000FF7D
(1634254888.269452) can1 10FE6F00#FFFF00F8FFFFFFFF
(1634254888.270066) can1 18F0000F#C07DFFFF017DFF77
(1634254888.282961) can1 0CF00400#F87D7D000000FF7D
(1634254888.283623) can1 18FEF000#FFFFFFFFFFF0CCFF
(1634254888.297685) can1 0CF00400#F87D7D000000FF7D
(1634254888.298287) can1 18FEF100#FF000050CC001FFF
(1634254888.298976) can1 0CFF1100#0000000000000000
(1634254888.312757) can1 0CF00300#DF0000FFFFFFFFFF
(1634254888.313383) can1 0CF00400#F87D7D000000FF7D
(1634254888.314095) can1 18FEF200#000000006E06FFFF
(1634254888.314573) can1 18EBFF00#06F0E37E05F0E37D
(1634254888.327819) can1 0CF00400#F87D7D000000FF7D
(1634254888.342620) can1 0CF00400#F87D7D000000FF7D
(1634254888.357654) can1 0CF00100#FFFFFFFF00FFFFFF
(1634254888.358293) can1 0CF00300#DF0000FFFFFFFFFF
(1634254888.358896) can1 0CF00400#F87D7D000000FF7D
(1634254888.359494) can1 10FE6F00#FFFF00F8FFFFFFFF
(1634254888.360181) can1 0CFF1100#0000000000000000
(1634254888.360764) can1 18F0000F#C07DFFFF017DFF77
(1634254888.373139) can1 0CF00400#F87D7D000000FF7D
(1634254888.373743) can1 18FEF000#FFFFFFFFFFF0CCFF
(1634254888.374322) can1 18EBFF00#0701F0E379650003
(1634254888.387827) can1 0CF00400#F87D7D000000FF7D
(1634254888.388518) can1 18FEF100#FF000050CC001FFF
(1634254888.402811) can1 0CF00300#DF0000FFFFFFFFFF
(1634254888.403421) can1 0CF00400#F87D7D000000FF7D
(1634254888.404054) can1 18FEF200#000000006E06FFFF
(1634254888.417929) can1 0CF00400#F87D7D000000FF7D
(1634254888.418511) can1 18FEDF00#88E015FF7DFFFFFF
(1634254888.419139) can1 0CFF1100#0000000000000000
(1634254888.432878) can1 0CF00400#F87D7D000000FF7D
(1634254888.433471) can1 18EBFF00#0821980D037EED0F
(1634254888.447809) can1 0CF00100#FFFFFFFF00FFFFFF
(1634254888.448481) can1 0CF00300#DF0000FFFFFFFFFF
(1634254888.449080) can1 0CF00400#F87D7D000000FF7D
(1634254888.449676) can1 10FE6F00#FFFF00F8FFFFFFFF
(1634254888.450258) can1 18F0000F#C07DFFFF017DFF77
(1634254888.463212) can1 0CF00400#F87D7D000000FF7D
(1634254888.463814) can1 18FEF000#FFFFFFFFFFF0CCFF
(1634254888.477909) can1 0CF00400#F87D7D000000FF7D
(1634254888.478509) can1 18FEF100#FF000050CC001FFF
(1634254888.479130) can1 18FDC100#FFFEFFFFFFFFFFFF
(1634254888.479765) can1 0CFF1100#0000000000000000
(1634254888.480411) can1 18FD9F00#FFFFFFFFFFFF00CF
(1634254888.481010) can1 18FDAF00#1E221E22FFFFFFFF
(1634254888.481609) can1 18FDB000#1E22FFFFFFFFFFFF
(1634254888.482218) can1 18FDB100#1E22FFFFFFFFFFFF
(1634254888.482839) can1 18FDB200#1E221E22FFFEFFFF
(1634254888.483466) can1 18FDB300#2022FFFEFFFFFFFF
(1634254888.484114) can1 18FDB400#2022FFFEFFFFFFFF
(1634254888.484712) can1 18FEEF00#FFFFFFFEFFFFFFFE
(1634254888.493549) can1 0CF00300#DF0000FFFFFFFFFF
(1634254888.494156) can1 0CF00400#F87D7D000000FF7D
(1634254888.494754) can1 18FEF200#000000006E06FFFF
(1634254888.495405) can1 18FEF600#FFFE41FFFF2022FF
(1634254888.495961) can1 18EBFF00#09037EB10C0370F6
(1634254888.508102) can1 0CF00400#F87D7D000000FF7D
(1634254888.522810) can1 0CF00400#F87D7D000000FF7D
(1634254888.537859) can1 18E0FF00#00FFFFFFFFFBFFFF
(1634254888.538606) can1 0CF00100#FFFFFFFF00FFFFFF
(1634254888.539092) can1 0CF00300#DF0000FFFFFFFFFF
(1634254888.539697) can1 0CF00400#F87D7D000000FF7D
(1634254888.540310) can1 18FD7C00#F8835D00C0CC03FF
(1634254888.540915) can1 10FE6F00#FFFF00F8FFFFFFFF
(1634254888.541572) can1 18FEF700#FFFFFFFFF200FFFF
(1634254888.542152) can1 18FD9D00#64006400FFFFFFFF
(1634254888.542841) can1 0CFF1100#0000000000000000
(1634254888.543437) can1 18FE9700#2022FFFFFFFFFFFF
(1634254888.544048) can1 18FEF500#FEFFFFFFFFFEFFFF
(1634254888.544701) can1 18F0000F#C07DFFFF017DFF77
(1634254888.553978) can1 0CF00400#F87D7D000000FF7D
(1634254888.554603) can1 18FEF000#FFFFFFFFFFF0CCFF
(1634254888.555182) can1 18EBFF00#0A0E037EAD0C0370
(1634254888.568045) can1 0CF00400#F87D7D000000FF7D
(1634254888.568703) can1 18FEF100#FF000050CC001FFF
(1634254888.583006) can1 0CF00300#DF0000FFFFFFFFFF
(1634254888.583606) can1 0CF00400#F87D7D000000FF7D
(1634254888.584232) can1 18FEBD00#F9040000FFFFFFFF
(1634254888.584932) can1 18FEF200#000000006E06FFFF
(1634254888.598133) can1 0CF00400#F87D7D000000FF7D
(1634254888.598759) can1 0CFF1100#0000000000000000
(1634254888.612974) can1 0CF00400#F87D7D000000FF7D
(1634254888.613572) can1 18EBFF00#0BA90C0372B30C03
(1634254888.627961) can1 0CF00100#FFFFFFFF00FFFFFF
(1634254888.628657) can1 0CF00300#DF0000FFFFFFFFFF
(1634254888.629192) can1 0CF00400#F87D7D000000FF7D
(1634254888.629875) can1 10FE6F00#FFFF00F8FFFFFFFF
(1634254888.630483) can1 18F0000F#C07DFFFF017DFF77
(1634254888.643326) can1 0CF00400#F87D7D000000FF7D
(1634254888.643940) can1 18FEC100#360DAC03FFFFFFFF
(1634254888.644619) can1 18FEF000#FFFFFFFFFFF0CCFF
(1634254888.658112) can1 0CF00400#F87D7D000000FF7D
(1634254888.658722) can1 18FEDF00#88E015FF7DFFFFFF
(1634254888.659381) can1 18FEF100#FF000050CC001FFF
(1634254888.659955) can1 0CFF1100#0000000000000000
(1634254888.673235) can1 0CF00300#DF0000FFFFFFFFFF
(1634254888.673830) can1 0CF00400#F87D7D000000FF7D
(1634254888.674509) can1 18FEF200#000000006E06FFFF
(1634254888.675092) can1 18EBFF00#0C73AA0C036BFFFF
(1634254888.688187) can1 0CF00400#F87D7D000000FF7D
(1634254888.702975) can1 0CF00400#F87D7D000000FF7D
(1634254888.717997) can1 0CF00100#FFFFFFFF00FFFFFF
(1634254888.718609) can1 0CF00300#DF0000FFFFFFFFFF
(1634254888.719216) can1 0CF00400#F87D7D000000FF7D
(1634254888.719848) can1 10FE6F00#FFFF00F8FFFFFFFF
(1634254888.720465) can1 0CFF1100#0000000000000000
(1634254888.721075) can1 18F0000F#C07DFFFF017DFF77
(1634254888.733451) can1 0CF00400#F87D7D000000FF7D
(1634254888.734136) can1 18FEF000#FFFFFFFFFFF0CCFF
(1634254888.748101) can1 0CF00400#F87D7D000000FF7D
(1634254888.748751) can1 18FEF100#FF000050CC001FFF
(1634254888.763122) can1 0CF00300#DF0000FFFFFFFFFF
(1634254888.763757) can1 0CF00400#F87D7D000000FF7D
(1634254888.764340) can1 18FEE400#007FFD0000FFFFFF
(1634254888.764961) can1 18FEF200#000000006E06FFFF
(1634254888.778376) can1 0CF00400#F87D7D000000FF7D
(1634254888.779006) can1 0CFF1100#0000000000000000
(1634254888.793106) can1 0CF00400#F87D7D000000FF7D
(1634254888.808060) can1 0CF00100#FFFFFFFF00FFFFFF
(1634254888.808782) can1 0CF00300#DF0000FFFFFFFFFF
(1634254888.809290) can1 0CF00400#F87D7D000000FF7D
(1634254888.809938) can1 10FE6F00#FFFF00F8FFFFFFFF
(1634254888.810503) can1 18F0000F#C07DFFFF017DFF77
(1634254888.823485) can1 0CF00400#F87D7D000000FF7D
(1634254888.824087) can1 18FEF000#FFFFFFFFFFF0CCFF
(1634254888.838184) can1 0CF00400#F87D7D000000FF7D
(1634254888.838785) can1 18FEF100#FF000050CC001FFF
(1634254888.839411) can1 0CFF1100#0000000000000000
(1634254888.853256) can1 0CF00300#DF0000FFFFFFFFFF
(1634254888.853848) can1 0CF00400#F87D7D000000FF7D
(1634254888.854494) can1 18FEF200#000000006E06FFFF
(1634254888.868270) can1 0CF00400#F87D7D000000FF7D
(1634254888.883104) can1 0CF00400#F87D7D000000FF7D
(1634254888.898144) can1 0CF00100#FFFFFFFF00FFFFFF
(1634254888.898758) can1 0CF00300#DF0000FFFFFFFFFF
(1634254888.899414) can1 0CF00400#F87D7D000000FF7D
(1634254888.900106) can1 10FE6F00#FFFF00F8FFFFFFFF
(1634254888.900664) can1 18FEDF00#88E015FF7DFFFFFF
(1634254888.901270) can1 0CFF1100#0000000000000000
(1634254888.901863) can1 18F0000F#C07DFFFF017DFF77
(1634254888.913743) can1 0CF00400#F87D7D000000FF7D
(1634254888.914442) can1 18FEF000#FFFFFFFFFFF0CCFF
(1634254888.928251) can1 0CF00400#F87D7D000000FF7D
(1634254888.928833) can1 18FEF100#FF000050CC001FFF
(1634254888.943273) can1 0CF00300#DF0000FFFFFFFFFF
(1634254888.943993) can1 0CF00400#F87D7D000000FF7D
(1634254888.944494) can1 18FEF200#000000006E06FFFF
(1634254888.958333) can1 0CF00400#F87D7D000000FF7D
(1634254888.959004) can1 0CFF1100#0000000000000000
(1634254888.973227) can1 0CF00400#F87D7D000000FF7D
(1634254888.988198) can1 0CF00100#FFFFFFFF00FFFFFF
(1634254888.988854) can1 0CF00300#DF0000FFFFFFFFFF
(1634254888.989427) can1 0CF00400#F87D7D000000FF7D
(1634254888.990028) can1 10FE6F00#FFFF00F8FFFFFFFF
(1634254888.990687) can1 18FDC100#FFFEFFFFFFFFFFFF
(1634254888.991270) can1 18FD9F00#FFFFFFFFFFFF00CF
(1634254888.991906) can1 18FDAF00#1E221E22FFFFFFFF
(1634254888.992493) can1 18FDB000#1E22FFFFFFFFFFFF
(1634254888.993206) can1 18FDB100#1E22FFFFFFFFFFFF
(1634254888.993772) can1 18FDB200#1E221E22FFFEFFFF
(1634254888.994426) can1 18FDB300#2022FFFEFFFFFFFF
(1634254888.995039) can1 18FDB400#2022FFFEFFFFFFFF
(1634254888.995628) can1 18FEEF00#FFFFFFFEFFFFFFFE
(1634254888.996243) can1 18F0000F#C07DFFFF017DFF77
(1634254889.004180) can1 0CF00400#F87D7D000000FF7D
(1634254889.004801) can1 18FEEE00#41FE4025FFFFFFFF
(1634254889.005385) can1 18FEF000#FFFFFFFFFFF0CCFF
(1634254889.006003) can1 18FEF600#FFFE41FFFF2022FF
(1634254889.018459) can1 0CF00400#F87D7D000000FF7D
(1634254889.019057) can1 18FEF100#FF000050CC001FFF
(1634254889.019689) can1 0CFF1100#0000000000000000
(1634254889.033419) can1 0CF00300#DF0000FFFFFFFFFF
(1634254889.034012) can1 0CF00400#F87D7D000000FF7D
(1634254889.034637) can1 18FEF200#000000006E06FFFF
(1634254889.035408) can1 18ECFF00#2052000CFFCAFE00
(1634254889.048504) can1 0CF00400#F87D7D000000FF7D
(1634254889.063127) can1 0CF00400#F87D7D000000FF7D
(1634254889.078165) can1 0CF00100#FFFFFFFF00FFFFFF
(1634254889.078784) can1 0CF00300#DF0000FFFFFFFFFF
(1634254889.079390) can1 0CF00400#F87D7D000000FF7D
(1634254889.080134) can1 10FE6F00#FFFF00F8FFFFFFFF
(1634254889.080698) can1 0CFF1100#0000000000000000
(1634254889.081250) can1 18F0000F#C07DFFFF017DFF77
(1634254889.093736) can1 0CF00400#F87D7D000000FF7D
(1634254889.094491) can1 18FEF000#FFFFFFFFFFF0CCFF
(1634254889.094963) can1 18EBFF00#0104FF5B0008019D
(1634254889.108430) can1 0CF00400#F87D7D000000FF7D
(1634254889.109060) can1 18FEF100#FF000050CC001FFF
(1634254889.123410) can1 0CF00300#DF0000FFFFFFFFFF
(1634254889.123999) can1 0CF00400#F87D7D000000FF7D
(1634254889.124658) can1 18FEF200#000000006E06FFFF
(1634254889.138605) can1 0CF00400#F87D7D000000FF7D
(1634254889.139088) can1 18FEDF00#88E015FF7DFFFFFF
(1634254889.139784) can1 0CFF1100#0000000000000000
(1634254889.153407) can1 0CF00400#F87D7D000000FF7D
(1634254889.154008) can1 18EBFF00#020305016F000301
(1634254889.168278) can1 0CF00100#FFFFFFFF00FFFFFF
(1634254889.168934) can1 0CF00300#DF0000FFFFFFFFFF
(1634254889.169525) can1 0CF00400#F87D7D000000FF7D
(1634254889.170134) can1 10FE6F00#FFFF00F8FFFFFFFF
(1634254889.170748) can1 18F0000F#C07DFFFF017DFF77
(1634254889.183757) can1 0CF00400#F87D7D000000FF7D
(1634254889.184436) can1 18FEF000#FFFFFFFFFFF0CCFF
(1634254889.198353) can1 0CF00400#F87D7D000000FF7D
(1634254889.199031) can1 18FEF100#FF000050CC001FFF
(1634254889.199634) can1 0CFF1100#0000000000000000
(1634254889.213527) can1 0CF00300#DF0000FFFFFFFFFF
(1634254889.214188) can1 0CF00400#F87D7D000000FF7D
(1634254889.214776) can1 18FEF200#000000006E06FFFF
(1634254889.215358) can1 18EBFF00#03700E0901AE0003
(1634254889.228603) can1 0CF00400#F87D7D000000FF7D
(1634254889.243261) can1 0CF00400#F87D7D000000FF7D
(1634254889.243883) can1 18FEE700#FFFFFFFF00000000
(1634254889.258436) can1 0CF00100#FFFFFFFF00FFFFFF
(1634254889.258986) can1 0CF00300#DF0000FFFFFFFFFF
(1634254889.259601) can1 0CF00400#F87D7D000000FF7D
(1634254889.260203) can1 10FE6F00#FFFF00F8FFFFFFFF
(1634254889.260901) can1 0CFF1100#0000000000000000
(1634254889.261502) can1 18F0000F#C07DFFFF017DFF77
(1634254889.273925) can1 0CF00400#F87D7D000000FF7D
(1634254889.274563) can1 18FEF000#FFFFFFFFFFF0CCFF
(1634254889.275145) can1 18EBFF00#04016400031D840B
(1634254889.288452) can1 0CF00400#F87D7D000000FF7D
(1634254889.289185) can1 18FEF100#FF000050CC001FFF
(1634254889.303453) can1 0CF00300#DF0000FFFFFFFFFF
(1634254889.304055) can1 0CF00400#F87D7D000000FF7D
(1634254889.304674) can1 18FEF200#000000006E06FFFF
(1634254889.318505) can1 0CF00400#F87D7D000000FF7D
(1634254889.319184) can1 0CFF1100#0000000000000000
(1634254889.333400) can1 0CF00400#F87D7D000000FF7D
(1634254889.333984) can1 18EBFF00#05037EAC00040104
(1634254889.348409) can1 0CF00100#FFFFFFFF00FFFFFF
(1634254889.349051) can1 0CF00300#DF0000FFFFFFFFFF
(1634254889.349639) can1 0CF00400#F87D7D000000FF7D
(1634254889.350244) can1 10FE6F00#FFFF00F8FFFFFFFF
(1634254889.350884) can1 18F0000F#C07DFFFF017DFF77
(1634254889.363947) can1 0CF00400#F87D7D000000FF7D
(1634254889.364478) can1 18FEF000#FFFFFFFFFFF0CCFF
(1634254889.378499) can1 0CF00400#F87D7D000000FF7D
(1634254889.379170) can1 18FEDF00#88E015FF7DFFFFFF
(1634254889.379704) can1 18FEF100#FF000050CC001FFF
(1634254889.380426) can1 0CFF1100#0000000000000000
(1634254889.393684) can1 0CF00300#DF0000FFFFFFFFFF
(1634254889.394419) can1 0CF00400#F87D7D000000FF7D
(1634254889.394890) can1 18FEF200#000000006E06FFFF
(1634254889.395472) can1 18EBFF00#06F0E37E05F0E37D
(1634254889.408636) can1 0CF00400#F87D7D000000FF7D
(1634254889.423401) can1 0CF00400#F87D7D000000FF7D
(1634254889.438431) can1 0CF00100#FFFFFFFF00FFFFFF
(1634254889.439099) can1 0CF00300#DF0000FFFFFFFFFF
(1634254889.439663) can1 0CF00400#F87D7D000000FF7D
(1634254889.440327) can1 10FE6F00#FFFF00F8FFFFFFFF
(1634254889.440912) can1 0CFF1100#0000000000000000
(1634254889.441506) can1 18F0000F#C07DFFFF017DFF77
(1634254889.454006) can1 0CF00400#F87D7D000000FF7D
(1634254889.454633) can1 18FEF000#FFFFFFFFFFF0CCFF
(1634254889.455201) can1 18EBFF00#0701F0E379650003
(1634254889.468575) can1 0CF00400#F87D7D000000FF7D
(1634254889.469213) can1 18FEF100#FF000050CC001FFF
(1634254889.483561) can1 0CF00300#DF0000FFFFFFFFFF
(1634254889.484187) can1 0CF00400#F87D7D000000FF7D
(1634254889.484774) can1 18FEF200#000000006E06FFFF
(1634254889.498646) can1 0CF00400#F87D7D000000FF7D
(1634254889.499269) can1 18FDC100#FFFEFFFFFFFFFFFF
(1634254889.499895) can1 0CFF1100#0000000000000000
(1634254889.500547) can1 18FD9F00#FFFFFFFFFFFF00CF
(1634254889.501208) can1 18FDAF00#1E221E22FFFFFFFF
(1634254889.501772) can1 18FDB000#1E22FFFFFFFFFFFF
(1634254889.502518) can1 18FDB100#1E22FFFFFFFFFFFF
(1634254889.502948) can1 18FDB200#1E221E22FFFEFFFF
(1634254889.503563) can1 18FDB300#2022FFFEFFFFFFFF
(1634254889.504249) can1 18FDB400#2022FFFEFFFFFFFF
(1634254889.504816) can1 18FEEF00#FFFFFFFEFFFFFFFE
(1634254889.514370) can1 0CF00400#F87D7D000000FF7D
(1634254889.514948) can1 18FEF600#FFFE41FFFF2022FF
(1634254889.515646) can1 18EBFF00#0821980D037EED0F
(1634254889.528598) can1 0CF00100#FFFFFFFF00FFFFFF
(1634254889.529198) can1 0CF00300#DF0000FFFFFFFFFF
(1634254889.529825) can1 0CF00400#F87D7D000000FF7D
(1634254889.530505) can1 10FE6F00#FFFF00F8FFFFFFFF
(1634254889.531072) can1 18F0000F#C07DFFFF017DFF77
(1634254889.544025) can1 18E0FF00#00FFFFFFFFFBFFFF
(1634254889.544718) can1 0CF00400#F87D7D000000FF7D
(1634254889.545250) can1 18FD7C00#F8835D00C0CC03FF
(1634254889.545844) can1 18FEF000#FFFFFFFFFFF0CCFF
(1634254889.546492) can1 18FEF700#FFFFFFFFF200FFFF
(1634254889.547069) can1 18FD9D00#64006400FFFFFFFF
(1634254889.547717) can1 18FE9700#2022FFFFFFFFFFFF
(1634254889.548302) can1 18FEF500#FEFFFFFFFFFEFFFF
(1634254889.559317) can1 0CF00400#F87D7D000000FF7D
(1634254889.559949) can1 18FEF100#FF000050CC001FFF
(1634254889.560576) can1 0CFF1100#0000000000000000
(1634254889.573700) can1 0CF00300#DF0000FFFFFFFFFF
(1634254889.574475) can1 0CF00400#F87D7D000000FF7D
(1634254889.574947) can1 18FEF200#000000006E06FFFF
(1634254889.575495) can1 18EBFF00#09037EB10C0370F6
(1634254889.588765) can1 0CF00400#F87D7D000000FF7D
(1634254889.589497) can1 18FEBD00#F9040000FFFFFFFF
(1634254889.603589) can1 0CF00400#F87D7D000000FF7D
(1634254889.618582) can1 0CF00100#FFFFFFFF00FFFFFF
(1634254889.619269) can1 0CF00300#DF0000FFFFFFFFFF
(1634254889.619828) can1 0CF00400#F87D7D000000FF7D
(1634254889.620428) can1 10FE6F00#FFFF00F8FFFFFFFF
(1634254889.621027) can1 18FEDF00#88E015FF7DFFFFFF
(1634254889.621672) can1 0CFF1100#0000000000000000
(1634254889.622275) can1 18F0000F#C07DFFFF017DFF77
(1634254889.634294) can1 0CF00400#F87D7D000000FF7D
(1634254889.634887) can1 18FEF000#FFFFFFFFFFF0CCFF
(1634254889.635505) can1 18EBFF00#0A0E037EAD0C0370
(1634254889.648736) can1 0CF00400#F87D7D000000FF7D
(1634254889.649420) can1 18FEC100#360DAC03FFFFFFFF
(1634254889.649927) can1 18FEF100#FF000050CC001FFF
(1634254889.663754) can1 0CF00300#DF0000FFFFFFFFFF
(1634254889.664360) can1 0CF00400#F87D7D000000FF7D
(1634254889.665015) can1 18FEF200#000000006E06FFFF
(1634254889.678777) can1 0CF00400#F87D7D000000FF7D
(1634254889.679450) can1 0CFF1100#0000000000000000
(1634254889.693656) can1 0CF00400#F87D7D000000FF7D
(1634254889.694271) can1 18EBFF00#0BA90C0372B30C03
(1634254889.708681) can1 0CF00100#FFFFFFFF00FFFFFF
(1634254889.709391) can1 0CF00300#DF0000FFFFFFFFFF
(1634254889.709958) can1 0CF00400#F87D7D000000FF7D
(1634254889.710569) can1 10FE6F00#FFFF00F8FFFFFFFF
(1634254889.711125) can1 18F0000F#C07DFFFF017DFF77
(1634254889.724053) can1 0CF00400#F87D7D000000FF7D
(1634254889.724692) can1 18FEF000#FFFFFFFFFFF0CCFF
(1634254889.738769) can1 0CF00400#F87D7D000000FF7D
(1634254889.739370) can1 18FEF100#FF000050CC001FFF
(1634254889.740046) can1 0CFF1100#0000000000000000
(1634254889.753822) can1 0CF00300#DF0000FFFFFFFFFF
(1634254889.754469) can1 0CF00400#F87D7D000000FF7D
(1634254889.755101) can1 18FEF200#000000006E06FFFF
(1634254889.755724) can1 18EBFF00#0C73AA0C036BFFFF
(1634254889.768886) can1 0CF00400#F87D7D000000FF7D
(1634254889.769569) can1 18FEE400#007FFD0000FFFFFF
(1634254889.783798) can1 0CF00400#F87D7D000000FF7D
(1634254889.798726) can1 0CF00100#FFFFFFFF00FFFFFF
(1634254889.799385) can1 0CF00300#DF0000FFFFFFFFFF
(1634254889.800017) can1 0CF00400#F87D7D000000FF7D
(1634254889.800660) can1 10FE6F00#FFFF00F8FFFFFFFF
(1634254889.801238) can1 0CFF1100#0000000000000000
(1634254889.801863) can1 18F0000F#C07DFFFF017DFF77
(1634254889.814170) can1 0CF00400#F87D7D000000FF7D
(1634254889.814764) can1 18FEF000#FFFFFFFFFFF0CCFF
(1634254889.828816) can1 0CF00400#F87D7D000000FF7D
(1634254889.829411) can1 18FEF100#FF000050CC001FFF
(1634254889.843816) can1 0CF00300#DF0000FFFFFFFFFF
(1634254889.844471) can1 0CF00400#F87D7D000000FF7D
(1634254889.845053) can1 18FEF200#000000006E06FFFF
(1634254889.858934) can1 0CF00400#F87D7D000000FF7D
(1634254889.859528) can1 18FEDF00#88E015FF7DFFFFFF
(1634254889.860147) can1 0CFF1100#0000000000000000
(1634254889.873886) can1 0CF00400#F87D7D000000FF7D
(1634254889.888760) can1 0CF00100#FFFFFFFF00FFFFFF
(1634254889.889372) can1 0CF00300#DF0000FFFFFFFFFF
(1634254889.889983) can1 0CF00400#F87D7D000000FF7D
(1634254889.890627) can1 10FE6F00#FFFF00F8FFFFFFFF
(1634254889.891232) can1 18F0000F#C07DFFFF017DFF77
(1634254889.904199) can1 0CF00400#F87D7D000000FF7D
(1634254889.904832) can1 18FEF000#FFFFFFFFFFF0CCFF
(1634254889.918891) can1 0CF00400#F87D7D000000FF7D
(1634254889.919572) can1 18FEF100#FF000050CC001FFF
(1634254889.920243) can1 0CFF1100#0000000000000000
(1634254889.933953) can1 0CF00300#DF0000FFFFFFFFFF
(1634254889.934580) can1 0CF00400#F87D7D000000FF7D
(1634254889.935257) can1 18FEF200#000000006E06FFFF
(1634254889.948964) can1 0CF00400#F87D7D000000FF7D
(1634254889.963792) can1 0CF00400#F87D7D000000FF7D
(1634254889.978849) can1 0CF00100#FFFFFFFF00FFFFFF
(1634254889.979469) can1 0CF00300#DF0000FFFFFFFFFF
(1634254889.980075) can1 0CF00400#F87D7D000000FF7D
(1634254889.980703) can1 10FE6F00#FFFF00F8FFFFFFFF
(1634254889.981318) can1 0CFF1100#0000000000000000
(1634254889.981919) can1 18F0000F#C07DFFFF017DFF77
(1634254889.994374) can1 0CF00400#F87D7D000000FF7D
(1634254889.994966) can1 18FEF000#FFFFFFFFFFF0CCFF
(1634254890.008959) can1 0CF00400#F87D7D000000FF7D
(1634254890.009554) can1 18FEEE00#41FE4025FFFFFFFF
(1634254890.010157) can1 18FEF100#FF000050CC001FFF
(1634254890.010811) can1 18FDC100#FFFEFFFFFFFFFFFF
(1634254890.011402) can1 18FD9F00#FFFFFFFFFFFF00CF
(1634254890.012007) can1 18FDAF00#1E221E22FFFFFFFF
(1634254890.012616) can1 18FDB000#1E22FFFFFFFFFFFF
(1634254890.013243) can1 18FDB100#1E22FFFFFFFFFFFF
(1634254890.013856) can1 18FDB200#1E221E22FFFEFFFF
(1634254890.014467) can1 18FDB300#2022FFFEFFFFFFFF
(1634254890.015074) can1 18FDB400#2022FFFEFFFFFFFF
(1634254890.015699) can1 18FEEF00#FFFFFFFEFFFFFFFE
(1634254890.024591) can1 0CF00300#DF0000FFFFFFFFFF
(1634254890.025196) can1 0CF00400#F87D7D000000FF7D
(1634254890.025807) can1 18FEF200#000000006E06FFFF
(1634254890.026493) can1 18FEF600#FFFE41FFFF2022FF
(1634254890.039118) can1 0CF00400#F87D7D000000FF7D
(1634254890.039780) can1 0CFF1100#0000000000000000
(1634254890.053931) can1 0CF00400#F87D7D000000FF7D
(1634254890.068895) can1 0CF00100#FFFFFFFF00FFFFFF
(1634254890.069580) can1 0CF00300#DF0000FFFFFFFFFF
(1634254890.070206) can1 0CF00400#F87D7D000000FF7D
(1634254890.070781) can1 10FE6F00#FFFF00F8FFFFFFFF
(1634254890.071398) can1 18F0000F#C07DFFFF017DFF77
(1634254890.084304) can1 0CF00400#F87D7D000000FF7D
(1634254890.084919) can1 18FEF000#FFFFFFFFFFF0CCFF
(1634254890.099042) can1 0CF00400#F87D7D000000FF7D
(1634254890.099647) can1 18FEDF00#88E015FF7DFFFFFF
(1634254890.100268) can1 18FEF100#FF000050CC001FFF
(1634254890.100935) can1 0CFF1100#0000000000000000
(1634254890.114202) can1 0CF00300#DF0000FFFFFFFFFF
(1634254890.114850) can1 0CF00400#F87D7D000000FF7D
(1634254890.115583) can1 18FEF200#000000006E06FFFF
(1634254890.116074) can1 18ECFF00#2052000CFFCAFE00
(1634254890.129202) can1 0CF00400#F87D7D000000FF7D
(1634254890.143955) can1 0CF00400#F87D7D000000FF7D
(1634254890.158977) can1 0CF00100#FFFFFFFF00FFFFFF
(1634254890.159656) can1 0CF00300#DF0000FFFFFFFFFF
(1634254890.160264) can1 0CF00400#F87D7D000000FF7D
(1634254890.160808) can1 10FE6F00#FFFF00F8FFFFFFFF
(1634254890.161467) can1 0CFF1100#0000000000000000
(1634254890.162067) can1 18F0000F#C07DFFFF017DFF77
(1634254890.174518) can1 0CF00400#F87D7D000000FF7D
(1634254890.175081) can1 18FEF000#FFFFFFFFFFF0CCFF
(1634254890.175698) can1 18EBFF00#0104FF5B0008019D
(1634254890.189128) can1 0CF00400#F87D7D000000FF7D
(1634254890.189832) can1 18FEF100#FF000050CC001FFF
(1634254890.204172) can1 0CF00300#DF0000FFFFFFFFFF
(1634254890.204759) can1 0CF00400#F87D7D000000FF7D
(1634254890.205383) can1 18FEF200#000000006E06FFFF
(1634254890.219187) can1 0CF00400#F87D7D000000FF7D
(1634254890.219823) can1 0CFF1100#0000000000000000
(1634254890.234063) can1 0CF00400#F87D7D000000FF7D
(1634254890.234737) can1 18EBFF00#020305016F000301
(1634254890.249077) can1 0CF00100#FFFFFFFF00FFFFFF
(1634254890.249685) can1 0CF00300#DF0000FFFFFFFFFF
(1634254890.250295) can1 0CF00400#F87D7D000000FF7D
(1634254890.250982) can1 10FE6F00#FFFF00F8FFFFFFFF
(1634254890.251580) can1 18FEE700#FFFFFFFF00000000
(1634254890.252183) can1 18F0000F#C07DFFFF017DFF77
(1634254890.264520) can1 0CF00400#F87D7D000000FF7D
(1634254890.265121) can1 18FEF000#FFFFFFFFFFF0CCFF
(1634254890.279166) can1 0CF00400#F87D7D000000FF7D
(1634254890.279821) can1 18FEF100#FF000050CC001FFF
(1634254890.280396) can1 0CFF1100#0000000000000000
(1634254890.294236) can1 0CF00300#DF0000FFFFFFFFFF
(1634254890.294906) can1 0CF00400#F87D7D000000FF7D
(1634254890.295487) can1 18FEF200#000000006E06FFFF
(1634254890.296052) can1 18EBFF00#03700E0901AE0003
(1634254890.309294) can1 0CF00400#F87D7D000000FF7D
(1634254890.324061) can1 0CF00400#F87D7D000000FF7D
(1634254890.339126) can1 0CF00100#FFFFFFFF00FFFFFF
(1634254890.339740) can1 0CF00300#DF0000FFFFFFFFFF
(1634254890.340340) can1 0CF00400#F87D7D000000FF7D
(1634254890.341053) can1 10FE6F00#FFFF00F8FFFFFFFF
(1634254890.341563) can1 18FEDF00#88E015FF7DFFFFFF
(1634254890.342259) can1 0CFF1100#0000000000000000
(1634254890.342833) can1 18F0000F#C07DFFFF017DFF77
(1634254890.354644) can1 0CF00400#F87D7D000000FF7D
(1634254890.355244) can1 18FEF000#FFFFFFFFFFF0CCFF
(1634254890.355851) can1 18EBFF00#04016400031D840B
(1634254890.369278) can1 0CF00400#F87D7D000000FF7D
(1634254890.369889) can1 18FEF100#FF000050CC001FFF
(1634254890.384254) can1 0CF00300#DF0000FFFFFFFFFF
(1634254890.384855) can1 0CF00400#F87D7D000000FF7D
(1634254890.385494) can1 18FEF200#000000006E06FFFF
(1634254890.399321) can1 0CF00400#F87D7D000000FF7D
(1634254890.399998) can1 0CFF1100#0000000000000000
(1634254890.414198) can1 0CF00400#F87D7D000000FF7D
(1634254890.414821) can1 18EBFF00#05037EAC00040104
(1634254890.429200) can1 0CF00100#FFFFFFFF00FFFFFF
(1634254890.429846) can1 0CF00300#DF0000FFFFFFFFFF
(1634254890.430467) can1 0CF00400#F87D7D000000FF7D
(1634254890.431053) can1 10FE6F00#FFFF00F8FFFFFFFF
(1634254890.431727) can1 18F0000F#C07DFFFF017DFF77
(1634254890.444578) can1 0CF00400#F87D7D000000FF7D
(1634254890.445189) can1 18FEF000#FFFFFFFFFFF0CCFF
(1634254890.459305) can1 0CF00400#F87D7D000000FF7D
(1634254890.459911) can1 18FEF100#FF000050CC001FFF
(1634254890.460536) can1 0CFF1100#0000000000000000
(1634254890.474396) can1 0CF00300#DF0000FFFFFFFFFF
(1634254890.475018) can1 0CF00400#F87D7D000000FF7D
(1634254890.475664) can1 18FEF200#000000006E06FFFF
(1634254890.476295) can1 18EBFF00#06F0E37E05F0E37D
(1634254890.489431) can1 0CF00400#F87D7D000000FF7D
(1634254890.504227) can1 0CF00400#F87D7D000000FF7D
(1634254890.519253) can1 0CF00100#FFFFFFFF00FFFFFF
(1634254890.519922) can1 0CF00300#DF0000FFFFFFFFFF
(1634254890.520476) can1 0CF00400#F87D7D000000FF7D
(1634254890.521132) can1 10FE6F00#FFFF00F8FFFFFFFF
(1634254890.521703) can1 18FDC100#FFFEFFFFFFFFFFFF
(1634254890.522424) can1 0CFF1100#0000000000000000
(1634254890.522957) can1 18FD9F00#FFFFFFFFFFFF00CF
(1634254890.523630) can1 18FDAF00#1E221E22FFFFFFFF
(1634254890.524219) can1 18FDB000#1E22FFFFFFFFFFFF
(1634254890.524790) can1 18FDB100#1E22FFFFFFFFFFFF
(1634254890.525449) can1 18FDB200#1E221E22FFFEFFFF
(1634254890.526122) can1 18FDB300#2022FFFEFFFFFFFF
(1634254890.526683) can1 18FDB400#2022FFFEFFFFFFFF
(1634254890.527355) can1 18FEEF00#FFFFFFFEFFFFFFFE
(1634254890.527948) can1 18F0000F#C07DFFFF017DFF77
(1634254890.535257) can1 0CF00400#F87D7D000000FF7D
(1634254890.535900) can1 18FEF000#FFFFFFFFFFF0CCFF
(1634254890.536476) can1 18FEF600#FFFE41FFFF2022FF
(1634254890.537084) can1 18EBFF00#0701F0E379650003
(1634254890.549501) can1 18E0FF00#00FFFFFFFFFBFFFF
(1634254890.550074) can1 0CF00400#F87D7D000000FF7D
(1634254890.550745) can1 18FD7C00#F8835D00C0CC03FF
(1634254890.551330) can1 18FEF100#FF000050CC001FFF
(1634254890.551911) can1 18FEF700#FFFFFFFFF200FFFF
(1634254890.552522) can1 18FD9D00#64006400FFFFFFFF
(1634254890.553135) can1 18FE9700#2022FFFFFFFFFFFF
(1634254890.553760) can1 18FEF500#FEFFFFFFFFFEFFFF
(1634254890.564993) can1 0CF00300#DF0000FFFFFFFFFF
(1634254890.565594) can1 0CF00400#F87D7D000000FF7D
(1634254890.566195) can1 18FEF200#000000006E06FFFF
(1634254890.579463) can1 0CF00400#F87D7D000000FF7D
(1634254890.580122) can1 18FEDF00#88E015FF7DFFFFFF
(1634254890.580745) can1 0CFF1100#0000000000000000
(1634254890.594418) can1 0CF00400#F87D7D000000FF7D
(1634254890.595029) can1 18FEBD00#F9040000FFFFFFFF
(1634254890.595703) can1 18EBFF00#0821980D037EED0F
(1634254890.609401) can1 0CF00100#FFFFFFFF00FFFFFF
(1634254890.610076) can1 0CF00300#DF0000FFFFFFFFFF
(1634254890.610636) can1 0CF00400#F87D7D000000FF7D
(1634254890.611313) can1 10FE6F00#FFFF00F8FFFFFFFF
(1634254890.611858) can1 18F0000F#C07DFFFF017DFF77
(1634254890.624737) can1 0CF00400#F87D7D000000FF7D
(1634254890.625340) can1 18FEF000#FFFFFFFFFFF0CCFF
(1634254890.639428) can1 0CF00400#F87D7D000000FF7D
(1634254890.640072) can1 18FEF100#FF000050CC001FFF
(1634254890.640666) can1 0CFF1100#0000000000000000
(1634254890.654641) can1 0CF00300#DF0000FFFFFFFFFF
(1634254890.655218) can1 0CF00400#F87D7D000000FF7D
(1634254890.655731) can1 18FEC100#360DAC03FFFFFFFF
(1634254890.656399) can1 18FEF200#000000006E06FFFF
(1634254890.656930) can1 18EBFF00#09037EB10C0370F6
(1634254890.669665) can1 0CF00400#F87D7D000000FF7D
(1634254890.670223) can1 18ECFF0F#20130003FFE1FE00
(1634254890.684454) can1 0CF00400#F87D7D000000FF7D
(1634254890.699393) can1 0CF00100#FFFFFFFF00FFFFFF
(1634254890.700012) can1 0CF00300#DF0000FFFFFFFFFF
(1634254890.700749) can1 0CF00400#F87D7D000000FF7D
(1634254890.701369) can1 10FE6F00#FFFF00F8FFFFFFFF
(1634254890.701971) can1 0CFF1100#0000000000000000
(1634254890.702568) can1 18F0000F#C07DFFFF017DFF77
(1634254890.714917) can1 0CF00400#F87D7D000000FF7D
(1634254890.715504) can1 18FEF000#FFFFFFFFFFF0CCFF
(1634254890.716202) can1 18EBFF00#0A0E037EAD0C0370
(1634254890.729526) can1 0CF00400#F87D7D000000FF7D
(1634254890.730216) can1 18FEF100#FF000050CC001FFF
(1634254890.730797) can1 18EBFF0F#010303E01576204E
(1634254890.744579) can1 0CF00300#DF0000FFFFFFFFFF
(1634254890.745183) can1 0CF00400#F87D7D000000FF7D
(1634254890.745802) can1 18FEF200#000000006E06FFFF
(1634254890.759595) can1 0CF00400#F87D7D000000FF7D
(1634254890.760305) can1 0CFF1100#0000000000000000
(1634254890.774473) can1 0CF00400#F87D7D000000FF7D
(1634254890.775113) can1 18FEE400#007FFD0000FFFFFF
(1634254890.775742) can1 18EBFF00#0BA90C0372B30C03
(1634254890.789608) can1 0CF00100#FFFFFFFF00FFFFFF
(1634254890.790217) can1 0CF00300#DF0000FFFFFFFFFF
(1634254890.790885) can1 0CF00400#F87D7D000000FF7D
(1634254890.791505) can1 10FE6F00#FFFF00F8FFFFFFFF
(1634254890.792091) can1 18F0000F#C07DFFFF017DFF77
(1634254890.792715) can1 18EBFF0F#0219003228A04120
(1634254890.804892) can1 0CF00400#F87D7D000000FF7D
(1634254890.805503) can1 18FEF000#FFFFFFFFFFF0CCFF
(1634254890.819578) can1 0CF00400#F87D7D000000FF7D
(1634254890.820203) can1 18FEDF00#88E015FF7DFFFFFF
(1634254890.820834) can1 18FEF100#FF000050CC001FFF
(1634254890.821420) can1 0CFF1100#0000000000000000
(1634254890.834746) can1 0CF00300#DF0000FFFFFFFFFF
(1634254890.835405) can1 0CF00400#F87D7D000000FF7D
(1634254890.836073) can1 18FEF200#000000006E06FFFF
(1634254890.836577) can1 18EBFF00#0C73AA0C036BFFFF
(1634254890.849701) can1 0CF00400#F87D7D000000FF7D
(1634254890.850382) can1 18ECFF00#20220005FFE3FE00
(1634254890.850999) can1 18EBFF0F#03204E030819FFFF
(1634254890.864610) can1 0CF00400#F87D7D000000FF7D
(1634254890.879521) can1 0CF00100#FFFFFFFF00FFFFFF
(1634254890.880183) can1 0CF00300#DF0000FFFFFFFFFF
(1634254890.880843) can1 0CF00400#F87D7D000000FF7D
(1634254890.881352) can1 10FE6F00#FFFF00F8FFFFFFFF
(1634254890.882018) can1 0CFF1100#0000000000000000
(1634254890.882598) can1 18F0000F#C07DFFFF017DFF77
(1634254890.894989) can1 0CF00400#F87D7D000000FF7D
(1634254890.895639) can1 18FEF000#FFFFFFFFFFF0CCFF
(1634254890.909619) can1 0CF00400#F87D7D000000FF7D
(1634254890.910217) can1 18FEF100#FF000050CC001FFF
(1634254890.910832) can1 18EBFF00#01E015B9A041B580
(1634254890.924673) can1 0CF00300#DF0000FFFFFFFFFF
(1634254890.925311) can1 0CF00400#F87D7D000000FF7D
(1634254890.925898) can1 18FEF200#000000006E06FFFF
(1634254890.939730) can1 0CF00400#F87D7D000000FF7D
(1634254890.940359) can1 0CFF1100#0000000000000000
(1634254890.954629) can1 0CF00400#F87D7D000000FF7D
(1634254890.969573) can1 0CF00100#FFFFFFFF00FFFFFF
(1634254890.970256) can1 0CF00300#DF0000FFFFFFFFFF
(1634254890.970840) can1 0CF00400#F87D7D000000FF7D
(1634254890.971419) can1 10FE6F00#FFFF00F8FFFFFFFF
(1634254890.972083) can1 18F0000F#C07DFFFF017DFF77
(1634254890.972637) can1 18EBFF00#0225CCE02EC94038
(1634254890.985053) can1 0CF00400#F87D7D000000FF7D
(1634254890.985742) can1 18FEF000#FFFFFFFFFFF0CCFF
(1634254890.999709) can1 0CF00400#F87D7D000000FF7D
(1634254891.000356) can1 18FEF100#FF000050CC001FFF
(1634254891.000939) can1 0CFF1100#0000000000000000
(1634254891.014765) can1 0CF00300#DF0000FFFFFFFFFF
(1634254891.015369) can1 0CF00400#F87D7D000000FF7D
(1634254891.016070) can1 18FEEE00#41FE4025FFFFFFFF
(1634254891.016647) can1 18FEF200#000000006E06FFFF
(1634254891.029840) can1 0CF00400#F87D7D000000FF7D
(1634254891.030469) can1 18FDC100#FFFEFFFFFFFFFFFF
(1634254891.031166) can1 18FD9F00#FFFFFFFFFFFF00CF
(1634254891.031719) can1 18FDAF00#1E221E22FFFFFFFF
(1634254891.032314) can1 18FDB000#1E22FFFFFFFFFFFF
(1634254891.032928) can1 18FDB100#1E22FFFFFFFFFFFF
(1634254891.033519) can1 18FDB200#1E221E22FFFEFFFF
(1634254891.034146) can1 18FDB300#2022FFFEFFFFFFFF
(1634254891.034792) can1 18FDB400#2022FFFEFFFFFFFF
(1634254891.035444) can1 18FEEF00#FFFFFFFEFFFFFFFE
(1634254891.035978) can1 18EBFF00#03BF4042FFFFDC09
(1634254891.045221) can1 0CF00400#F87D7D000000FF7D
(1634254891.045869) can1 18FEF600#FFFE41FFFF2022FF
(1634254891.059718) can1 0CF00100#FFFFFFFF00FFFFFF
(1634254891.060334) can1 0CF00300#DF0000FFFFFFFFFF
(1634254891.060957) can1 0CF00400#F87D7D000000FF7D
(1634254891.061581) can1 10FE6F00#FFFF00F8FFFFFFFF
(1634254891.062206) can1 18FEDF00#88E015FF7DFFFFFF
(1634254891.062825) can1 0CFF1100#0000000000000000
(1634254891.063433) can1 18F0000F#C07DFFFF017DFF77
(1634254891.075276) can1 0CF00400#F87D7D000000FF7D
(1634254891.075878) can1 18FEF000#FFFFFFFFFFF0CCFF
(1634254891.089761) can1 0CF00400#F87D7D000000FF7D
(1634254891.090477) can1 18FEF100#FF000050CC001FFF
(1634254891.090973) can1 18EBFF00#04C04EFAFFFFFFFF
(1634254891.104839) can1 0CF00300#DF0000FFFFFFFFFF
(1634254891.105442) can1 0CF00400#F87D7D000000FF7D
(1634254891.106058) can1 18FEF200#000000006E06FFFF
(1634254891.119855) can1 0CF00400#F87D7D000000FF7D
(1634254891.120518) can1 0CFF1100#0000000000000000
(1634254891.134743) can1 0CF00400#F87D7D000000FF7D
(1634254891.149720) can1 0CF00100#FFFFFFFF00FFFFFF
(1634254891.150320) can1 0CF00300#DF0000FFFFFFFFFF
(1634254891.150943) can1 0CF00400#F87D7D000000FF7D
(1634254891.151591) can1 10FE6F00#FFFF00F8FFFFFFFF
(1634254891.152164) can1 18F0000F#C07DFFFF017DFF77
(1634254891.152823) can1 18EBFF00#05FFFF9001FFFFFF
(1634254891.165181) can1 0CF00400#F87D7D000000FF7D
(1634254891.165769) can1 18FEF000#FFFFFFFFFFF0CCFF
(1634254891.179848) can1 0CF00400#F87D7D000000FF7D
(1634254891.180453) can1 18FEF100#FF000050CC001FFF
(1634254891.181071) can1 0CFF1100#0000000000000000
(1634254891.194945) can1 0CF00300#DF0000FFFFFFFFFF
(1634254891.195543) can1 0CF00400#F87D7D000000FF7D
(1634254891.196219) can1 18FEF200#000000006E06FFFF
(1634254891.196810) can1 18ECFF00#2052000CFFCAFE00
(1634254891.210011) can1 0CF00400#F87D7D000000FF7D
(1634254891.224765) can1 0CF00400#F87D7D000000FF7D
(1634254891.239792) can1 0CF00100#FFFFFFFF00FFFFFF
(1634254891.240451) can1 0CF00300#DF0000FFFFFFFFFF
(1634254891.241016) can1 0CF00400#F87D7D000000FF7D
(1634254891.241683) can1 10FE6F00#FFFF00F8FFFFFFFF
(1634254891.242302) can1 0CFF1100#0000000000000000
(1634254891.242939) can1 18F0000F#C07DFFFF017DFF77
(1634254891.255258) can1 0CF00400#F87D7D000000FF7D
(1634254891.255876) can1 18FEE700#FFFFFFFF00000000
(1634254891.256565) can1 18FEF000#FFFFFFFFFFF0CCFF
(1634254891.257164) can1 18EBFF00#0104FF5B0008019D
(1634254891.270022) can1 0CF00400#F87D7D000000FF7D
(1634254891.270623) can1 18FEF100#FF000050CC001FFF
(1634254891.284921) can1 0CF00300#DF0000FFFFFFFFFF
(1634254891.285518) can1 0CF00400#F87D7D000000FF7D
(1634254891.286149) can1 18FEF200#000000006E06FFFF
(1634254891.300004) can1 0CF00400#F87D7D000000FF7D
(1634254891.300605) can1 18FEDF00#88E015FF7DFFFFFF
(1634254891.301289) can1 0CFF1100#0000000000000000
(1634254891.314967) can1 0CF00400#F87D7D000000FF7D
(1634254891.315629) can1 18EBFF00#020305016F000301
(1634254891.329900) can1 0CF00100#FFFFFFFF00FFFFFF
(1634254891.330516) can1 0CF00300#DF0000FFFFFFFFFF
(1634254891.331132) can1 0CF00400#F87D7D000000FF7D
(1634254891.331802) can1 10FE6F00#FFFF00F8FFFFFFFF
(1634254891.332363) can1 18F0000F#C07DFFFF017DFF77
(1634254891.345275) can1 0CF00400#F87D7D000000FF7D
(1634254891.345897) can1 18FEF000#FFFFFFFFFFF0CCFF
(1634254891.359978) can1 0CF00400#F87D7D000000FF7D
(1634254891.360626) can1 18FEF100#FF000050CC001FFF
(1634254891.361205) can1 0CFF1100#0000000000000000
(1634254891.375050) can1 0CF00300#DF0000FFFFFFFFFF
(1634254891.375706) can1 0CF00400#F87D7D000000FF7D
(1634254891.376286) can1 18FEF200#000000006E06FFFF
(1634254891.376889) can1 18EBFF00#03700E0901AE0003
(1634254891.390117) can1 0CF00400#F87D7D000000FF7D
(1634254891.404888) can1 0CF00400#F87D7D000000FF7D
(1634254891.419964) can1 0CF00100#FFFFFFFF00FFFFFF
(1634254891.420583) can1 0CF00300#DF0000FFFFFFFFFF
(1634254891.421189) can1 0CF00400#F87D7D000000FF7D
(1634254891.421806) can1 10FE6F00#FFFF00F8FFFFFFFF
(1634254891.422576) can1 0CFF1100#0000000000000000
(1634254891.423042) can1 18F0000F#C07DFFFF017DFF77
(1634254891.435456) can1 0CF00400#F87D7D000000FF7D
(1634254891.436047) can1 18FEF000#FFFFFFFFFFF0CCFF
(1634254891.436655) can1 18EBFF00#04016400031D840B
(1634254891.450085) can1 0CF00400#F87D7D000000FF7D
(1634254891.450693) can1 18FEF100#FF000050CC001FFF
(1634254891.465066) can1 0CF00300#DF0000FFFFFFFFFF
(1634254891.465667) can1 0CF00400#F87D7D000000FF7D
(1634254891.466287) can1 18FEF200#000000006E06FFFF
(1634254891.480128) can1 0CF00400#F87D7D000000FF7D
(1634254891.480779) can1 0CFF1100#0000000000000000
(1634254891.495020) can1 0CF00400#F87D7D000000FF7D
(1634254891.495619) can1 18EBFF00#05037EAC00040104
(1634254891.510022) can1 0CF00100#FFFFFFFF00FFFFFF
(1634254891.510683) can1 0CF00300#DF0000FFFFFFFFFF
(1634254891.511324) can1 0CF00400#F87D7D000000FF7D
(1634254891.511947) can1 10FE6F00#FFFF00F8FFFFFFFF
(1634254891.512534) can1 18F0000F#C07DFFFF017DFF77
(1634254891.525408) can1 0CF00400#F87D7D000000FF7D
(1634254891.526038) can1 18FEF000#FFFFFFFFFFF0CCFF
(1634254891.540209) can1 0CF00400#F87D7D000000FF7D
(1634254891.540763) can1 18FEDF00#88E015FF7DFFFFFF
(1634254891.541446) can1 18FEF100#FF000050CC001FFF
(1634254891.541985) can1 18FDC100#FFFEFFFFFFFFFFFF
(1634254891.542609) can1 0CFF1100#0000000000000000
(1634254891.543269) can1 18FD9F00#FFFFFFFFFFFF00CF
(1634254891.543822) can1 18FDAF00#1E221E22FFFFFFFF
(1634254891.544440) can1 18FDB000#1E22FFFFFFFFFFFF
(1634254891.545058) can1 18FDB100#1E22FFFFFFFFFFFF
(1634254891.545665) can1 18FDB200#1E221E22FFFEFFFF
(1634254891.546279) can1 18FDB300#2022FFFEFFFFFFFF
(1634254891.547043) can1 18FDB400#2022FFFEFFFFFFFF
(1634254891.547595) can1 18FEEF00#FFFFFFFEFFFFFFFE
(1634254891.555966) can1 18E0FF00#00FFFFFFFFFBFFFF
(1634254891.556610) can1 0CF00300#DF0000FFFFFFFFFF
(1634254891.557183) can1 0CF00400#F87D7D000000FF7D
(1634254891.557844) can1 18FD7C00#F8835D00C0CC03FF
(1634254891.558472) can1 18FEF200#000000006E06FFFF
(1634254891.559017) can1 18FEF600#FFFE41FFFF2022FF
(1634254891.559653) can1 18FEF700#FFFFFFFFF200FFFF
(1634254891.560244) can1 18FD9D00#64006400FFFFFFFF
(1634254891.560873) can1 18FE9700#2022FFFFFFFFFFFF
(1634254891.561486) can1 18FEF500#FEFFFFFFFFFEFFFF
(1634254891.562091) can1 18EBFF00#06F0E37E05F0E37D
(1634254891.570942) can1 0CF00400#F87D7D000000FF7D
(1634254891.585020) can1 0CF00400#F87D7D000000FF7D
(1634254891.600056) can1 0CF00100#FFFFFFFF00FFFFFF
(1634254891.600769) can1 0CF00300#DF0000FFFFFFFFFF
(1634254891.601359) can1 0CF00400#F87D7D000000FF7D
(1634254891.601945) can1 10FE6F00#FFFF00F8FFFFFFFF
(1634254891.602550) can1 18FEBD00#F9040000FFFFFFFF
(1634254891.603157) can1 0CFF1100#0000000000000000
(1634254891.603824) can1 18F0000F#C07DFFFF017DFF77
(1634254891.615583) can1 0CF00400#F87D7D000000FF7D
(1634254891.616233) can1 18FEF000#FFFFFFFFFFF0CCFF
(1634254891.616877) can1 18EBFF00#0701F0E379650003
(1634254891.630229) can1 0CF00400#F87D7D000000FF7D
(1634254891.630818) can1 18FEF100#FF000050CC001FFF
(1634254891.645190) can1 0CF00300#DF0000FFFFFFFFFF
(1634254891.645816) can1 0CF00400#F87D7D000000FF7D
(1634254891.646457) can1 18FEF200#000000006E06FFFF
(1634254891.660273) can1 0CF00400#F87D7D000000FF7D
(1634254891.660885) can1 18FEC100#360DAC03FFFFFFFF
(1634254891.661564) can1 0CFF1100#0000000000000000
(1634254891.675229) can1 0CF00400#F87D7D000000FF7D
(1634254891.675980) can1 18EBFF00#0821980D037EED0F
(1634254891.690172) can1 0CF00100#FFFFFFFF00FFFFFF
(1634254891.690824) can1 0CF00300#DF0000FFFFFFFFFF
(1634254891.691417) can1 0CF00400#F87D7D000000FF7D
(1634254891.691995) can1 10FE6F00#FFFF00F8FFFFFFFF
(1634254891.692607) can1 18F0000F#C07DFFFF017DFF77
(1634254891.705547) can1 0CF00400#F87D7D000000FF7D
(1634254891.706161) can1 18FEF000#FFFFFFFFFFF0CCFF
(1634254891.720251) can1 0CF00400#F87D7D000000FF7D
(1634254891.720931) can1 18FEF100#FF000050CC001FFF
(1634254891.721478) can1 0CFF1100#0000000000000000
(1634254891.735325) can1 0CF00300#DF0000FFFFFFFFFF
(1634254891.735909) can1 0CF00400#F87D7D000000FF7D
(1634254891.736575) can1 18FEF200#000000006E06FFFF
(1634254891.737149) can1 18EBFF00#09037EB10C0370F6
(1634254891.750374) can1 0CF00400#F87D7D000000FF7D
(1634254891.765245) can1 0CF00400#F87D7D000000FF7D
(1634254891.780210) can1 0CF00100#FFFFFFFF00FFFFFF
(1634254891.780857) can1 0CF00300#DF0000FFFFFFFFFF
(1634254891.781496) can1 0CF00400#F87D7D000000FF7D
(1634254891.782124) can1 10FE6F00#FFFF00F8FFFFFFFF
(1634254891.782659) can1 18FEDF00#88E015FF7DFFFFFF
(1634254891.783311) can1 18FEE400#007FFD0000FFFFFF
(1634254891.783932) can1 0CFF1100#0000000000000000
(1634254891.784573) can1 18F0000F#C07DFFFF017DFF77
(1634254891.795934) can1 0CF00400#F87D7D000000FF7D
(1634254891.796588) can1 18FEF000#FFFFFFFFFFF0CCFF
(1634254891.797160) can1 18EBFF00#0A0E037EAD0C0370
(1634254891.810359) can1 0CF00400#F87D7D000000FF7D
(1634254891.810940) can1 18FEF100#FF000050CC001FFF
(1634254891.825336) can1 0CF00300#DF0000FFFFFFFFFF
(1634254891.825944) can1 0CF00400#F87D7D000000FF7D
(1634254891.826548) can1 18FEF200#000000006E06FFFF
(1634254891.840396) can1 0CF00400#F87D7D000000FF7D
(1634254891.841104) can1 0CFF1100#0000000000000000
(1634254891.855291) can1 0CF00400#F87D7D000000FF7D
(1634254891.855891) can1 18EBFF00#0BA90C0372B30C03
(1634254891.870305) can1 0CF00100#FFFFFFFF00FFFFFF
(1634254891.871033) can1 0CF00300#DF0000FFFFFFFFFF
(1634254891.871527) can1 0CF00400#F87D7D000000FF7D
(1634254891.872178) can1 10FE6F00#FFFF00F8FFFFFFFF
(1634254891.872764) can1 18F0000F#C07DFFFF017DFF77
(1634254891.885677) can1 0CF00400#F87D7D000000FF7D
(1634254891.886280) can1 18FEF000#FFFFFFFFFFF0CCFF
(1634254891.900389) can1 0CF00400#F87D7D000000FF7D
(1634254891.900992) can1 18FEF100#FF000050CC001FFF
(1634254891.901701) can1 0CFF1100#0000000000000000
(1634254891.915480) can1 0CF00300#DF0000FFFFFFFFFF
(1634254891.916104) can1 0CF00400#F87D7D000000FF7D
(1634254891.916701) can1 18FEF200#000000006E06FFFF
(1634254891.917346) can1 18EBFF00#0C73AA0C036BFFFF
(1634254891.930530) can1 0CF00400#F87D7D000000FF7D
(1634254891.945312) can1 0CF00400#F87D7D000000FF7D
(1634254891.960336) can1 0CF00100#FFFFFFFF00FFFFFF
(1634254891.960995) can1 0CF00300#DF0000FFFFFFFFFF
(1634254891.961557) can1 0CF00400#F87D7D000000FF7D
(1634254891.962224) can1 10FE6F00#FFFF00F8FFFFFFFF
(1634254891.962812) can1 0CFF1100#0000000000000000
(1634254891.963496) can1 18F0000F#C07DFFFF017DFF77
(1634254891.975794) can1 0CF00400#F87D7D000000FF7D
(1634254891.976464) can1 18FEF000#FFFFFFFFFFF0CCFF
(1634254891.990445) can1 0CF00400#F87D7D000000FF7D
(1634254891.991098) can1 18FEF100#FF000050CC001FFF
(1634254892.005454) can1 0CF00300#DF0000FFFFFFFFFF
(1634254892.006061) can1 0CF00400#F87D7D000000FF7D
(1634254892.006717) can1 18FEF200#000000006E06FFFF
(1634254892.020544) can1 0CF00400#F87D7D000000FF7D
(1634254892.021297) can1 18FEDF00#88E015FF7DFFFFFF
(1634254892.021767) can1 18FEEE00#41FE4025FFFFFFFF
(1634254892.022544) can1 0CFF1100#0000000000000000
(1634254892.035599) can1 0CF00400#F87D7D000000FF7D
(1634254892.050395) can1 0CF00100#FFFFFFFF00FFFFFF
(1634254892.051023) can1 0CF00300#DF0000FFFFFFFFFF
(1634254892.051606) can1 0CF00400#F87D7D000000FF7D
(1634254892.052228) can1 10FE6F00#FFFF00F8FFFFFFFF
(1634254892.052909) can1 18FDC100#FFFEFFFFFFFFFFFF
(1634254892.053467) can1 18FD9F00#FFFFFFFFFFFF00CF
(1634254892.054105) can1 18FDAF00#1E221E22FFFFFFFF
(1634254892.054679) can1 18FDB000#1E22FFFFFFFFFFFF
(1634254892.055352) can1 18FDB100#1E22FFFFFFFFFFFF
(1634254892.055911) can1 18FDB200#1E221E22FFFEFFFF
(1634254892.056556) can1 18FDB300#2022FFFEFFFFFFFF
(1634254892.057138) can1 18FDB400#2022FFFEFFFFFFFF
(1634254892.057757) can1 18FEEF00#FFFFFFFEFFFFFFFE
(1634254892.058374) can1 18F0000F#C07DFFFF017DFF77
(1634254892.066477) can1 0CF00400#F87D7D000000FF7D
(1634254892.066979) can1 18FEF000#FFFFFFFFFFF0CCFF
(1634254892.067614) can1 18FEF600#FFFE41FFFF2022FF
(1634254892.080570) can1 0CF00400#F87D7D000000FF7D
(1634254892.081229) can1 18FEF100#FF000050CC001FFF
(1634254892.081809) can1 0CFF1100#0000000000000000
(1634254892.095590) can1 0CF00300#DF0000FFFFFFFFFF
(1634254892.096181) can1 0CF00400#F87D7D000000FF7D
(1634254892.096796) can1 18FEF200#000000006E06FFFF
(1634254892.110597) can1 0CF00400#F87D7D000000FF7D
(1634254892.125427) can1 0CF00400#F87D7D000000FF7D
(1634254892.140474) can1 0CF00100#FFFFFFFF00FFFFFF
(1634254892.141092) can1 0CF00300#DF0000FFFFFFFFFF
(1634254892.141727) can1 0CF00400#F87D7D000000FF7D
(1634254892.142441) can1 10FE6F00#FFFF00F8FFFFFFFF
(1634254892.142949) can1 0CFF1100#0000000000000000
(1634254892.143547) can1 18F0000F#C07DFFFF017DFF77
(1634254892.155983) can1 0CF00400#F87D7D000000FF7D
(1634254892.156584) can1 18FEF000#FFFFFFFFFFF0CCFF
(1634254892.170570) can1 0CF00400#F87D7D000000FF7D
(1634254892.171216) can1 18FEF100#FF000050CC001FFF
(1634254892.185608) can1 0CF00300#DF0000FFFFFFFFFF
(1634254892.186212) can1 0CF00400#F87D7D000000FF7D
(1634254892.186824) can1 18FEF200#000000006E06FFFF
(1634254892.200670) can1 0CF00400#F87D7D000000FF7D
(1634254892.201410) can1 0CFF1100#0000000000000000
(1634254892.215552) can1 0CF00400#F87D7D000000FF7D
(1634254892.230513) can1 0CF00100#FFFFFFFF00FFFFFF
(1634254892.231175) can1 0CF00300#DF0000FFFFFFFFFF
(1634254892.231791) can1 0CF00400#F87D7D000000FF7D
(1634254892.232393) can1 10FE6F00#FFFF00F8FFFFFFFF
(1634254892.233019) can1 18F0000F#C07DFFFF017DFF77
(1634254892.245948) can1 0CF00400#F87D7D000000FF7D
(1634254892.246584) can1 18FEF000#FFFFFFFFFFF0CCFF
(1634254892.260660) can1 0CF00400#F87D7D000000FF7D
(1634254892.261266) can1 18FEDF00#88E015FF7DFFFFFF
(1634254892.261879) can1 18FEE700#FFFFFFFF00000000
(1634254892.262606) can1 18FEF100#FF000050CC001FFF
(1634254892.263169) can1 0CFF1100#0000000000000000
(1634254892.275899) can1 0CF00300#DF0000FFFFFFFFFF
(1634254892.276552) can1 0CF00400#F87D7D000000FF7D
(1634254892.277123) can1 18FEF200#000000006E06FFFF
(1634254892.277773) can1 18ECFF00#2052000CFFCAFE00
(1634254892.290825) can1 0CF00400#F87D7D000000FF7D
(1634254892.305581) can1 0CF00400#F87D7D000000FF7D
(1634254892.320607) can1 0CF00100#FFFFFFFF00FFFFFF
(1634254892.321284) can1 0CF00300#DF0000FFFFFFFFFF
(1634254892.321832) can1 0CF00400#F87D7D000000FF7D
(1634254892.322437) can1 10FE6F00#FFFF00F8FFFFFFFF
(1634254892.323229) can1 0CFF1100#0000000000000000
(1634254892.323829) can1 18F0000F#C07DFFFF017DFF77
(1634254892.336050) can1 0CF00400#F87D7D000000FF7D
(1634254892.336679) can1 18FEF000#FFFFFFFFFFF0CCFF
(1634254892.337300) can1 18EBFF00#0104FF5B0008019D
(1634254892.350750) can1 0CF00400#F87D7D000000FF7D
(1634254892.351407) can1 18FEF100#FF000050CC001FFF
(1634254892.365738) can1 0CF00300#DF0000FFFFFFFFFF
(1634254892.366410) can1 0CF00400#F87D7D000000FF7D
(1634254892.366962) can1 18FEF200#000000006E06FFFF
(1634254892.380811) can1 0CF00400#F87D7D000000FF7D
(1634254892.381436) can1 0CFF1100#0000000000000000
(1634254892.395703) can1 0CF00400#F87D7D000000FF7D
(1634254892.396412) can1 18EBFF00#020305016F000301
(1634254892.410700) can1 0CF00100#FFFFFFFF00FFFFFF
(1634254892.411374) can1 0CF00300#DF0000FFFFFFFFFF
(1634254892.411919) can1 0CF00400#F87D7D000000FF7D
(1634254892.412567) can1 10FE6F00#FFFF00F8FFFFFFFF
(1634254892.413165) can1 18F0000F#C07DFFFF017DFF77
(1634254892.426090) can1 0CF00400#F87D7D000000FF7D
(1634254892.426705) can1 18FEF000#FFFFFFFFFFF0CCFF
(1634254892.440786) can1 0CF00400#F87D7D000000FF7D
(1634254892.441478) can1 18FEF100#FF000050CC001FFF
(1634254892.442016) can1 0CFF1100#0000000000000000
(1634254892.455852) can1 0CF00300#DF0000FFFFFFFFFF
(1634254892.456490) can1 0CF00400#F87D7D000000FF7D
(1634254892.457109) can1 18FEF200#000000006E06FFFF
(1634254892.457692) can1 18EBFF00#03700E0901AE0003
(1634254892.470921) can1 0CF00400#F87D7D000000FF7D
(1634254892.485693) can1 0CF00400#F87D7D000000FF7D
(1634254892.500745) can1 0CF00100#FFFFFFFF00FFFFFF
(1634254892.501401) can1 0CF00300#DF0000FFFFFFFFFF
(1634254892.502014) can1 0CF00400#F87D7D000000FF7D
(1634254892.502606) can1 10FE6F00#FFFF00F8FFFFFFFF
(1634254892.503216) can1 18FEDF00#88E015FF7DFFFFFF
(1634254892.503868) can1 0CFF1100#0000000000000000
(1634254892.504442) can1 18F0000F#C07DFFFF017DFF77
(1634254892.516347) can1 0CF00400#F87D7D000000FF7D
(1634254892.517009) can1 18FEF000#FFFFFFFFFFF0CCFF
(1634254892.517572) can1 18EBFF00#04016400031D840B
(1634254892.530877) can1 0CF00400#F87D7D000000FF7D
(1634254892.531535) can1 18FEF100#FF000050CC001FFF
(1634254892.545880) can1 0CF00300#DF0000FFFFFFFFFF
(1634254892.546820) can1 0CF00400#F87D7D000000FF7D
(1634254892.547093) can1 18FEF200#000000006E06FFFF
(1634254892.560940) can1 18E0FF00#00FFFFFFFFFBFFFF
(1634254892.561611) can1 0CF00400#F87D7D000000FF7D
(1634254892.562151) can1 18FD7C00#F8835D00C0CC03FF
(1634254892.562771) can1 18FDC100#FFFEFFFFFFFFFFFF
(1634254892.563434) can1 18FEF700#FFFFFFFFF200FFFF
(1634254892.563994) can1 18FD9D00#64006400FFFFFFFF
(1634254892.564637) can1 0CFF1100#0000000000000000
(1634254892.565243) can1 18FD9F00#FFFFFFFFFFFF00CF
(1634254892.565883) can1 18FDAF00#1E221E22FFFFFFFF
(1634254892.566464) can1 18FDB000#1E22FFFFFFFFFFFF
(1634254892.567167) can1 18FDB100#1E22FFFFFFFFFFFF
(1634254892.567688) can1 18FDB200#1E221E22FFFEFFFF
(1634254892.568355) can1 18FDB300#2022FFFEFFFFFFFF
(1634254892.568947) can1 18FDB400#2022FFFEFFFFFFFF
(1634254892.569536) can1 18FE9700#2022FFFFFFFFFFFF
(1634254892.570163) can1 18FEEF00#FFFFFFFEFFFFFFFE
(1634254892.570820) can1 18FEF500#FEFFFFFFFFFEFFFF
(1634254892.577130) can1 0CF00400#F87D7D000000FF7D
(1634254892.577720) can1 18FEF600#FFFE41FFFF2022FF
(1634254892.578405) can1 18EBFF00#05037EAC00040104
(1634254892.590885) can1 0CF00100#FFFFFFFF00FFFFFF
(1634254892.591539) can1 0CF00300#DF0000FFFFFFFFFF
(1634254892.592201) can1 0CF00400#F87D7D000000FF7D
(1634254892.592780) can1 10FE6F00#FFFF00F8FFFFFFFF
(1634254892.593328) can1 18F0000F#C07DFFFF017DFF77
(1634254892.606217) can1 0CF00400#F87D7D000000FF7D
(1634254892.606821) can1 18FEBD00#F9040000FFFFFFFF
(1634254892.607476) can1 18FEF000#FFFFFFFFFFF0CCFF
(1634254892.620989) can1 0CF00400#F87D7D000000FF7D
(1634254892.621588) can1 18FEF100#FF000050CC001FFF
(1634254892.622419) can1 0CFF1100#0000000000000000
(1634254892.636017) can1 0CF00300#DF0000FFFFFFFFFF
(1634254892.636628) can1 0CF00400#F87D7D000000FF7D
(1634254892.637233) can1 18FEF200#000000006E06FFFF
(1634254892.637847) can1 18EBFF00#06F0E37E05F0E37D
(1634254892.651053) can1 0CF00400#F87D7D000000FF7D
(1634254892.665847) can1 0CF00400#F87D7D000000FF7D
(1634254892.666829) can1 18FEC100#360DAC03FFFFFFFF
(1634254892.680927) can1 0CF00100#FFFFFFFF00FFFFFF
(1634254892.681612) can1 0CF00300#DF0000FFFFFFFFFF
(1634254892.682153) can1 0CF00400#F87D7D000000FF7D
(1634254892.682761) can1 10FE6F00#FFFF00F8FFFFFFFF
(1634254892.683423) can1 0CFF1100#0000000000000000
(1634254892.684031) can1 18F0000F#C07DFFFF017DFF77
(1634254892.696341) can1 0CF00400#F87D7D000000FF7D
(1634254892.697018) can1 18FEF000#FFFFFFFFFFF0CCFF
(1634254892.697524) can1 18EBFF00#0701F0E379650003
(1634254892.711015) can1 0CF00400#F87D7D000000FF7D
(1634254892.711616) can1 18FEF100#FF000050CC001FFF
(1634254892.726004) can1 0CF00300#DF0000FFFFFFFFFF
(1634254892.726693) can1 0CF00400#F87D7D000000FF7D
(1634254892.727245) can1 18FEF200#000000006E06FFFF
(1634254892.741098) can1 0CF00400#F87D7D000000FF7D
(1634254892.741690) can1 18FEDF00#88E015FF7DFFFFFF
(1634254892.742308) can1 0CFF1100#0000000000000000
(1634254892.756015) can1 0CF00400#F87D7D000000FF7D
(1634254892.756630) can1 18EBFF00#0821980D037EED0F
(1634254892.770979) can1 0CF00100#FFFFFFFF00FFFFFF
(1634254892.771603) can1 0CF00300#DF0000FFFFFFFFFF
(1634254892.772262) can1 0CF00400#F87D7D000000FF7D
(1634254892.772815) can1 10FE6F00#FFFF00F8FFFFFFFF
(1634254892.773438) can1 18F0000F#C07DFFFF017DFF77
(1634254892.786440) can1 0CF00400#F87D7D000000FF7D
(1634254892.786960) can1 18FEE400#007FFD0000FFFFFF
(1634254892.787573) can1 18FEF000#FFFFFFFFFFF0CCFF
(1634254892.801172) can1 0CF00400#F87D7D000000FF7D
(1634254892.801860) can1 18FEF100#FF000050CC001FFF
(1634254892.802513) can1 0CFF1100#0000000000000000
(1634254892.816120) can1 0CF00300#DF0000FFFFFFFFFF
(1634254892.816757) can1 0CF00400#F87D7D000000FF7D
(1634254892.817345) can1 18FEF200#000000006E06FFFF
(1634254892.817925) can1 18EBFF00#09037EB10C0370F6
(1634254892.831182) can1 0CF00400#F87D7D000000FF7D
(1634254892.845966) can1 0CF00400#F87D7D000000FF7D
(1634254892.861016) can1 0CF00100#FFFFFFFF00FFFFFF
(1634254892.861631) can1 0CF00300#DF0000FFFFFFFFFF
(1634254892.862238) can1 0CF00400#F87D7D000000FF7D
(1634254892.862910) can1 10FE6F00#FFFF00F8FFFFFFFF
(1634254892.863521) can1 0CFF1100#0000000000000000
(1634254892.864086) can1 18F0000F#C07DFFFF017DFF77
(1634254892.876527) can1 0CF00400#F87D7D000000FF7D
(1634254892.877130) can1 18FEF000#FFFFFFFFFFF0CCFF
(1634254892.877748) can1 18EBFF00#0A0E037EAD0C0370
(1634254892.891156) can1 0CF00400#F87D7D000000FF7D
(1634254892.891841) can1 18FEF100#FF000050CC001FFF
(1634254892.906151) can1 0CF00300#DF0000FFFFFFFFFF
(1634254892.906783) can1 0CF00400#F87D7D000000FF7D
(1634254892.907367) can1 18FEF200#000000006E06FFFF
(1634254892.921205) can1 0CF00400#F87D7D000000FF7D
(1634254892.921856) can1 0CFF1100#0000000000000000
(1634254892.936091) can1 0CF00400#F87D7D000000FF7D
(1634254892.936696) can1 18EBFF00#0BA90C0372B30C03
(1634254892.951103) can1 0CF00100#FFFFFFFF00FFFFFF
(1634254892.951709) can1 0CF00300#DF0000FFFFFFFFFF
(1634254892.952340) can1 0CF00400#F87D7D000000FF7D
(1634254892.952940) can1 10FE6F00#FFFF00F8FFFFFFFF
(1634254892.953552) can1 18F0000F#C07DFFFF017DFF77
(1634254892.966615) can1 0CF00400#F87D7D000000FF7D
(1634254892.967075) can1 18FEF000#FFFFFFFFFFF0CCFF
(1634254892.981203) can1 0CF00400#F87D7D000000FF7D
(1634254892.981848) can1 18FEDF00#88E015FF7DFFFFFF
(1634254892.982420) can1 18FEF100#FF000050CC001FFF
(1634254892.983050) can1 0CFF1100#0000000000000000
(1634254892.996329) can1 0CF00300#DF0000FFFFFFFFFF
(1634254892.996973) can1 0CF00400#F87D7D000000FF7D
(1634254892.997543) can1 18FEF200#000000006E06FFFF
(1634254892.998186) can1 18EBFF00#0C73AA0C036BFFFF
(1634254893.011323) can1 0CF00400#F87D7D000000FF7D
(1634254893.026118) can1 0CF00400#F87D7D000000FF7D
(1634254893.026746) can1 18FEEE00#41FE4025FFFFFFFF
(1634254893.041194) can1 0CF00100#FFFFFFFF00FFFFFF
(1634254893.041907) can1 0CF00300#DF0000FFFFFFFFFF
(1634254893.042424) can1 0CF00400#F87D7D000000FF7D
(1634254893.043108) can1 10FE6F00#FFFF00F8FFFFFFFF
(1634254893.043732) can1 0CFF1100#0000000000000000
(1634254893.044346) can1 18F0000F#C07DFFFF017DFF77
(1634254893.056597) can1 0CF00400#F87D7D000000FF7D
(1634254893.057247) can1 18FEF000#FFFFFFFFFFF0CCFF
(1634254893.071250) can1 0CF00400#F87D7D000000FF7D
(1634254893.071888) can1 18FEF100#FF000050CC001FFF
(1634254893.072546) can1 18FDC100#FFFEFFFFFFFFFFFF
(1634254893.073131) can1 18FD9F00#FFFFFFFFFFFF00CF
(1634254893.073687) can1 18FDAF00#1E221E22FFFFFFFF
(1634254893.074303) can1 18FDB000#1E22FFFFFFFFFFFF
(1634254893.074920) can1 18FDB100#1E22FFFFFFFFFFFF
(1634254893.075539) can1 18FDB200#1E221E22FFFEFFFF
(1634254893.076139) can1 18FDB300#2022FFFEFFFFFFFF
(1634254893.076776) can1 18FDB400#2022FFFEFFFFFFFF
(1634254893.077428) can1 18FEEF00#FFFFFFFEFFFFFFFE
(1634254893.086824) can1 0CF00300#DF0000FFFFFFFFFF
(1634254893.087433) can1 0CF00400#F87D7D000000FF7D
(1634254893.088068) can1 18FEF200#000000006E06FFFF
(1634254893.088658) can1 18FEF600#FFFE41FFFF2022FF
(1634254893.101425) can1 0CF00400#F87D7D000000FF7D
(1634254893.102056) can1 0CFF1100#0000000000000000
(1634254893.116231) can1 0CF00400#F87D7D000000FF7D
(1634254893.131192) can1 0CF00100#FFFFFFFF00FFFFFF
(1634254893.131883) can1 0CF00300#DF0000FFFFFFFFFF
(1634254893.132472) can1 0CF00400#F87D7D000000FF7D
(1634254893.133066) can1 10FE6F00#FFFF00F8FFFFFFFF
(1634254893.133633) can1 18F0000F#C07DFFFF017DFF77
(1634254893.146616) can1 0CF00400#F87D7D000000FF7D
(1634254893.147337) can1 18FEF000#FFFFFFFFFFF0CCFF
(1634254893.161322) can1 0CF00400#F87D7D000000FF7D
(1634254893.161979) can1 18FEF100#FF000050CC001FFF
(1634254893.162552) can1 0CFF1100#0000000000000000
(1634254893.176390) can1 0CF00300#DF0000FFFFFFFFFF
(1634254893.177050) can1 0CF00400#F87D7D000000FF7D
(1634254893.177612) can1 18FEF200#000000006E06FFFF
(1634254893.191411) can1 0CF00400#F87D7D000000FF7D
(1634254893.206249) can1 0CF00400#F87D7D000000FF7D
(1634254893.221281) can1 0CF00100#FFFFFFFF00FFFFFF
(1634254893.221922) can1 0CF00300#DF0000FFFFFFFFFF
(1634254893.222560) can1 0CF00400#F87D7D000000FF7D
(1634254893.223147) can1 10FE6F00#FFFF00F8FFFFFFFF
(1634254893.223746) can1 18FEDF00#88E015FF7DFFFFFF
(1634254893.224384) can1 0CFF1100#0000000000000000
(1634254893.225000) can1 18F0000F#C07DFFFF017DFF77
(1634254893.236882) can1 0CF00400#F87D7D000000FF7D
(1634254893.237537) can1 18FEF000#FFFFFFFFFFF0CCFF
(1634254893.251382) can1 0CF00400#F87D7D000000FF7D
(1634254893.251976) can1 18FEF100#FF000050CC001FFF
(1634254893.266497) can1 0CF00300#DF0000FFFFFFFFFF
(1634254893.267069) can1 0CF00400#F87D7D000000FF7D
(1634254893.267644) can1 18FEE700#FFFFFFFF00000000
(1634254893.268268) can1 18FEF200#000000006E06FFFF
(1634254893.281544) can1 0CF00400#F87D7D000000FF7D
(1634254893.282197) can1 0CFF1100#0000000000000000
(1634254893.296367) can1 0CF00400#F87D7D000000FF7D
(1634254893.311326) can1 0CF00100#FFFFFFFF00FFFFFF
(1634254893.311950) can1 0CF00300#DF0000FFFFFFFFFF
(1634254893.312754) can1 0CF00400#F87D7D000000FF7D
(1634254893.313175) can1 10FE6F00#FFFF00F8FFFFFFFF
(1634254893.313804) can1 18F0000F#C07DFFFF017DFF77
(1634254893.326740) can1 0CF00400#F87D7D000000FF7D
(1634254893.327362) can1 18FEF000#FFFFFFFFFFF0CCFF
(1634254893.341474) can1 0CF00400#F87D7D000000FF7D
(1634254893.342077) can1 18FEF100#FF000050CC001FFF
(1634254893.342698) can1 0CFF1100#0000000000000000
(1634254893.356559) can1 0CF00300#DF0000FFFFFFFFFF
(1634254893.357211) can1 0CF00400#F87D7D000000FF7D
(1634254893.357818) can1 18FEF200#000000006E06FFFF
(1634254893.358494) can1 18ECFF00#2052000CFFCAFE00
(1634254893.371636) can1 0CF00400#F87D7D000000FF7D
(1634254893.386484) can1 0CF00400#F87D7D000000FF7D
(1634254893.401409) can1 0CF00100#FFFFFFFF00FFFFFF
(1634254893.402064) can1 0CF00300#DF0000FFFFFFFFFF
(1634254893.402635) can1 0CF00400#F87D7D000000FF7D
(1634254893.403274) can1 10FE6F00#FFFF00F8FFFFFFFF
(1634254893.403876) can1 0CFF1100#0000000000000000
(1634254893.404490) can1 18F0000F#C07DFFFF017DFF77
(1634254893.416866) can1 0CF00400#F87D7D000000FF7D
(1634254893.417523) can1 18FEF000#FFFFFFFFFFF0CCFF
(1634254893.418106) can1 18EBFF00#0104FF5B0008019D
(1634254893.431552) can1 0CF00400#F87D7D000000FF7D
(1634254893.432197) can1 18FEF100#FF000050CC001FFF
(1634254893.446536) can1 0CF00300#DF0000FFFFFFFFFF
(1634254893.447145) can1 0CF00400#F87D7D000000FF7D
(1634254893.447751) can1 18FEF200#000000006E06FFFF
(1634254893.461622) can1 0CF00400#F87D7D000000FF7D
(1634254893.462228) can1 18FEDF00#88E015FF7DFFFFFF
(1634254893.462851) can1 0CFF1100#0000000000000000
(1634254893.476556) can1 0CF00400#F87D7D000000FF7D
(1634254893.477168) can1 18EBFF00#020305016F000301
(1634254893.491506) can1 0CF00100#FFFFFFFF00FFFFFF
(1634254893.492188) can1 0CF00300#DF0000FFFFFFFFFF
(1634254893.492781) can1 0CF00400#F87D7D000000FF7D
(1634254893.493354) can1 10FE6F00#FFFF00F8FFFFFFFF
(1634254893.494003) can1 18F0000F#C07DFFFF017DFF77
(1634254893.506893) can1 0CF00400#F87D7D000000FF7D
(1634254893.507514) can1 18FEF000#FFFFFFFFFFF0CCFF
(1634254893.521607) can1 0CF00400#F87D7D000000FF7D
(1634254893.522195) can1 18FEF100#FF000050CC001FFF
(1634254893.522822) can1 0CFF1100#0000000000000000
(1634254893.536669) can1 0CF00300#DF0000FFFFFFFFFF
(1634254893.537350) can1 0CF00400#F87D7D000000FF7D
(1634254893.537873) can1 18FEF200#000000006E06FFFF
(1634254893.538481) can1 18EBFF00#03700E0901AE0003
(1634254893.551739) can1 0CF00400#F87D7D000000FF7D
(1634254893.566504) can1 18E0FF00#00FFFFFFFFFBFFFF
(1634254893.567123) can1 0CF00400#F87D7D000000FF7D
(1634254893.567780) can1 18FD7C00#F8835D00C0CC03FF
(1634254893.568334) can1 18FEF700#FFFFFFFFF200FFFF
(1634254893.568971) can1 18FD9D00#64006400FFFFFFFF
(1634254893.569597) can1 18FE9700#2022FFFFFFFFFFFF
(1634254893.570179) can1 18FEF500#FEFFFFFFFFFEFFFF
(1634254893.582138) can1 0CF00100#FFFFFFFF00FFFFFF
(1634254893.582755) can1 0CF00300#DF0000FFFFFFFFFF
(1634254893.583376) can1 0CF00400#F87D7D000000FF7D
(1634254893.583971) can1 10FE6F00#FFFF00F8FFFFFFFF
(1634254893.584598) can1 18FDC100#FFFEFFFFFFFFFFFF
(1634254893.585235) can1 0CFF1100#0000000000000000
(1634254893.585851) can1 18FD9F00#FFFFFFFFFFFF00CF
(1634254893.586479) can1 18FDAF00#1E221E22FFFFFFFF
(1634254893.587072) can1 18FDB000#1E22FFFFFFFFFFFF
(1634254893.587755) can1 18FDB100#1E22FFFFFFFFFFFF
(1634254893.588350) can1 18FDB200#1E221E22FFFEFFFF
(1634254893.588900) can1 18FDB300#2022FFFEFFFFFFFF
(1634254893.589544) can1 18FDB400#2022FFFEFFFFFFFF
(1634254893.590136) can1 18FEEF00#FFFFFFFEFFFFFFFE
(1634254893.590739) can1 18F0000F#C07DFFFF017DFF77
(1634254893.597763) can1 0CF00400#F87D7D000000FF7D
(1634254893.598430) can1 18FEF000#FFFFFFFFFFF0CCFF
(1634254893.598965) can1 18FEF600#FFFE41FFFF2022FF
(1634254893.599619) can1 18EBFF00#04016400031D840B
(1634254893.611857) can1 0CF00400#F87D7D000000FF7D
(1634254893.612459) can1 18FEBD00#F9040000FFFFFFFF
(1634254893.613121) can1 18FEF100#FF000050CC001FFF
(1634254893.626727) can1 0CF00300#DF0000FFFFFFFFFF
(1634254893.627334) can1 0CF00400#F87D7D000000FF7D
(1634254893.627946) can1 18FEF200#000000006E06FFFF
(1634254893.641747) can1 0CF00400#F87D7D000000FF7D
(1634254893.642496) can1 0CFF1100#0000000000000000
(1634254893.656622) can1 0CF00400#F87D7D000000FF7D
(1634254893.657229) can1 18EBFF00#05037EAC00040104
(1634254893.671655) can1 0CF00100#FFFFFFFF00FFFFFF
(1634254893.672291) can1 0CF00300#DF0000FFFFFFFFFF
(1634254893.672870) can1 0CF00400#F87D7D000000FF7D
(1634254893.673485) can1 10FE6F00#FFFF00F8FFFFFFFF
(1634254893.674099) can1 18FEC100#360DAC03FFFFFFFF
(1634254893.674763) can1 18F0000F#C07DFFFF017DFF77
(1634254893.687079) can1 0CF00400#F87D7D000000FF7D
(1634254893.687685) can1 18FEF000#FFFFFFFFFFF0CCFF
(1634254893.701743) can1 0CF00400#F87D7D000000FF7D
(1634254893.702417) can1 18FEDF00#88E015FF7DFFFFFF
(1634254893.702942) can1 18FEF100#FF000050CC001FFF
(1634254893.703612) can1 0CFF1100#0000000000000000
(1634254893.716868) can1 0CF00300#DF0000FFFFFFFFFF
(1634254893.717503) can1 0CF00400#F87D7D000000FF7D
(1634254893.718147) can1 18FEF200#000000006E06FFFF
(1634254893.718794) can1 18EBFF00#06F0E37E05F0E37D
(1634254893.731859) can1 0CF00400#F87D7D000000FF7D
(1634254893.746652) can1 0CF00400#F87D7D000000FF7D
(1634254893.761688) can1 0CF00100#FFFFFFFF00FFFFFF
(1634254893.762459) can1 0CF00300#DF0000FFFFFFFFFF
(1634254893.762916) can1 0CF00400#F87D7D000000FF7D
(1634254893.763536) can1 10FE6F00#FFFF00F8FFFFFFFF
(1634254893.764155) can1 0CFF1100#0000000000000000
(1634254893.764765) can1 18F0000F#C07DFFFF017DFF77
(1634254893.777149) can1 0CF00400#F87D7D000000FF7D
(1634254893.777787) can1 18FEF000#FFFFFFFFFFF0CCFF
(1634254893.778403) can1 18EBFF00#0701F0E379650003
