 (000.000000)  can1  18F11031   [8]  00 00 FF FF FF FF FF FF
 (001.000041)  can1  18F11031   [8]  00 00 FF FF FF FF FF FF
 (002.000040)  can1  18F11031   [8]  00 00 FF FF FF FF FF FF
 (003.000079)  can1  18F11031   [8]  00 00 FF FF FF FF FF FF
 (004.000081)  can1  18F11031   [8]  00 00 FF FF FF FF FF FF
 (005.000148)  can1  18F11031   [8]  00 00 FF FF FF FF FF FF
 (006.000122)  can1  18F11031   [8]  00 00 FF FF FF FF FF FF
 (007.000158)  can1  18F11031   [8]  00 00 FF FF FF FF FF FF
 (008.000195)  can1  18F11031   [8]  00 00 FF FF FF FF FF FF
 (009.000197)  can1  18F11031   [8]  00 00 FF FF FF FF FF FF
 (010.000228)  can1  18F11031   [8]  00 00 FF FF FF FF FF FF
 (011.000237)  can1  18F11031   [8]  00 00 FF FF FF FF FF FF
 (011.599240)  can1  18F00131   [8]  FF FF FF 3F 00 FF FF FF
 (011.599801)  can1  18FEF131   [8]  F7 FF FF C3 CC FF FF F0
 (011.600433)  can1  18FEF031   [8]  FF FF FF FF FF FC CC FF
 (011.600963)  can1  18FEFC31   [8]  FF 32 FF FF FF FF 00 FF
 (011.601563)  can1  18FEAE31   [8]  FF FF 04 01 FF FF FF FF
 (011.602162)  can1  18FEF731   [8]  FF FF FF FF EF 00 FF FF
 (011.602762)  can1  18FF4831   [8]  00 00 FF FF 00 00 00 00
 (011.603362)  can1  18FD8331   [8]  F8 FF FF FF FF FF FF FF
 (011.603962)  can1  18FEF831   [8]  FF FF FF FF FF FF FF FF
 (011.604562)  can1  18FEF231   [8]  FF FF FF FF FF FF FF FF
 (011.605153)  can1  18FEFA31   [8]  FF 08 02 FF FF FF FF FF
 (011.605722)  can1  18FEC131   [8]  5F F2 10 05 FF FF FF FF
 (011.606322)  can1  0CF00331   [8]  FF FF FF FF FF FF FF FF
 (011.649202)  can1  0CF00331   [8]  FF FF FF FF FF FF FF FF
 (011.653083)  can1  18EEFF03   [8]  64 00 40 00 00 03 03 10
 (011.672843)  can1  18FECA03   [8]  00 FF 00 00 00 00 FF FF
 (011.699227)  can1  18F00131   [8]  FF FF FF 3F 00 FF FF FF
 (011.699828)  can1  18FEF131   [8]  F7 FF FF C3 CC FF FF F0
 (011.700389)  can1  18FEF031   [8]  FF FF FF FF FF FC CC FF
 (011.700994)  can1  18FF4831   [8]  00 00 FF FF 00 00 00 00
 (011.701592)  can1  18FEF231   [8]  FF FF FF FF FF FF FF FF
 (011.702193)  can1  0CF00331   [8]  FF FF FF FF FF FF FF FF
 (011.742843)  can1  18FE4A03   [8]  03 4F 4F FF FF F3 FF FF
 (011.749203)  can1  0CF00331   [8]  FF FF FF FF FF FF FF FF
 (011.761555)  can1  18F0010B   [8]  CF FF F0 FF FF DC FF FF
 (011.771563)  can1  18FEBF0B   [8]  00 00 7D 7D 7D 7D FF FF
 (011.775473)  can1  18EAFFFE   [3]  00 EE 00
 (011.781592)  can1  18FECA0B   [8]  04 FF 00 00 00 00 FF FF
 (011.799232)  can1  18F00131   [8]  FF FF FF 3F 00 FF FF FF
 (011.799801)  can1  18FEF131   [8]  F7 FF FF C3 CC FF FF F0
 (011.800398)  can1  18FEF031   [8]  FF FF FF FF FF FC CC FF
 (011.801002)  can1  18FF4831   [8]  00 00 FF FF 00 00 00 00
 (011.801603)  can1  18FEF231   [8]  FF FF FF FF FF FF FF FF
 (011.802193)  can1  0CF00331   [8]  FF FF FF FF FF FF FF FF
 (011.822872)  can1  18EEFF03   [8]  64 00 40 00 00 03 03 10
 (011.840437)  can1  18EAFF00   [3]  EB FE 00
 (011.842907)  can1  18FE4A03   [8]  03 5F 4F FF FF F3 FF FF
 (011.849202)  can1  0CF00331   [8]  FF FF FF FF FF FF FF FF
 (011.852511)  can1  18EEFF00   [8]  F4 B8 4E 01 00 00 00 00
 (011.853073)  can1  18EEFF29   [8]  F4 B8 4E 01 00 0C 00 00
 (011.861682)  can1  18F0010B   [8]  CF FF F0 FF FF DC FF FF
 (011.871828)  can1  18FEBF0B   [8]  00 00 7D 7D 7D 7D FF FF
 (011.877482)  can1  18FEDF00   [8]  7D A0 28 7D 7D FF FF FC
 (011.879632)  can1  1CECFF31   [8]  20 17 00 04 FF EB FE 00
 (011.888282)  can1  0CF00400   [8]  0E 7D 7D 00 00 FE 00 7D
 (011.897471)  can1  18FEDF00   [8]  7D A0 28 7D 7D FF FF FC
 (011.899231)  can1  18F00131   [8]  FF FF FF 3F 00 FF FF FF
 (011.899801)  can1  18FEF131   [8]  F7 FF FF C3 CC FF FF F0
 (011.900398)  can1  18FEF031   [8]  FF FF FF FF FF FC CC FF
 (011.901002)  can1  18FF4831   [8]  00 00 FF FF 00 00 00 00
 (011.901601)  can1  18FEF231   [8]  FF FF FF FF FF FF FF FF
 (011.902192)  can1  0CF00331   [8]  FF FF FF FF FF FF FF FF
 (011.902761)  can1  0CF00300   [8]  C1 00 00 FF FF 0F 00 7D
 (011.908349)  can1  0CF00400   [8]  0E 7D 7D 00 00 FE 00 7D
 (011.911882)  can1  1CECFF0B   [8]  20 1B 00 04 FF EB FE 00
 (011.917482)  can1  18FEDF00   [8]  7D A0 28 7D 7D FF FF F0
 (011.922108)  can1  0CF00300   [8]  C1 00 00 FF FF 0F 72 7D
 (011.922924)  can1  0C000003   [8]  E7 FF FA 89 FF F5 FF FF
 (011.923562)  can1  0CF00203   [8]  C0 00 00 FF F7 00 00 03
 (011.924162)  can1  0CF00C03   [8]  00 FB 00 00 FF FF FF FF
 (011.928394)  can1  0CF00400   [8]  0E 7D 7D 00 00 00 00 7D
 (011.929481)  can1  1CEBFF31   [8]  01 50 41 43 43 52 2A 43
 (011.932872)  can1  0C000003   [8]  E7 FF FA 8A FF F4 FF FF
 (011.933483)  can1  0CF00203   [8]  C0 00 00 FF F7 00 00 03
 (011.934083)  can1  18ECFF03   [8]  20 16 00 04 FF EB FE 00
 (011.937602)  can1  18FEDF00   [8]  7D A0 28 7D 7D FF FF F0
 (011.942082)  can1  0CF00300   [8]  C1 00 00 FF FF 0F 72 7D
 (011.942951)  can1  0C000003   [8]  E7 FF FA 8A FF F4 FF FF
 (011.943562)  can1  0CF00203   [8]  C0 00 00 FF F7 00 00 03
 (011.944193)  can1  0CF00C03   [8]  00 FB 00 00 FF FF FF FF
 (011.945111)  can1  18F00503   [8]  7D 00 00 7D 4E 20 4E 43
 (011.945721)  can1  18FE4A03   [8]  03 5F 4F FF FF F3 FF FF
 (011.946122)  can1  18EAFF03   [3]  E3 FE 00
 (011.946961)  can1  18FCE700   [8]  7D 7D 7D 7D 7D 7D 7D FF
 (011.947551)  can1  1CECFF00   [8]  20 22 00 05 FF E3 FE 00
 (011.948121)  can1  18F03300   [8]  FF FF FF FF FF FF FF FF
 (011.948712)  can1  0CF00400   [8]  0E 7D 7D 00 00 03 00 7D
 (011.949282)  can1  0CF00331   [8]  FF FF FF FF FF FF FF FF
 (011.949881)  can1  18FECA31   [8]  00 FF 00 00 00 00 FF FF
 (011.952873)  can1  0C000003   [8]  E7 FF FA 8B FF F4 FF FF
 (011.953483)  can1  0CF00203   [8]  C0 20 00 FF F7 00 00 03
 (011.957523)  can1  18FEDF00   [8]  7D A0 28 7D 7D FF FF F0
 (011.961922)  can1  18F0010B   [8]  CF FF F0 FF FF DC FF FF
 (011.962481)  can1  0CF00300   [8]  C1 00 00 FF FF 0F 72 7D
 (011.963072)  can1  0C000003   [8]  E7 FF FA 8B FF F4 FF FF
 (011.963682)  can1  0CF00203   [8]  C0 20 00 FF F7 00 00 03
 (011.964351)  can1  0CF00C03   [8]  00 FB 00 00 FF FF FF FF
 (011.967162)  can1  18FEEE00   [8]  37 FF FF FF FF FF FF FF
 (011.968402)  can1  0CF00400   [8]  0E 7D 7D 00 00 03 00 7D
 (011.971962)  can1  18FEBF0B   [8]  00 00 7D 7D 7D 7D FF FF
 (011.972843)  can1  0C000003   [8]  E7 FF FA 8B FF F3 FF FF
 (011.973482)  can1  0CF00203   [8]  C0 27 00 FF F7 00 00 03
 (011.977589)  can1  18FEDF00   [8]  7D A0 28 7D 7D FF FF F0
 (011.979593)  can1  1CEBFF31   [8]  02 45 43 55 33 2D 4E 41
 (011.982163)  can1  0CF00300   [8]  C1 00 00 FF FF 0F 72 7D
 (011.982922)  can1  0C000003   [8]  E7 FF FA 8B FF F3 FF FF
 (011.983553)  can1  0CF00203   [8]  C0 27 00 FF F7 00 00 03
 (011.984161)  can1  0CF00C03   [8]  00 FB 00 00 FF FF FF FF
 (011.985042)  can1  18EBFF03   [8]  01 41 4C 4C 53 4E 2A 32
 (011.988403)  can1  0CF00400   [8]  0E 7D 7D 00 00 03 00 7D
 (011.992082)  can1  0CF00A00   [8]  00 00 00 00 FF FF FF FF
 (011.992841)  can1  0C000003   [8]  E7 FF FA 8C FF F2 FF FF
 (011.993482)  can1  0CF00203   [8]  C0 28 00 FF F7 00 00 03
 (011.997521)  can1  18F03300   [8]  FF FF FF FF FF FF FF FF
 (011.998082)  can1  18FEDF00   [8]  7D A0 28 7D 7D FF FF F0
 (011.999232)  can1  18F00131   [8]  FF FF FF 3F 00 FF FF FF
 (011.999801)  can1  1CEBFF00   [8]  01 00 00 7D 00 00 7D 00
 (012.000393)  can1  18FEF131   [8]  F7 FF FF C3 CC FF FF F0
 (012.000962)  can1  18FEF031   [8]  FF FF FF FF FF FC CC FF
 (012.001562)  can1  18F11031   [8]  00 00 FF FF FF FF FF FF
 (012.002162)  can1  18FF4831   [8]  00 00 FF FF 00 00 00 00
 (012.002752)  can1  0CF00300   [8]  C1 00 00 FF FF 0F 72 7D
 (012.003322)  can1  0C000003   [8]  E7 FF FA 8C FF F2 FF FF
 (012.003882)  can1  18FEF231   [8]  FF FF FF FF FF FF FF FF
 (012.004471)  can1  0CF00203   [8]  C0 28 00 FF F7 00 00 03
 (012.005041)  can1  0CF00331   [8]  FF FF FF FF FF FF FF FF
 (012.005628)  can1  0CF00C03   [8]  00 FB 00 00 FF FF FF FF
 (012.008434)  can1  0CF00400   [8]  0E 7D 7D 00 00 03 00 7D
 (012.011961)  can1  1CEBFF0B   [8]  01 42 4E 44 57 53 2A 45
 (012.012601)  can1  0C010305   [8]  FF FF FF FF FF F3 FF FF
 (012.013162)  can1  0C000003   [8]  E7 FF FA 8D FF F1 FF FF
 (012.013802)  can1  0CF00203   [8]  C0 29 00 FF F7 00 00 03
 (012.017552)  can1  18FEDF00   [8]  7D A0 28 7D 7D FF FF F0
 (012.022123)  can1  0CF00300   [8]  C1 00 00 FF FF 0F 72 7D
 (012.022922)  can1  0C000003   [8]  E7 FF FA 8D FF F1 FF FF
 (012.023562)  can1  0CF00203   [8]  C0 29 00 FF F7 00 00 03
 (012.024162)  can1  0CF00C03   [8]  00 FB 00 00 FF FF FF FF
 (012.028353)  can1  0CF00400   [8]  0E 7D 7D 00 00 03 00 7D
 (012.029521)  can1  1CEBFF31   [8]  03 4D 55 58 32 2A 20 2A
 (012.032871)  can1  0C000003   [8]  E7 FF FA 8E FF F1 FF FF
 (012.033482)  can1  0CF00203   [8]  C0 29 00 FF F7 00 00 03
 (012.034081)  can1  18EBFF03   [8]  02 31 30 30 2D 32 32 30
 (012.037602)  can1  18FEDF00   [8]  7D A0 28 7D 7D FF FF F0
 (012.042083)  can1  0CF00300   [8]  C1 00 00 FF FF 0F 72 7D
 (012.042682)  can1  0CF00A00   [8]  00 00 00 00 FF FF FF FF
 (012.043273)  can1  0C000003   [8]  E7 FF FA 8E FF F1 FF FF
 (012.043841)  can1  18F00E00   [8]  FF FF FF FF FF FF FF FF
 (012.044431)  can1  0CF00203   [8]  C0 29 00 FF F7 00 00 03
 (012.045042)  can1  0CF00C03   [8]  00 FB 00 00 FF FF FF FF
 (012.045642)  can1  18F00503   [8]  7D 00 00 7D 4E 20 4E 43
 (012.046271)  can1  18FE4A03   [8]  03 5F 4F FF FF F3 FF FF
 (012.047153)  can1  18F03300   [8]  FF FF FF FF FF FF FF FF
 (012.048402)  can1  0CF00400   [8]  0E 7D 7D 00 00 03 00 7D
 (012.049233)  can1  0CF00331   [8]  FF FF FF FF FF FF FF FF
 (012.052642)  can1  1CEBFF00   [8]  02 00 7D 00 00 7D 00 00
 (012.053234)  can1  0C000003   [8]  E7 FF FA 8F FF F0 FF FF
 (012.053842)  can1  0CF00203   [8]  C0 29 00 FF F7 00 00 03
 (012.057522)  can1  18FEDF00   [8]  7D A0 28 7D 7D FF FF F0
 (012.058122)  can1  18F00F00   [8]  FF FF FF FF FF FF FF FF
 (012.062042)  can1  18F0010B   [8]  CF FF F0 FF FF DC FF FF
 (012.062642)  can1  0C010305   [8]  FF FF FF FF FF F3 FF FF
 (012.063201)  can1  0C000003   [8]  E7 FF FA 8F FF F0 FF FF
 (012.063792)  can1  0CF00300   [8]  C1 00 00 FF FF 0F 72 7D
 (012.064361)  can1  0CF00203   [8]  C0 29 00 FF F7 00 00 03
 (012.065122)  can1  0CF00C03   [8]  00 FB 00 00 FF FF FF FF
 (012.068402)  can1  0CF00400   [8]  0E 7D 7D 00 00 03 0F 7D
 (012.072082)  can1  18FEBF0B   [8]  00 00 7D 7D 7D 7D FF FF
 (012.072872)  can1  0C000003   [8]  E7 FF FA 90 FF F7 FF FF
 (012.073482)  can1  0CF00203   [8]  C0 29 00 FF F7 00 00 03
 (012.077562)  can1  18FEDF00   [8]  7D A0 28 7D 7D FF FF F0
 (012.079631)  can1  1CEBFF31   [8]  04 20 2A FF FF FF FF FF
 (012.082152)  can1  18FCDC00   [8]  9F FF FF FF 9C 68 1C 00
 (012.082721)  can1  0CF00300   [8]  C1 00 00 FF FF 0F 72 7D
 (012.083282)  can1  0C000003   [8]  E7 FF FA 90 FF F7 FF FF
 (012.083922)  can1  0CF00203   [8]  C0 29 00 FF F7 00 00 03
 (012.084522)  can1  0CF00C03   [8]  00 FB 00 00 FF FF FF FF
 (012.085122)  can1  18EBFF03   [8]  03 30 20 52 44 53 2A 2A
 (012.088402)  can1  0CF00400   [8]  0E 7D 7D 00 00 03 0F 7D
 (012.092082)  can1  0CF00A00   [8]  00 00 00 00 FF FF FF FF
 (012.092682)  can1  18F00E00   [8]  FF FF FF FF FF FF FF FF
 (012.093242)  can1  0C000003   [8]  E7 FF FA 91 FF F6 FF FF
 (012.093882)  can1  0CF00203   [8]  C0 29 00 FF F7 00 00 03
 (012.097601)  can1  18F03300   [8]  FF FF FF FF FF FF FF FF
 (012.098161)  can1  18FEDF00   [8]  7D A0 28 7D 7D FF FF F0
 (012.099232)  can1  18F00131   [8]  FF FF FF 3F 00 FF FF FF
 (012.099801)  can1  18FEF131   [8]  F7 FF FF C3 CC FF FF F0
 (012.100399)  can1  18FEF031   [8]  FF FF FF FF FF FC CC FF
 (012.101002)  can1  18FF4831   [8]  00 00 FF FF 00 00 00 00
 (012.101601)  can1  18FEF231   [8]  FF FF FF FF FF FF FF FF
 (012.102192)  can1  0CF00331   [8]  FF FF FF FF FF FF FF FF
 (012.102753)  can1  18FEE000   [8]  73 49 03 00 BC E0 33 00
 (012.103321)  can1  0C000003   [8]  E7 FF FA 91 FF F6 FF FF
 (012.103881)  can1  0CF00300   [8]  C1 00 00 FF FF 0F 65 7D
 (012.104472)  can1  0CF00203   [8]  C0 29 00 FF F7 00 00 03
 (012.105153)  can1  0CF00C03   [8]  00 FB 00 00 FF FF FF FF
 (012.107201)  can1  18F00F00   [8]  FF FF FF FF FF FF FF FF
 (012.108442)  can1  0CF00400   [8]  0E 7D 7D 00 00 03 0F 7D
 (012.109032)  can1  1CEBFF00   [8]  03 7D FF FF FF FF 55 04
 (012.112112)  can1  1CEBFF0B   [8]  02 43 36 30 2D 73 74 61
 (012.112680)  can1  0C010305   [8]  FF FF FF FF FF F3 FF FF
 (012.113273)  can1  0C000003   [8]  E7 FF FA 92 FF F5 FF FF
 (012.113883)  can1  0CF00203   [8]  C0 29 00 FF F7 00 00 03
 (012.117562)  can1  18FEDF00   [8]  7D A0 28 7D 7D FF FF F0
 (012.122122)  can1  0CF00300   [8]  C1 00 00 FF FF 0F 6A 7D
 (012.122922)  can1  0C000003   [8]  E7 FF FA 92 FF F5 FF FF
 (012.123562)  can1  0CF00203   [8]  C0 29 00 FF F7 00 00 03
 (012.124163)  can1  0CF00C03   [8]  00 FB 00 00 FF FF FF FF
 (012.128362)  can1  0CF00400   [8]  0E 7D 7D 00 00 03 0F 7D
 (012.132872)  can1  0C000003   [8]  E7 FF FA 93 FF F5 FF FF
 (012.133512)  can1  0CF00203   [8]  C0 29 00 FF F7 00 00 03
 (012.134121)  can1  18EBFF03   [8]  04 2A FF FF FF FF FF FF
 (012.137632)  can1  18FEDF00   [8]  7D A0 28 7D 7D FF FF F0
 (012.142122)  can1  0CF00300   [8]  C1 00 00 FF FF 0F 6A 7D
 (012.142713)  can1  0CF00A00   [8]  00 00 00 00 FF FF FF FF
 (012.143282)  can1  0C000003   [8]  E7 FF FA 93 FF F5 FF FF
 (012.143881)  can1  18F00E00   [8]  FF FF FF FF FF FF FF FF
 (012.144441)  can1  0CF00203   [8]  C0 29 00 FF F7 00 00 03
 (012.145071)  can1  0CF00C03   [8]  00 FB 00 00 FF FF FF FF
 (012.145672)  can1  18F00503   [8]  7D 00 00 7D 4E 20 4E 43
 (012.146281)  can1  18FE4A03   [8]  03 5F 4F FF FF F3 FF FF
 (012.147161)  can1  18F03300   [8]  FF FF FF FF FF FF FF FF
 (012.148431)  can1  0CF00400   [8]  0E 7D 7D 00 00 03 0F 7D
 (012.149241)  can1  0CF00331   [8]  FF FF FF FF FF FF FF FF
 (012.152873)  can1  0C000003   [8]  E7 FF FA 94 FF F4 FF FF
 (012.153483)  can1  0CF00203   [8]  C0 29 00 FF F7 00 00 03
 (012.157522)  can1  18FEDF00   [8]  7D A0 28 7D 7D FF FF F0
 (012.158121)  can1  18F00F00   [8]  FF FF FF FF FF FF FF FF
 (012.162152)  can1  0CF00300   [8]  C1 00 00 FF FF 0F 6A 7D
 (012.162720)  can1  0C010305   [8]  FF FF FF FF FF F3 FF FF
 (012.163283)  can1  0C000003   [8]  E7 FF FA 94 FF F4 FF FF
 (012.163872)  can1  18F0010B   [8]  CF FF F0 FF FF DC FF FF
 (012.164442)  can1  0CF00203   [8]  C0 29 00 FF F7 00 00 03
 (012.164992)  can1  1CEBFF00   [8]  04 38 5E 14 46 FF 7D 7D
 (012.165561)  can1  0CF00C03   [8]  00 FB 00 00 FF FF FF FF
 (012.168427)  can1  0CF00400   [8]  0E 7D 7D 00 00 03 0F 7D
 (012.172082)  can1  10FDA300   [8]  FF FF B1 FF FF FF FF FF
 (012.172682)  can1  18FEBF0B   [8]  00 00 7D 7D 7D 7D FF FF
 (012.173242)  can1  0C000003   [8]  E7 FF FA 94 FF F3 FF FF
 (012.173881)  can1  0CF00203   [8]  C0 29 00 FF F7 00 00 03
 (012.177631)  can1  18FEDF00   [8]  7D A0 28 7D 7D FF FF F0
 (012.182151)  can1  18FCDC00   [8]  9F FF FF FF 9C 68 28 00
 (012.182719)  can1  0CF00300   [8]  C1 00 00 FF FF 0F 6A 7D
 (012.183282)  can1  0C000003   [8]  E7 FF FA 94 FF F3 FF FF
 (012.183921)  can1  0CF00203   [8]  C0 29 00 FF F7 00 00 03
 (012.184521)  can1  0CF00C03   [8]  00 FB 00 00 FF FF FF FF
 (012.188402)  can1  0CF00400   [8]  0E 7D 7D 00 00 03 0F 7D
 (012.192082)  can1  0CF00A00   [8]  00 00 00 00 FF FF FF FF
 (012.192679)  can1  18FD9400   [8]  00 00 FF FF FF FF FF FF
 (012.193243)  can1  0C000003   [8]  E7 FF FA 95 FF F2 FF FF
 (012.193841)  can1  18F00E00   [8]  FF FF FF FF FF FF FF FF
 (012.194403)  can1  0CF00203   [8]  C0 29 00 FF F7 00 00 03
 (012.197632)  can1  18F03300   [8]  FF FF FF FF FF FF FF FF
 (012.198161)  can1  18FEDF00   [8]  7D A0 28 7D 7D FF FF F0
 (012.199240)  can1  18F00131   [8]  FF FF FF 3F 00 FF FF FF
 (012.199801)  can1  18FEF131   [8]  F7 FF FF C3 CC FF FF F0
 (012.200399)  can1  18FEF031   [8]  FF FF FF FF FF FC CC FF
 (012.201002)  can1  18FF4831   [8]  00 00 FF FF 00 00 00 00
 (012.201601)  can1  18FEF231   [8]  FF FF FF FF FF FF FF FF
 (012.202201)  can1  0CF00331   [8]  FF FF FF FF FF FF FF FF
 (012.202762)  can1  18FEE000   [8]  73 49 03 00 BC E0 33 00
 (012.203321)  can1  0C000003   [8]  E7 FF FA 95 FF F2 FF FF
 (012.203911)  can1  0CF00300   [8]  C1 00 00 FF FF 0F 6A 7D
 (012.204472)  can1  0CF00203   [8]  C0 29 00 FF F7 00 00 03
 (012.205081)  can1  0CF00C03   [8]  00 FB 00 00 FF FF FF FF
 (012.207232)  can1  18F00F00   [8]  FF FF FF FF FF FF FF FF
 (012.208471)  can1  0CF00400   [8]  0E 7D 7D 00 00 03 0F 7D
 (012.212282)  can1  1CEBFF0B   [8]  03 2A 4E 31 36 31 33 30
 (012.212871)  can1  0C010305   [8]  FF FF FF FF FF F3 FF FF
 (012.213442)  can1  0C000003   [8]  E7 FF FA 96 FF F1 FF FF
 (012.214072)  can1  0CF00203   [8]  C0 08 00 FF F7 00 00 03
 (012.217561)  can1  18FEDF00   [8]  7D A0 28 7D 7D FF FF F0
 (012.218161)  can1  10FCFD00   [8]  FF FF FF FF 59 51 FF FF
 (012.219560)  can1  1CEBFF00   [8]  05 FF FF 86 00 F7 02 FF
 (012.222122)  can1  0CF00300   [8]  C1 00 00 FF FF 0F 6A 7D
 (012.222922)  can1  0C000003   [8]  E7 FF FA 96 FF F1 FF FF
 (012.223562)  can1  0CF00203   [8]  C0 08 00 FF F7 00 00 03
 (012.224162)  can1  0CF00C03   [8]  00 FB 00 00 FF FF FF FF
 (012.227123)  can1  18FD7C00   [8]  F8 83 01 00 C3 1F 03 FF
 (012.228433)  can1  0CF00400   [8]  0E 7D 7D 00 00 03 0F 7D
 (012.232843)  can1  0C000003   [8]  E4 FF FA 97 FF F1 FF FF
 (012.233481)  can1  0CF00203   [8]  C0 00 00 FF F7 00 00 03
 (012.237601)  can1  18FEDF00   [8]  7D A0 28 7D 7D FF FF F0
 (012.242122)  can1  0CF00300   [8]  C1 00 00 FF FF 0F 6A 7D
 (012.242722)  can1  0CF00A00   [8]  00 00 00 00 FF FF FF FF
 (012.243281)  can1  0CF00203   [8]  C0 00 00 FF F7 00 00 03
 (012.243881)  can1  18FEF000   [8]  FF FF FF E0 15 FF FF FF
 (012.244441)  can1  0CF00C03   [8]  00 FB 00 00 FF FF FF FF
 (012.245041)  can1  18F00E00   [8]  FF FF FF FF FF FF FF FF
 (012.245601)  can1  18F00503   [8]  7D 00 00 7D 4E 20 4E 43
 (012.246249)  can1  18FE4A03   [8]  03 5F 4F FF FF F3 FF FF
 (012.247173)  can1  18F03300   [8]  FF FF FF FF FF FF FF FF
 (012.248421)  can1  0CF00400   [8]  0E 7D 7D 00 00 00 0F 7D
 (012.249222)  can1  0CF00331   [8]  FF FF FF FF FF FF FF FF
 (012.252875)  can1  0CF00203   [8]  C0 00 00 FF F7 00 00 03
 (012.257513)  can1  18FEDF00   [8]  7D A0 28 7D 7D FF FF F0
 (012.258111)  can1  18F00F00   [8]  FF FF FF FF FF FF FF FF
 (012.262162)  can1  0CF00300   [8]  C1 00 00 FF FF 0F 6A 7D
 (012.262722)  can1  0C010305   [8]  FF FF FF FF FF F3 FF FF
 (012.263313)  can1  0CF00203   [8]  C0 00 00 FF F7 00 00 03
 (012.263881)  can1  18F0010B   [8]  CF FF F0 FF FF DC FF FF
 (012.264442)  can1  0CF00C03   [8]  00 FB 00 00 FF FF FF FF
 (012.265003)  can1  18FEF100   [8]  FF 1C 00 FC FF 68 00 CF
 (012.268402)  can1  0CF00400   [8]  0E 7D 7D 00 00 00 0F 7D
 (012.272111)  can1  10FDA300   [8]  FF FF 9C FF FF FF FF FF
 (012.272682)  can1  18FEBF0B   [8]  00 00 7D 7D 7D 7D FF FF
 (012.273241)  can1  0CF00203   [8]  C0 00 00 FF F7 00 00 03
 (012.277522)  can1  18FEDF00   [8]  7D A0 28 7D 7D FF FF F0
 (012.282122)  can1  18FCDC00   [8]  9F FF FF FF 9C 68 1C 00
 (012.282713)  can1  0CF00300   [8]  C1 00 00 FF FF 0F 6A 7D
 (012.283282)  can1  0CF00203   [8]  C0 00 00 FF F7 00 00 03
 (012.283873)  can1  1CFE9200   [8]  FF 4C 7D FF FF FF 00 00
 (012.284441)  can1  0CF00C03   [8]  00 FB 00 00 FF FF FF FF
 (012.288393)  can1  0CF00400   [8]  0E 7D 7D 00 00 00 0F 7D
 (012.292082)  can1  0CF00A00   [8]  00 00 00 00 FF FF FF FF
 (012.292682)  can1  18FD9400   [8]  00 00 FF FF FF FF FF FF
 (012.293243)  can1  0CF00203   [8]  C0 00 00 FF F7 00 00 03
 (012.293841)  can1  18F00E00   [8]  FF FF FF FF FF FF FF FF
 (012.297521)  can1  18F03300   [8]  FF FF FF FF FF FF FF FF
 (012.298081)  can1  18FEDF00   [8]  7D A0 28 7D 7D FF FF F0
 (012.299240)  can1  18F00131   [8]  FF FF FF 3F 00 FF FF FF
 (012.299799)  can1  18FEF131   [8]  F7 FF FF C3 CC FF FF F0
 (012.300399)  can1  18FEF031   [8]  FF FF FF FF FF FC CC FF
 (012.301002)  can1  18FF4831   [8]  00 00 FF FF 00 00 00 00
 (012.301601)  can1  18FEF231   [8]  FF FF FF FF FF FF FF FF
 (012.302198)  can1  0CF00331   [8]  FF FF FF FF FF FF FF FF
 (012.302761)  can1  18FEE000   [8]  73 49 03 00 BC E0 33 00
 (012.303321)  can1  0CF00203   [8]  C0 00 00 FF F7 00 00 03
 (012.303911)  can1  0CF00300   [8]  C1 00 00 FF FF 0F 6A 7D
 (012.304482)  can1  0CF00C03   [8]  00 FB 00 00 FF FF FF FF
 (012.307159)  can1  18FEF200   [8]  00 00 FF 7F AA 08 E1 FF
 (012.307751)  can1  18F00F00   [8]  FF FF FF FF FF FF FF FF
 (012.308442)  can1  0CF00400   [8]  0E 7D 7D 00 00 00 0F 7D
 (012.312442)  can1  1CEBFF0B   [8]  04 30 39 33 39 2A 2A FF
 (012.313002)  can1  0C010305   [8]  FF FF FF FF FF F3 FF FF
 (012.313592)  can1  0CF00203   [8]  C0 00 00 FF F7 00 00 03
 (012.317553)  can1  18FEDF00   [8]  7D A0 28 7D 7D FF FF F0
 (012.318123)  can1  10FCFD00   [8]  FF FF FF FF 59 51 FF FF
 (012.322152)  can1  0CF00300   [8]  C1 00 00 FF FF 0F 6A 7D
 (012.322922)  can1  0CF00203   [8]  C0 00 00 FF F7 00 00 03
 (012.323551)  can1  0CF00C03   [8]  00 FB 00 00 FF FF FF FF
 (012.327153)  can1  18F00100   [8]  FF FF FF FF FF FF FF FF
 (012.328392)  can1  0CF00400   [8]  0E 7D 7D 00 00 00 0F 7D
 (012.332843)  can1  0CF00203   [8]  C0 00 00 FF F7 00 00 03
 (012.337561)  can1  18FEDF00   [8]  7D A0 28 7D 7D FF FF F0
 (012.342152)  can1  0CF00300   [8]  C1 00 00 FF FF 0F 6A 7D
 (012.342722)  can1  0CF00A00   [8]  00 00 00 00 FF FF FF FF
 (012.343313)  can1  0CF00203   [8]  C0 00 00 FF F7 00 00 03
 (012.343881)  can1  18FEF000   [8]  FF FF FF E0 15 FF FF FF
 (012.344481)  can1  0CF00C03   [8]  00 FB 00 00 FF FF FF FF
 (012.345072)  can1  18F00E00   [8]  FF FF FF FF FF FF FF FF
 (012.345631)  can1  18F00503   [8]  7D 00 00 7D 4E 20 4E 43
 (012.346241)  can1  18FE4A03   [8]  03 5F 4F FF FF F3 FF FF
 (012.347158)  can1  18F03300   [8]  FF FF FF FF FF FF FF FF
 (012.348441)  can1  0CF00400   [8]  0E 7D 7D 00 00 00 0F 7D
 (012.349241)  can1  0CF00331   [8]  FF FF FF FF FF FF FF FF
 (012.352152)  can1  18FCF200   [8]  E1 FF FF FF FF FF FF FF
 (012.352872)  can1  0CF00203   [8]  C0 00 00 FF F7 00 00 03
 (012.357521)  can1  18FEDF00   [8]  7D A0 28 7D 7D FF FF F0
 (012.358121)  can1  18F00F00   [8]  FF FF FF FF FF FF FF FF
 (012.362161)  can1  0CF00300   [8]  C1 00 00 FF FF 0F 6A 7D
 (012.362753)  can1  0C010305   [8]  FF FF FF FF FF F3 FF FF
 (012.363321)  can1  0CF00203   [8]  C0 00 00 FF F7 00 00 03
 (012.363881)  can1  18F0010B   [8]  CF FF F0 FF FF DC FF FF
 (012.364472)  can1  0CF00C03   [8]  00 FB 00 00 FF FF FF FF
 (012.365041)  can1  18FEF100   [8]  FF 08 00 FC FF 68 00 CF
 (012.368401)  can1  0CF00400   [8]  0E 7D 7D 00 00 00 0F 7D
 (012.372121)  can1  10FDA300   [8]  FF FF 91 FF FF FF FF FF
 (012.372707)  can1  18FEBF0B   [8]  00 00 7D 7D 7D 7D FF FF
 (012.373281)  can1  0CF00203   [8]  C0 00 00 FF F7 00 00 03
 (012.373842)  can1  18F00029   [8]  F0 7D 7D F3 29 FF FF 7D
 (012.377561)  can1  18FEDF00   [8]  7D A0 28 7D 7D FF FF F0
 (012.382161)  can1  18FCDC00   [8]  9F FF FF FF 9C 68 08 00
 (012.382752)  can1  0CF00300   [8]  C1 00 00 FF FF 0F 6A 7D
 (012.383321)  can1  0CF00203   [8]  C0 00 00 FF F7 00 00 03
 (012.383881)  can1  1CFE9200   [8]  FF 48 7D FF FF FF 00 00
 (012.384481)  can1  0CF00C03   [8]  00 FB 00 00 FF FF FF FF
 (012.388401)  can1  0CF00400   [8]  0E 7D 7D 00 00 00 0F 7D
 (012.392121)  can1  0CF00A00   [8]  00 00 00 00 FF FF FF FF
 (012.392711)  can1  18FD9400   [8]  00 00 FF FF FF FF FF FF
 (012.393281)  can1  0CF00203   [8]  C0 00 00 FF F7 00 00 03
 (012.393872)  can1  18F00E00   [8]  FF FF FF FF FF FF FF FF
 (012.397521)  can1  18F03300   [8]  FF FF FF FF FF FF FF FF
 (012.398112)  can1  18FEDF00   [8]  7D A0 28 7D 7D FF FF F0
 (012.399240)  can1  18F00131   [8]  FF FF FF 3F 00 FF FF FF
 (012.399803)  can1  18FEF131   [8]  F7 FF FF C3 CC FF FF F0
 (012.400399)  can1  18FEF031   [8]  FF FF FF FF FF FC CC FF
 (012.401002)  can1  18FF4831   [8]  00 00 FF FF 00 00 00 00
 (012.401601)  can1  18FEF231   [8]  FF FF FF FF FF FF FF FF
 (012.402202)  can1  0CF00331   [8]  FF FF FF FF FF FF FF FF
 (012.402762)  can1  18FEE000   [8]  73 49 03 00 BC E0 33 00
 (012.403321)  can1  0CF00203   [8]  C0 00 00 FF F7 00 00 03
 (012.403911)  can1  0CF00300   [8]  C1 00 00 FF FF 0F 6A 7D
 (012.404478)  can1  0CF00C03   [8]  00 FB 00 00 FF FF FF FF
 (012.407161)  can1  18FEF200   [8]  00 00 FF 7F AA 08 E0 FF
 (012.407762)  can1  18F00F00   [8]  FF FF FF FF FF FF FF FF
 (012.408481)  can1  0CF00400   [8]  0E 7D 7D 00 00 00 0F 7D
 (012.412641)  can1  0C010305   [8]  FF FF FF FF FF F3 FF FF
 (012.413201)  can1  0CF00203   [8]  C0 00 00 FF F7 00 00 03
 (012.417521)  can1  18FEDF00   [8]  7D A0 28 7D 7D FF FF F0
 (012.418113)  can1  10FCFD00   [8]  FF FF FF FF 59 51 FF FF
 (012.418680)  can1  0CFD9200   [8]  F0 FF FF FF FF FF FF FF
 (012.422161)  can1  0CF00300   [8]  C1 00 00 FF FF 0F 6A 7D
 (012.422922)  can1  0CF00203   [8]  C0 00 00 FF F7 00 00 03
 (012.423551)  can1  0CF00C03   [8]  00 FB 00 00 FF FF FF FF
 (012.427123)  can1  18F00100   [8]  FF FF FF FF FF FF FF FF
 (012.428401)  can1  0CF00400   [8]  0E 7D 7D 00 00 00 0F 7D
 (012.432867)  can1  0CF00203   [8]  C0 00 00 FF F7 00 00 03
 (012.437592)  can1  18FEDF00   [8]  7D A0 28 7D 7D FF FF F0
 (012.442188)  can1  0CF00300   [8]  C1 00 00 FF FF 0F 6A 7D
 (012.442752)  can1  0CF00A00   [8]  00 00 00 00 FF FF FF FF
 (012.443323)  can1  0CF00203   [8]  C0 00 00 FF F7 00 00 03
 (012.443881)  can1  18FEF000   [8]  FF FF FF E0 15 FF FF FF
 (012.444482)  can1  0CF00C03   [8]  00 FB 00 00 FF FF FF FF
 (012.445073)  can1  18F00E00   [8]  FF FF FF FF FF FF FF FF
 (012.445632)  can1  18F00503   [8]  7D 00 00 7D 4E 20 4E 43
 (012.446241)  can1  18FE4A03   [8]  03 5F 4F FF FF F3 FF FF
 (012.447192)  can1  18F03300   [8]  FF FF FF FF FF FF FF FF
 (012.448441)  can1  0CF00400   [8]  0E 7D 7D 00 00 00 0F 7D
 (012.449242)  can1  0CF00331   [8]  FF FF FF FF FF FF FF FF
 (012.452122)  can1  18FCF200   [8]  E1 FF FF FF FF FF FF FF
 (012.452875)  can1  0CF00203   [8]  C0 00 00 FF F7 00 00 03
 (012.457588)  can1  18FEDF00   [8]  7D A0 28 7D 7D FF FF F0
 (012.458151)  can1  18F00F00   [8]  FF FF FF FF FF FF FF FF
 (012.462193)  can1  18FD0700   [8]  57 0C FC FF FF FF FF FF
 (012.462761)  can1  0C010305   [8]  FF FF FF FF FF F3 FF FF
 (012.463350)  can1  0CF00203   [8]  C0 00 00 FF F7 00 00 03
 (012.463921)  can1  0CF00300   [8]  C1 00 00 FF FF 0F 6A 7D
 (012.464513)  can1  0CF00C03   [8]  00 FB 00 00 FF FF FF FF
 (012.465041)  can1  18F0010B   [8]  CF FF F0 FF FF DC FF FF
 (012.465632)  can1  18FEF100   [8]  FF 04 00 FC FF 68 00 CF
 (012.468402)  can1  0CF00400   [8]  0E 7D 7D 00 00 00 0F 7D
 (012.472122)  can1  10FDA300   [8]  FF FF 89 FF FF FF FF FF
 (012.472712)  can1  18FEBF0B   [8]  00 00 7D 7D 7D 7D FF FF
 (012.473282)  can1  0CF00203   [8]  C0 00 00 FF F7 00 00 03
 (012.473841)  can1  18F00029   [8]  F0 7D 7D F3 29 FF FF 7D
 (012.477641)  can1  18FEDF00   [8]  7D A0 28 7D 7D FF FF F0
 (012.482162)  can1  18FCDC00   [8]  9F FF FF FF 9C 68 04 00
 (012.482721)  can1  0CF00300   [8]  C1 00 00 FF FF 0F 6A 7D
 (012.483312)  can1  0CF00203   [8]  C0 00 00 FF F7 00 00 03
 (012.483881)  can1  1CFE9200   [8]  FF 4C 7D FF FF FF 00 00
 (012.484473)  can1  0CF00C03   [8]  00 FB 00 00 FF FF FF FF
 (012.488432)  can1  0CF00400   [8]  0E 7D 7D 00 00 00 0F 7D
 (012.492121)  can1  14FC9800   [8]  FF 00 00 00 00 00 00 FF
 (012.492711)  can1  0CF00A00   [8]  00 00 00 00 FF FF FF FF
 (012.493280)  can1  0CF00203   [8]  C0 00 00 FF F7 00 00 03
 (012.493868)  can1  18FD9400   [8]  00 00 FF FF FF FF FF FF
 (012.494473)  can1  18F00E00   [8]  FF FF FF FF FF FF FF FF
 (012.497592)  can1  18F03300   [8]  FF FF FF FF FF FF FF FF
 (012.498162)  can1  18FEDF00   [8]  7D A0 28 7D 7D FF FF F0
 (012.499241)  can1  18F00131   [8]  FF FF FF 3F 00 FF FF FF
 (012.499802)  can1  18FEF131   [8]  F7 FF FF C3 CC FF FF F0
 (012.500401)  can1  18FEF031   [8]  FF FF FF FF FF FC CC FF
 (012.501001)  can1  18FF4831   [8]  00 00 FF FF 00 00 00 00
 (012.501601)  can1  18FEF231   [8]  FF FF FF FF FF FF FF FF
 (012.502201)  can1  0CF00331   [8]  FF FF FF FF FF FF FF FF
 (012.502761)  can1  18FEE000   [8]  73 49 03 00 BC E0 33 00
 (012.503321)  can1  0CF00203   [8]  C0 00 00 FF F7 00 00 03
 (012.503912)  can1  0CF00300   [8]  C1 00 00 FF FF 0F 6A 7D
 (012.504481)  can1  0CF00C03   [8]  00 FB 00 00 FF FF FF FF
 (012.507162)  can1  18FDB400   [8]  C3 26 59 25 FF FF FF FF
 (012.507751)  can1  18FEF200   [8]  00 00 FF 7F AA 08 DF FF
 (012.508350)  can1  18F00F00   [8]  FF FF FF FF FF FF FF FF
 (012.508921)  can1  0CF00400   [8]  0E 7D 7D 00 00 00 0F 7D
 (012.512631)  can1  0C010305   [8]  FF FF FF FF FF F3 FF FF
 (012.513201)  can1  0CF00203   [8]  C0 00 00 FF F7 00 00 03
 (012.517592)  can1  18FEDF00   [8]  7D A0 28 7D 7D FF FF F0
 (012.518161)  can1  10FCFD00   [8]  FF FF FF FF 59 51 FF FF
 (012.522163)  can1  0CF00300   [8]  C1 00 00 FF FF 0F 6A 7D
 (012.522921)  can1  0CF00203   [8]  C0 00 00 FF F7 00 00 03
 (012.523552)  can1  0CF00C03   [8]  00 FB 00 00 FF FF FF FF
 (012.527162)  can1  18F00100   [8]  FF FF FF FF FF FF FF FF
 (012.528402)  can1  0CF00400   [8]  0E 7D 7D 00 00 00 0F 7D
 (012.532121)  can1  18FDB300   [8]  FF FF 66 24 FF FF FF FF
 (012.532842)  can1  0CF00203   [8]  C0 00 00 FF F7 00 00 03
 (012.537642)  can1  18FEDF00   [8]  7D A0 28 7D 7D FF FF F0
 (012.542161)  can1  0CF00300   [8]  C1 00 00 FF FF 0F 6A 7D
 (012.542760)  can1  0CF00A00   [8]  00 00 00 00 FF FF FF FF
 (012.543321)  can1  0CF00203   [8]  C0 00 00 FF F7 00 00 03
 (012.543921)  can1  18FEF000   [8]  FF FF FF E0 15 FF FF FF
 (012.544482)  can1  0CF00C03   [8]  00 FB 00 00 FF FF FF FF
 (012.545107)  can1  18F00E00   [8]  FF FF FF FF FF FF FF FF
 (012.545642)  can1  18F00503   [8]  7D 00 00 7D 4E 20 4E 43
 (012.546242)  can1  18FE4A03   [8]  03 5F 4F FF FF F3 FF FF
 (012.547202)  can1  18F03300   [8]  FF FF FF FF FF FF FF FF
 (012.548472)  can1  0CF00400   [8]  0E 7D 7D 00 00 00 0F 7D
 (012.549238)  can1  0CF00331   [8]  FF FF FF FF FF FF FF FF
 (012.552152)  can1  18FDB200   [8]  FF FF FF FF 06 00 FF FF
 (012.552722)  can1  18FCF200   [8]  E1 FF FF FF FF FF FF FF
 (012.553309)  can1  0CF00203   [8]  C0 00 00 FF F7 00 00 03
 (012.557643)  can1  18FEDF00   [8]  7D A0 28 7D 7D FF FF F0
 (012.558232)  can1  18F00F00   [8]  FF FF FF FF FF FF FF FF
 (012.562202)  can1  0CF00300   [8]  C1 00 00 FF FF 0F 6A 7D
 (012.562762)  can1  0C010305   [8]  FF FF FF FF FF F3 FF FF
 (012.563352)  can1  0CF00203   [8]  C0 00 00 FF F7 00 00 03
 (012.563921)  can1  18F0010B   [8]  CF FF F0 FF FF DC FF FF
 (012.564482)  can1  0CF00C03   [8]  00 FB 00 00 FF FF FF FF
 (012.565071)  can1  18FEF100   [8]  FF 00 00 FC FF 68 00 CF
 (012.568434)  can1  0CF00400   [8]  0E 7D 7D 00 00 00 0F 7D
 (012.572189)  can1  10FDA300   [8]  FF FF 7F FF FF FF FF FF
 (012.572722)  can1  18F00029   [8]  F0 7D 7D F3 29 FF FF 7D
 (012.573282)  can1  0CF00203   [8]  C0 00 00 FF F7 00 00 03
 (012.573881)  can1  18FEBF0B   [8]  00 00 7D 7D 7D 7D FF FF
 (012.577592)  can1  18FD8C00   [8]  FF FF 00 00 FF FF FF FF
 (012.578162)  can1  18FEDF00   [8]  7D A0 28 7D 7D FF FF F0
 (012.582202)  can1  18FCDC00   [8]  9F FF FF FF 9C 68 00 00
 (012.582761)  can1  0CF00300   [8]  C1 00 00 FF FF 0F 6A 7D
 (012.583353)  can1  0CF00203   [8]  C0 00 00 FF F7 00 00 03
 (012.583921)  can1  1CFE9200   [8]  FF 4C 7D FF FF FF 00 00
 (012.584522)  can1  0CF00C03   [8]  00 FB 00 00 FF FF FF FF
 (012.588432)  can1  0CF00400   [8]  0E 7D 7D 00 00 00 0F 7D
 (012.592163)  can1  0CF00A00   [8]  00 00 00 00 FF FF FF FF
 (012.592752)  can1  18FD9400   [8]  00 00 FF FF FF FF FF FF
 (012.593321)  can1  0CF00203   [8]  C0 00 00 FF F7 00 00 03
 (012.593912)  can1  18F00E00   [8]  FF FF FF FF FF FF FF FF
 (012.597561)  can1  18FD2000   [8]  C3 26 FF FF FF FF FF FF
 (012.598152)  can1  18F03300   [8]  FF FF FF FF FF FF FF FF
 (012.598721)  can1  18FEDF00   [8]  7D A0 28 7D 7D FF FF F0
 (012.599282)  can1  18F00131   [8]  FF FF FF 3F 00 FF FF FF
 (012.599881)  can1  18FEF131   [8]  F7 FF FF C3 CC FF FF F0
 (012.600472)  can1  18FEF031   [8]  FF FF FF FF FF FC CC FF
 (012.601041)  can1  18FEFC31   [8]  FF 33 FF FF FF FF 00 FF
 (012.601631)  can1  18FEAE31   [8]  FF FF 04 01 FF FF FF FF
 (012.602202)  can1  18FEF731   [8]  FF FF FF FF ED 00 FF FF
 (012.602761)  can1  18FEE000   [8]  73 49 03 00 BC E0 33 00
 (012.603322)  can1  0CF00203   [8]  C0 00 00 FF F7 00 00 03
 (012.603932)  can1  0CF00300   [8]  C1 00 00 FF FF 0F 6A 7D
 (012.604492)  can1  0CF00C03   [8]  00 FB 00 00 FF FF FF FF
 (012.605062)  can1  18FF4831   [8]  00 00 FF FF 00 00 00 00
 (012.605661)  can1  18FD8331   [8]  F8 FF FF FF FF FF FF FF
 (012.606262)  can1  18FEF831   [8]  FF FF FF FF FF FF FF FF
 (012.606862)  can1  18FEF231   [8]  FF FF FF FF FF FF FF FF
 (012.607451)  can1  18FEF200   [8]  00 00 00 00 AB 08 DF FF
 (012.608021)  can1  18F00F00   [8]  FF FF FF FF FF FF FF FF
 (012.608613)  can1  18FEFA31   [8]  FF 09 02 FF FF FF FF FF
 (012.609182)  can1  0CF00400   [8]  0E 7D 7D 00 00 00 0F 7D
 (012.609742)  can1  18FEC131   [8]  FF FF FF FA FF FF FF FF
 (012.610368)  can1  0CF00331   [8]  FF FF FF FF FF FF FF FF
 (012.612648)  can1  0C010305   [8]  FF FF FF FF FF F3 FF FF
 (012.614811)  can1  0CF00203   [8]  C0 00 00 FF F7 00 00 03
 (012.617572)  can1  18FEDF00   [8]  7D A0 28 7D 7D FF FF F0
 (012.618149)  can1  10FCFD00   [8]  FF FF FF FF 59 51 FF FF
 (012.622163)  can1  18FD3E00   [8]  4C 24 FF 69 24 FF FF FF
 (012.622753)  can1  0CF00300   [8]  C1 00 00 FF FF 0F 6A 7D
 (012.623322)  can1  0CF00203   [8]  C0 00 00 FF F7 00 00 03
 (012.623922)  can1  0CF00C03   [8]  00 FB 00 00 FF FF FF FF
 (012.627162)  can1  18F00100   [8]  FF FF FF FF FF FF FF FF
 (012.628432)  can1  0CF00400   [8]  0E 7D 7D 00 00 00 0F 7D
 (012.632872)  can1  0CF00203   [8]  C0 00 00 FF F7 00 00 03
 (012.637623)  can1  18FEDF00   [8]  7D A0 28 7D 7D FF FF F0
 (012.642183)  can1  18FD4000   [8]  FF 3F 00 FF FF FF FF FF
 (012.642742)  can1  0CF00300   [8]  C1 00 00 FF FF 0F 6A 7D
 (012.643332)  can1  0CF00203   [8]  C0 00 00 FF F7 00 00 03
 (012.643932)  can1  0CF00A00   [8]  00 00 00 00 FF FF FF FF
 (012.644502)  can1  0CF00C03   [8]  00 FB 00 00 FF FF FF FF
 (012.645091)  can1  18FEF000   [8]  FF FF FF E0 15 FF FF FF
 (012.645623)  can1  18F00503   [8]  7D 00 00 7D 4E 20 4E 43
 (012.646252)  can1  18F00E00   [8]  FF FF FF FF FF FF FF FF
 (012.646811)  can1  18FE4A03   [8]  03 5F 4F FF FF F3 FF FF
 (012.647381)  can1  18F03300   [8]  FF FF FF FF FF FF FF FF
 (012.647971)  can1  18FD9503   [8]  CC FF FF BB FF FF FF FF
 (012.648541)  can1  0CF00400   [8]  0E 7D 7D 00 00 00 0F 7D
 (012.649102)  can1  18FEF803   [8]  FF FF FF FF 11 24 FF FF
 (012.649702)  can1  0CF00331   [8]  FF FF FF FF FF FF FF FF
 (012.652252)  can1  18FCF200   [8]  E1 FF FF FF FF FF FF FF
 (012.652862)  can1  0CF00203   [8]  C0 00 00 FF F7 00 00 03
 (012.657569)  can1  18FEDF00   [8]  7D A0 28 7D 7D FF FF F0
 (012.658143)  can1  18F00F00   [8]  FF FF FF FF FF FF FF FF
 (012.662182)  can1  0CF00300   [8]  C1 00 00 FF FF 0F 6A 7D
 (012.662782)  can1  0C010305   [8]  FF FF FF FF FF F3 FF FF
 (012.663341)  can1  0CF00203   [8]  C0 00 00 FF F7 00 00 03
 (012.663902)  can1  18F0010B   [8]  CF FF F0 FF FF DC FF FF
 (012.664502)  can1  0CF00C03   [8]  00 FB 00 00 FF FF FF FF
 (012.665062)  can1  18FEF100   [8]  FF 00 00 FC FF 68 00 CF
 (012.667142)  can1  18FCC500   [8]  4C 24 FF FF FF FF FF FF
 (012.667742)  can1  0CFD9200   [8]  F0 FF FF FF FF FF FF FF
 (012.668492)  can1  0CF00400   [8]  0E 7D 7D 00 00 00 0F 7D
 (012.672143)  can1  10FDA300   [8]  FF FF 77 FF FF FF FF FF
 (012.672723)  can1  18F00029   [8]  F0 7D 7D F3 29 FF FF 7D
 (012.673283)  can1  0CF00203   [8]  C0 00 00 FF F7 00 00 03
 (012.673882)  can1  18FEBF0B   [8]  00 00 7D 7D 7D 7D FF FF
 (012.674443)  can1  18FECA03   [8]  00 FF 00 00 00 00 FF FF
 (012.677632)  can1  18FEDF00   [8]  7D A0 28 7D 7D FF FF F0
 (012.682202)  can1  18FCDC00   [8]  9F FF FF FF 9C 68 00 00
 (012.682762)  can1  0CF00300   [8]  C1 00 00 FF FF 0F 6A 7D
 (012.683352)  can1  0CF00203   [8]  C0 00 00 FF F7 00 00 03
 (012.683922)  can1  1CFE9200   [8]  FF 4C 7D FF FF FF 00 00
 (012.684512)  can1  0CF00C03   [8]  00 FB 00 00 FF FF FF FF
 (012.688473)  can1  0CF00400   [8]  0E 7D 7D 00 00 00 0F 7D
 (012.692161)  can1  0CF00A00   [8]  00 00 00 00 FF FF FF FF
 (012.692752)  can1  18FD9400   [8]  00 00 FF FF FF FF FF FF
 (012.693321)  can1  0CF00203   [8]  C0 00 00 FF F7 00 00 03
 (012.693882)  can1  18FEEF00   [8]  FF FF FF 00 FF 7C FF FA
 (012.694481)  can1  18F00E00   [8]  FF FF FF FF FF FF FF FF
 (012.697593)  can1  18F03300   [8]  FF FF FF FF FF FF FF FF
 (012.698162)  can1  18FEDF00   [8]  7D A0 28 7D 7D FF FF F0
 (012.699271)  can1  18F00131   [8]  FF FF FF 3F 00 FF FF FF
 (012.699803)  can1  18FEF131   [8]  F7 FF FF C3 CC FF FF F0
 (012.700404)  can1  18FEF031   [8]  FF FF FF FF FF FC CC FF
 (012.701003)  can1  18FF4831   [8]  00 00 FF FF 00 00 00 00
 (012.701601)  can1  18FEF231   [8]  FF FF FF FF FF FF FF FF
 (012.702202)  can1  0CF00331   [8]  FF FF FF FF FF FF FF FF
 (012.702761)  can1  18FEE000   [8]  73 49 03 00 BC E0 33 00
 (012.703319)  can1  0CF00203   [8]  C0 00 00 FF F7 00 00 03
 (012.703912)  can1  0CF00300   [8]  C1 00 00 FF FF 0F 6A 7D
 (012.704510)  can1  0CF00C03   [8]  00 FB 00 00 FF FF FF FF
 (012.707230)  can1  18FEF200   [8]  00 00 00 00 AA 08 DF FF
 (012.707802)  can1  18F00F00   [8]  FF FF FF FF FF FF FF FF
 (012.708513)  can1  0CF00400   [8]  0E 7D 7D 00 00 00 0F 7D
 (012.712162)  can1  18FEDB00   [8]  FF FF 74 00 FF FF FF FF
 (012.712763)  can1  0C010305   [8]  FF FF FF FF FF F3 FF FF
 (012.713323)  can1  0CF00203   [8]  C0 00 00 FF F7 00 00 03
 (012.717561)  can1  18FEDF00   [8]  7D A0 28 7D 7D FF FF F0
 (012.718193)  can1  10FCFD00   [8]  FF FF FF FF 59 51 FF FF
 (012.722202)  can1  0CF00300   [8]  C1 00 00 FF FF 0F 6A 7D
 (012.722922)  can1  0CF00203   [8]  C0 00 00 FF F7 00 00 03
 (012.723553)  can1  0CF00C03   [8]  00 FB 00 00 FF FF FF FF
 (012.727162)  can1  18F00100   [8]  FF FF FF FF FF FF FF FF
 (012.728442)  can1  0CF00400   [8]  0E 7D 7D 00 00 00 0F 7D
 (012.732162)  can1  18FEF600   [8]  FF 00 39 FF FF FF FF FF
 (012.732842)  can1  0CF00203   [8]  C0 00 00 FF F7 00 00 03
 (012.737632)  can1  18FEDF00   [8]  7D A0 28 7D 7D FF FF F0
 (012.742202)  can1  0CF00300   [8]  C1 00 00 FF FF 0F 6A 7D
 (012.742791)  can1  0CF00A00   [8]  00 00 00 00 FF FF FF FF
 (012.743392)  can1  0CF00203   [8]  C0 00 00 FF F7 00 00 03
 (012.743951)  can1  18FEF000   [8]  FF FF FF E0 15 FF FF FF
 (012.744521)  can1  0CF00C03   [8]  00 FB 00 00 FF FF FF FF
 (012.745122)  can1  18F00E00   [8]  FF FF FF FF FF FF FF FF
 (012.745672)  can1  18F00503   [8]  7D 00 00 7D 4E 20 4E 43
 (012.746281)  can1  18FE4A03   [8]  03 5F 4F FF FF F3 FF FF
 (012.747232)  can1  18F03300   [8]  FF FF FF FF FF FF FF FF
 (012.748511)  can1  0CF00400   [8]  0E 7D 7D 00 00 00 0F 7D
 (012.749242)  can1  0CF00331   [8]  FF FF FF FF FF FF FF FF
 (012.752162)  can1  18FCF200   [8]  E1 FF FF FF FF FF FF FF
 (012.752872)  can1  0CF00203   [8]  C0 00 00 FF F7 00 00 03
 (012.757588)  can1  18FEDF00   [8]  7D A0 28 7D 7D FF FF F0
 (012.758164)  can1  18FDC600   [8]  FC 04 FF FF FF FF FF FF
 (012.758753)  can1  18F00F00   [8]  FF FF FF FF FF FF FF FF
 (012.762201)  can1  0CF00300   [8]  C1 00 00 FF FF 0F 6A 7D
 (012.762802)  can1  0C010305   [8]  FF FF FF FF FF F3 FF FF
 (012.763362)  can1  0CF00203   [8]  C0 00 00 FF F7 00 00 03
 (012.763921)  can1  18F0010B   [8]  CF FF F0 FF FF DC FF FF
 (012.764521)  can1  0CF00C03   [8]  00 FB 00 00 FF FF FF FF
 (012.765081)  can1  18FEF100   [8]  FF 00 00 FC FF 68 00 CF
 (012.768442)  can1  0CF00400   [8]  0E 7D 7D 00 00 00 0F 7D
 (012.772191)  can1  10FDA300   [8]  FF FF 6C FF FF FF FF FF
 (012.772752)  can1  18F00029   [8]  F0 7D 7D F3 29 FF FF 7D
 (012.773323)  can1  0CF00203   [8]  C0 00 00 FF F7 00 00 03
 (012.773912)  can1  18FEBF0B   [8]  00 00 7D 7D 7D 7D FF FF
 (012.777642)  can1  18FEDF00   [8]  7D A0 28 7D 7D FF FF F0
 (012.782232)  can1  18FCDC00   [8]  9F FF FF FF 9C 68 00 00
 (012.782802)  can1  0CF00300   [8]  C1 00 00 FF FF 0F 6A 7D
 (012.783362)  can1  0CF00203   [8]  C0 00 00 FF F7 00 00 03
 (012.783951)  can1  18FECA0B   [8]  04 FF 00 00 00 00 FF FF
 (012.784521)  can1  0CF00C03   [8]  00 FB 00 00 FF FF FF FF
 (012.785121)  can1  1CFE9200   [8]  FF 50 7D FF FF FF 00 00
 (012.788442)  can1  0CF00400   [8]  0E 7D 7D 00 00 00 0F 7D
 (012.792161)  can1  0CF00A00   [8]  00 00 00 00 FF FF FF FF
 (012.792761)  can1  18FD9400   [8]  00 00 FF FF FF FF FF FF
 (012.793322)  can1  0CF00203   [8]  C0 00 00 FF F7 00 00 03
 (012.793921)  can1  18F00E00   [8]  FF FF FF FF FF FF FF FF
 (012.797591)  can1  18F03300   [8]  FF FF FF FF FF FF FF FF
 (012.798192)  can1  18FEDF00   [8]  7D A0 28 7D 7D FF FF F0
 (012.799241)  can1  18F00131   [8]  FF FF FF 3F 00 FF FF FF
 (012.799832)  can1  18FEF131   [8]  F7 FF FF C3 CC FF FF F0
 (012.800402)  can1  18FEF031   [8]  FF FF FF FF FF FC CC FF
 (012.801027)  can1  18FF4831   [8]  00 00 FF FF 00 00 00 00
 (012.801601)  can1  18FEF231   [8]  FF FF FF FF FF FF FF FF
 (012.802201)  can1  0CF00331   [8]  FF FF FF FF FF FF FF FF
 (012.802793)  can1  18FEF700   [8]  FF FF FF FF ED 00 FF FF
 (012.803361)  can1  0CF00203   [8]  C0 00 00 FF F7 00 00 03
 (012.803921)  can1  18FEE000   [8]  73 49 03 00 BC E0 33 00
 (012.804512)  can1  0CF00C03   [8]  00 FB 00 00 FF FF FF FF
 (012.805082)  can1  0CF00300   [8]  C1 00 00 FF FF 0F 6A 7D
 (012.807233)  can1  18FEF200   [8]  00 00 00 00 AA 08 DE FF
 (012.807842)  can1  18F00F00   [8]  FF FF FF FF FF FF FF FF
 (012.808521)  can1  0CF00400   [8]  0E 7D 7D 00 00 00 0F 7D
 (012.812642)  can1  0C010305   [8]  FF FF FF FF FF F3 FF FF
 (012.813232)  can1  0CF00203   [8]  C0 00 00 FF F7 00 00 03
 (012.817592)  can1  18FEDF00   [8]  7D A0 28 7D 7D FF FF F0
 (012.818162)  can1  10FCFD00   [8]  FF FF FF FF 59 51 FF FF
 (012.822193)  can1  18FEC100   [8]  5F F2 10 05 4F 2C 52 00
 (012.822761)  can1  0CF00300   [8]  C1 00 00 FF FF 0F 6A 7D
 (012.823322)  can1  0CF00203   [8]  C0 00 00 FF F7 00 00 03
 (012.823952)  can1  0CF00C03   [8]  00 FB 00 00 FF FF FF FF
 (012.827202)  can1  18F00100   [8]  FF FF FF FF FF FF FF FF
 (012.828472)  can1  0CF00400   [8]  0E 7D 7D 00 00 00 0F 7D
 (012.832871)  can1  0CF00203   [8]  C0 00 00 FF F7 00 00 03
 (012.837707)  can1  18FEDF00   [8]  7D A0 28 7D 7D FF FF F0
 (012.842202)  can1  0CF00300   [8]  C1 00 00 FF FF 0F 6A 7D
 (012.842801)  can1  0CF00A00   [8]  00 00 00 00 FF FF FF FF
 (012.843362)  can1  0CF00203   [8]  C0 00 00 FF F7 00 00 03
 (012.843961)  can1  18FEF000   [8]  FF FF FF E0 15 FF FF FF
 (012.844521)  can1  0CF00C03   [8]  00 FB 00 00 FF FF FF FF
 (012.845121)  can1  18F00E00   [8]  FF FF FF FF FF FF FF FF
 (012.845682)  can1  18F00503   [8]  7D 00 00 7D 4E 20 4E 43
 (012.846282)  can1  18FE4A03   [8]  03 5F 4F FF FF F3 FF FF
 (012.847241)  can1  18FE5600   [8]  97 35 FF FF 1F 1F 00 FF
 (012.847833)  can1  18F03300   [8]  FF FF FF FF FF FF FF FF
 (012.848562)  can1  0CF00400   [8]  0E 7D 7D 00 00 00 0F 7D
 (012.849242)  can1  0CF00331   [8]  FF FF FF FF FF FF FF FF
 (012.852232)  can1  18FCF200   [8]  DE FF FF FF FF FF FF FF
 (012.852873)  can1  0CF00203   [8]  C0 00 00 FF F7 00 00 03
 (012.857593)  can1  18FEDF00   [8]  7D A0 28 7D 7D FF FF F0
 (012.858162)  can1  18F00F00   [8]  FF FF FF FF FF FF FF FF
 (012.862243)  can1  0CF00300   [8]  C1 00 00 FF FF 0F 6A 7D
 (012.862842)  can1  0C010305   [8]  FF FF FF FF FF F3 FF FF
 (012.863401)  can1  0CF00203   [8]  C0 00 00 FF F7 00 00 03
 (012.863961)  can1  18F0010B   [8]  CF FF F0 FF FF DC FF FF
 (012.864561)  can1  0CF00C03   [8]  00 FB 00 00 FF FF FF FF
 (012.865121)  can1  18FEF100   [8]  FF 00 00 FC FF 68 00 CF
 (012.867201)  can1  18FD7B00   [8]  00 FF E6 77 00 00 82 37
 (012.868482)  can1  0CF00400   [8]  0E 7D 7D 00 00 00 0F 7D
 (012.872241)  can1  10FDA300   [8]  FF FF 62 FF FF FF FF FF
 (012.872801)  can1  18F00029   [8]  F0 7D 7D F3 29 FF FF 7D
 (012.873361)  can1  0CF00203   [8]  C0 00 00 FF F7 00 00 03
 (012.873961)  can1  18FEBF0B   [8]  00 00 7D 7D 7D 7D FF FF
 (012.877602)  can1  18FEDF00   [8]  7D A0 28 7D 7D FF FF F0
 (012.882202)  can1  18FCDC00   [8]  9F FF FF FF 9C 68 00 00
 (012.882801)  can1  0CF00300   [8]  C1 00 00 FF FF 0F 6A 7D
 (012.883362)  can1  0CF00203   [8]  C0 00 00 FF F7 00 00 03
 (012.883953)  can1  1CFE9200   [8]  FF 4C 7D FF FF FF 00 00
 (012.884521)  can1  0CF00C03   [8]  00 FB 00 00 FF FF FF FF
 (012.888442)  can1  0CF00400   [8]  0E 7D 7D 00 00 00 0F 7D
 (012.892192)  can1  0CF00A00   [8]  00 00 00 00 FF FF FF FF
 (012.892762)  can1  18FD9400   [8]  00 00 FF FF FF FF FF FF
 (012.893352)  can1  0CF00203   [8]  C0 00 00 FF F7 00 00 03
 (012.893921)  can1  18FEDD00   [8]  FF 00 00 FF FF FF FF FF
 (012.894521)  can1  18F00E00   [8]  FF FF FF FF FF FF FF FF
 (012.897602)  can1  18F03300   [8]  FF FF FF FF FF FF FF FF
 (012.898162)  can1  18FEDF00   [8]  7D A0 28 7D 7D FF FF F0
 (012.899241)  can1  18F00131   [8]  FF FF FF 3F 00 FF FF FF
 (012.899831)  can1  18FEF131   [8]  F7 FF FF C3 CC FF FF F0
 (012.900400)  can1  18FEF031   [8]  FF FF FF FF FF FC CC FF
 (012.901002)  can1  18FF4831   [8]  00 00 FF FF 00 00 00 00
 (012.901602)  can1  18FEF231   [8]  FF FF FF FF FF FF FF FF
 (012.902201)  can1  0CF00331   [8]  FF FF FF FF FF FF FF FF
 (012.902760)  can1  18FEE000   [8]  73 49 03 00 BC E0 33 00
 (012.903322)  can1  0CF00203   [8]  C0 00 00 FF F7 00 00 03
 (012.903883)  can1  0CF00300   [8]  D1 00 00 FF FF 0F 6A 7D
 (012.904482)  can1  0CF00C03   [8]  00 FB 00 00 FF FF FF FF
 (012.907242)  can1  18FEF200   [8]  00 00 00 00 AA 08 E0 FF
 (012.907842)  can1  18F00F00   [8]  FF FF FF FF FF FF FF FF
 (012.908521)  can1  0CF00400   [8]  0E 7D 7D 00 00 00 0F 7D
 (012.912201)  can1  18FEE400   [8]  FF 3F FC FD 00 7F FF FF
 (012.912792)  can1  0C010305   [8]  FF FF FF FF FF F3 FF FF
 (012.913361)  can1  0CF00203   [8]  C0 00 00 FF F7 00 00 03
 (012.917632)  can1  18FEDF00   [8]  7D A0 28 7D 7D FF FF F0
 (012.918191)  can1  10FCFD00   [8]  FF FF FF FF 59 51 FF FF
 (012.918762)  can1  0CFD9200   [8]  F0 FF FF FF FF FF FF FF
 (012.922227)  can1  0CF00300   [8]  D1 00 00 FF FF 0F 6A 7D
 (012.922922)  can1  0CF00203   [8]  C0 00 00 FF F7 00 00 03
 (012.923553)  can1  0CF00C03   [8]  00 FB 00 00 FF FF FF FF
 (012.927202)  can1  18F00100   [8]  FF FF FF FF FF FF FF FF
 (012.928442)  can1  0CF00400   [8]  0E 7D 7D 00 00 00 0F 7D
 (012.932872)  can1  0CF00203   [8]  C0 00 00 FF F7 00 00 03
 (012.937641)  can1  18FEDF00   [8]  7D A0 28 7D 7D FF FF F0
 (012.942202)  can1  0CF00300   [8]  D1 00 00 FF FF 0F 6A 7D
 (012.942832)  can1  0CF00A00   [8]  00 00 00 00 FF FF FF FF
 (012.943362)  can1  0CF00203   [8]  C0 00 00 FF F7 00 00 03
 (012.943961)  can1  18FEF000   [8]  FF FF FF E0 15 FF FF FF
 (012.944522)  can1  0CF00C03   [8]  00 FB 00 00 FF FF FF FF
 (012.945121)  can1  18FEBD00   [8]  00 F0 FF FF FF FF FF FF
 (012.945681)  can1  18F00503   [8]  7D 00 00 7D 4E 20 4E 43
 (012.946271)  can1  18F00E00   [8]  FF FF FF FF FF FF FF FF
 (012.946841)  can1  18FE4A03   [8]  03 5F 4F FF FF F3 FF FF
 (012.947432)  can1  18F03300   [8]  FF FF FF FF FF FF FF FF
 (012.948481)  can1  0CF00400   [8]  0E 7D 7D 00 00 00 0F 7D
 (012.949241)  can1  0CF00331   [8]  FF FF FF FF FF FF FF FF
 (012.949841)  can1  18FECA31   [8]  00 FF 00 00 00 00 FF FF
 (012.952273)  can1  18FCF200   [8]  E6 FF FF FF FF FF FF FF
 (012.952873)  can1  0CF00203   [8]  C0 00 00 FF F7 00 00 03
 (012.957634)  can1  18FEDF00   [8]  7D A0 28 7D 7D FF FF F0
 (012.958203)  can1  18E0FF00   [8]  00 FF FF FF FF FF FF FF
 (012.958802)  can1  18F00F00   [8]  FF FF FF FF FF FF FF FF
 (012.962241)  can1  0CF00300   [8]  D1 00 00 FF FF 0F 6A 7D
 (012.962842)  can1  0C010305   [8]  FF FF FF FF FF F3 FF FF
 (012.963401)  can1  0CF00203   [8]  C0 00 00 FF F7 00 00 03
 (012.963961)  can1  18F0010B   [8]  CF FF F0 FF FF DC FF FF
 (012.964561)  can1  0CF00C03   [8]  00 FB 00 00 FF FF FF FF
 (012.965122)  can1  18FEF100   [8]  FF 00 00 FC FF 68 00 CF
 (012.967233)  can1  18FEEE00   [8]  37 FF FF FF FF FF FF FF
 (012.968481)  can1  0CF00400   [8]  0E 7D 7D 00 00 00 0F 7D
 (012.972202)  can1  10FDA300   [8]  FF FF 5A FF FF FF FF FF
 (012.972763)  can1  18F00029   [8]  F0 7D 7D F3 29 FF FF 3C
 (012.973322)  can1  0CF00203   [8]  C0 00 00 FF F7 00 00 03
 (012.973912)  can1  18FEBF0B   [8]  00 00 7D 7D 7D 7D FF FF
 (012.977642)  can1  18FEDF00   [8]  7D A0 28 7D 7D FF FF F0
 (012.982241)  can1  18FCDC00   [8]  9F FF FF FF 9C 68 00 00
 (012.982802)  can1  0CF00300   [8]  D1 00 00 FF FF 0F 6A 7D
 (012.983391)  can1  0CF00203   [8]  C0 00 00 FF F7 00 00 03
 (012.983961)  can1  1CFE9200   [8]  FF 64 7D FF FF FF 00 00
 (012.984552)  can1  0CF00C03   [8]  00 FB 00 00 FF FF FF FF
 (012.985122)  can1  18FEF500   [8]  AA FF FF 4E 25 FF FF FF
 (012.988442)  can1  0CF00400   [8]  0E 7D 7D 00 00 00 0F 7D
 (012.992161)  can1  14FC9800   [8]  FF 00 00 00 00 00 00 FF
 (012.992762)  can1  0CF00A00   [8]  00 00 00 00 FF FF FF FF
 (012.993321)  can1  0CF00203   [8]  C0 00 00 FF F7 00 00 03
 (012.993921)  can1  18FD9400   [8]  00 00 FF FF FF FF FF FF
 (012.994521)  can1  18F00E00   [8]  FF FF FF FF FF FF FF FF
 (012.997602)  can1  18F03300   [8]  FF FF FF FF FF FF FF FF
 (012.998191)  can1  18FEDF00   [8]  7D A0 28 7D 7D FF FF F0
 (012.999241)  can1  18F00131   [8]  FF FF FF 3F 00 FF FF FF
 (012.999842)  can1  18FEF131   [8]  F7 FF FF C3 CC FF FF F0
 (013.000401)  can1  18FEF031   [8]  FF FF FF FF FF FC CC FF
 (013.001002)  can1  18F11031   [8]  00 00 FF FF FF FF FF FF
 (013.001632)  can1  18FF4831   [8]  00 00 FF FF 00 00 00 00
 (013.002203)  can1  18FEF231   [8]  FF FF FF FF FF FF FF FF
 (013.002763)  can1  18FEE000   [8]  73 49 03 00 BC E0 33 00
 (013.003352)  can1  0CF00203   [8]  C0 00 00 FF F7 00 00 03
 (013.003921)  can1  0CF00300   [8]  D1 00 00 FF FF 0F 6A 7D
 (013.004481)  can1  0CF00331   [8]  FF FF FF FF FF FF FF FF
 (013.005073)  can1  0CF00C03   [8]  00 FB 00 00 FF FF FF FF
 (013.005632)  can1  18FEA400   [8]  FF FF 1C 24 FF FF 3B 24
 (013.007243)  can1  18FDB400   [8]  C9 26 59 25 FF FF FF FF
 (013.007841)  can1  18FEF200   [8]  00 00 00 00 AA 08 EF FF
 (013.008441)  can1  18F00F00   [8]  FF FF FF FF FF FF FF FF
 (013.009001)  can1  0CF00400   [8]  0E 7D 7D 00 00 00 0F 7D
 (013.012684)  can1  0C010305   [8]  FF FF FF FF FF F3 FF FF
 (013.013282)  can1  0CF00203   [8]  C0 00 00 FF F7 00 00 03
 (013.017602)  can1  18FEDF00   [8]  7D A0 28 7D 7D FF FF F0
 (013.018193)  can1  10FCFD00   [8]  FF FF FF FF 59 51 FF FF
 (013.022238)  can1  0CF00300   [8]  D1 00 00 FF FF 0F 6A 7D
 (013.022921)  can1  0CF00203   [8]  C0 00 00 FF F7 00 00 03
 (013.023561)  can1  0CF00C03   [8]  00 FB 00 00 FF FF FF FF
 (013.027198)  can1  18FD7C00   [8]  F8 83 01 00 C3 1F 03 FF
 (013.027793)  can1  18F00100   [8]  FF FF FF FF FF FF FF FF
 (013.028482)  can1  0CF00400   [8]  0E 7D 7D 00 00 00 0F 7D
 (013.032193)  can1  18FDB300   [8]  FF FF 63 24 FF FF FF FF
 (013.032872)  can1  0CF00203   [8]  C0 00 00 FF F7 00 00 03
 (013.037643)  can1  18FEDF00   [8]  7D A0 28 7D 7D FF FF F0
 (013.042203)  can1  0CF00300   [8]  D1 00 00 FF FF 0F 6A 7D
 (013.042802)  can1  0CF00A00   [8]  00 00 00 00 FF FF FF FF
 (013.043391)  can1  0CF00203   [8]  C0 00 00 FF F7 00 00 03
 (013.043961)  can1  18FEF000   [8]  FF FF FF E0 15 FF FF FF
 (013.044552)  can1  0CF00C03   [8]  00 FB 00 00 FF FF FF FF
 (013.045151)  can1  18F00E00   [8]  FF FF FF FF FF FF FF FF
 (013.045682)  can1  18F00503   [8]  7D 00 00 7D 4E 20 4E 43
 (013.046313)  can1  18FE4A03   [8]  03 5F 4F FF FF F3 FF FF
 (013.047272)  can1  18F03300   [8]  FF FF FF FF FF FF FF FF
 (013.047841)  can1  18FE9A00   [8]  76 24 FF FF FF FF FF FF
 (013.048561)  can1  0CF00400   [8]  0E 7D 7D 00 00 00 0F 7D
 (013.049241)  can1  0CF00331   [8]  FF FF FF FF FF FF FF FF
 (013.052201)  can1  18FDB200   [8]  FF FF FF FF 06 00 FF FF
 (013.052802)  can1  18FCF200   [8]  F1 FF FF FF FF FF FF FF
 (013.053361)  can1  0CF00203   [8]  C0 00 00 FF F7 00 00 03
 (013.057602)  can1  18FEDF00   [8]  7D A0 28 7D 7D FF FF F0
 (013.058202)  can1  18F00F00   [8]  FF FF FF FF FF FF FF FF
 (013.062242)  can1  0CF00300   [8]  D1 00 00 FF FF 0F 6A 7D
 (013.062832)  can1  0C010305   [8]  FF FF FF FF FF F3 FF FF
 (013.063402)  can1  0CF00203   [8]  C0 00 00 FF F7 00 00 03
 (013.063961)  can1  18F0010B   [8]  CF FF F0 FF FF DC FF FF
 (013.064554)  can1  0CF00C03   [8]  00 FB 00 00 FF FF FF FF
 (013.065121)  can1  18FEF100   [8]  FF 00 00 FC FF 68 00 CF
 (013.068482)  can1  0CF00400   [8]  0E 7D 7D 00 00 00 0F 7D
 (013.072202)  can1  10FDA300   [8]  FF FF 4F FF FF FF FF FF
 (013.072803)  can1  18FE9900   [8]  FF FF FF FF FF FF FF FF
 (013.073362)  can1  0CF00203   [8]  C0 00 00 FF F7 00 00 03
 (013.073921)  can1  18F00029   [8]  F0 7D 7D F3 29 FF FF 3C
 (013.074520)  can1  18FEBF0B   [8]  00 00 7D 7D 7D 7D FF FF
 (013.077641)  can1  18FD8C00   [8]  FF FF 00 00 FF FF FF FF
 (013.078201)  can1  18FEDF00   [8]  7D A0 28 7D 7D FF FF F0
 (013.082243)  can1  18FCDC00   [8]  9F FF FF FF 9C 68 00 00
 (013.082803)  can1  0CF00300   [8]  D1 00 00 FF FF 0F 6A 7D
 (013.083362)  can1  0CF00203   [8]  C0 00 00 FF F7 00 00 03
 (013.083961)  can1  1CFE9200   [8]  FF 60 7D FF FF FF 00 00
 (013.084547)  can1  0CF00C03   [8]  00 FB 00 00 FF FF FF FF
 (013.088471)  can1  0CF00400   [8]  0E 7D 7D 00 00 00 0F 7D
 (013.092202)  can1  0CF00A00   [8]  00 00 00 00 FF FF FF FF
 (013.092792)  can1  18FD9400   [8]  00 00 FF FF FF FF FF FF
 (013.093362)  can1  0CF00203   [8]  C0 00 00 FF F7 00 00 03
 (013.093951)  can1  18FEFC00   [8]  FF FF FF FF FF FF FF FF
 (013.094523)  can1  18F00E00   [8]  FF FF FF FF FF FF FF FF
 (013.097628)  can1  18FD2000   [8]  C9 26 FF FF FF FF FF FF
 (013.098202)  can1  18F03300   [8]  FF FF FF FF FF FF FF FF
 (013.098761)  can1  18FEDF00   [8]  7D A0 28 7D 7D FF FF F0
 (013.099352)  can1  18F00131   [8]  FF FF FF 3F 00 FF FF FF
 (013.099921)  can1  18FEF131   [8]  F7 FF FF C3 CC FF FF F0
 (013.100513)  can1  18FEF031   [8]  FF FF FF FF FF FC CC FF
 (013.101121)  can1  18FF4831   [8]  00 00 FF FF 00 00 00 00
 (013.101748)  can1  18FEF231   [8]  FF FF FF FF FF FF FF FF
 (013.102311)  can1  0CF00331   [8]  FF FF FF FF FF FF FF FF
 (013.102871)  can1  18FEE000   [8]  73 49 03 00 BC E0 33 00
 (013.103442)  can1  0CF00203   [8]  C0 00 00 FF F7 00 00 03
 (013.104001)  can1  0CF00300   [8]  D1 00 00 FF FF 0F 6A 7D
 (013.104562)  can1  0CF00C03   [8]  00 FB 00 00 FF FF FF FF
 (013.107273)  can1  18FEF200   [8]  00 00 00 00 AA 08 FA FF
 (013.107841)  can1  18F00F00   [8]  FF FF FF FF FF FF FF FF
 (013.108521)  can1  0CF00400   [8]  0E 7D 7D 00 00 00 0F 7D
 (013.112682)  can1  0C010305   [8]  FF FF FF FF FF F3 FF FF
 (013.113272)  can1  0CF00203   [8]  C0 00 00 FF F7 00 00 03
 (013.117629)  can1  18FEDF00   [8]  7D A0 28 7D 7D FF FF F0
 (013.118203)  can1  10FCFD00   [8]  FF FF FF FF 59 51 FF FF
 (013.122232)  can1  18FD3E00   [8]  50 24 FF 69 24 FF FF FF
 (013.122802)  can1  0CF00300   [8]  D1 00 00 FF FF 0F 6A 7D
 (013.123362)  can1  0CF00203   [8]  C0 00 00 FF F7 00 00 03
 (013.123963)  can1  0CF00C03   [8]  00 FB 00 00 FF FF FF FF
 (013.127201)  can1  18F00100   [8]  FF FF FF FF FF FF FF FF
 (013.128472)  can1  0CF00400   [8]  0E 7D 7D 00 00 00 0F 7D
 (013.132873)  can1  0CF00203   [8]  C0 00 00 FF F7 00 00 03
 (013.137672)  can1  18FEDF00   [8]  7D A0 28 7D 7D FF FF F0
 (013.142242)  can1  18FD4000   [8]  FF 3F 00 FF FF FF FF FF
 (013.142802)  can1  0CF00300   [8]  D1 00 00 FF FF 0F 6A 7D
 (013.143361)  can1  0CF00203   [8]  C0 00 00 FF F7 00 00 03
 (013.143962)  can1  0CF00A00   [8]  00 00 00 00 FF FF FF FF
 (013.144553)  can1  0CF00C03   [8]  00 FB 00 00 FF FF FF FF
 (013.145121)  can1  18FEF000   [8]  FF FF FF E0 15 FF FF FF
 (013.145681)  can1  18F00503   [8]  7D 00 00 7D 4E 20 4E 43
 (013.146281)  can1  18F00E00   [8]  FF FF FF FF FF FF FF FF
 (013.146843)  can1  18FE4A03   [8]  03 5F 4F FF FF F3 FF FF
 (013.147441)  can1  18FECA00   [8]  03 FF 00 00 00 00 FF FF
 (013.148031)  can1  18F03300   [8]  FF FF FF FF FF FF FF FF
 (013.148601)  can1  0CF00400   [8]  0E 7D 7D 00 00 00 0F 7D
 (013.149242)  can1  0CF00331   [8]  FF FF FF FF FF FF FF FF
 (013.152242)  can1  18FCF200   [8]  F6 FF FF FF FF FF FF FF
 (013.152881)  can1  0CF00203   [8]  C0 00 00 FF F7 00 00 03
 (013.157628)  can1  18FEDF00   [8]  7D A0 28 7D 7D FF FF F0
 (013.158204)  can1  18F00F00   [8]  FF FF FF FF FF FF FF FF
 (013.162242)  can1  0CF00300   [8]  D1 00 00 FF FF 0F 6A 7D
 (013.162842)  can1  0C010305   [8]  FF FF FF FF FF F3 FF FF
 (013.163402)  can1  0CF00203   [8]  C0 00 00 FF F7 00 00 03
 (013.163962)  can1  18F0010B   [8]  CF FF F0 FF FF DC FF FF
 (013.164562)  can1  0CF00C03   [8]  00 FB 00 00 FF FF FF FF
 (013.165121)  can1  18FEF100   [8]  FF 00 00 FC FF 68 00 CF
 (013.165681)  can1  1CECFF29   [8]  20 13 00 03 FF E1 FE 00
 (013.167242)  can1  18FCC500   [8]  50 24 FF FF FF FF FF FF
 (013.167801)  can1  0CFD9200   [8]  F0 FF FF FF FF FF FF FF
 (013.168521)  can1  0CF00400   [8]  0E 7D 7D 00 00 00 0F 7D
 (013.172201)  can1  10FDA300   [8]  FF FF 46 FF FF FF FF FF
 (013.172762)  can1  18F00029   [8]  F0 7D 7D F3 29 FF FF 3C
 (013.173352)  can1  0CF00203   [8]  C0 00 00 FF F7 00 00 03
 (013.173953)  can1  18FEBF0B   [8]  00 00 7D 7D 7D 7D FF FF
 (013.177673)  can1  18FEDF00   [8]  7D A0 28 7D 7D FF FF F0
 (013.182272)  can1  18FCDC00   [8]  9F FF FF FF 9C 68 00 00
 (013.182842)  can1  0CF00300   [8]  D1 00 00 FF FF 0F 6A 7D
 (013.183402)  can1  0CF00203   [8]  C0 00 00 FF F7 00 00 03
 (013.183993)  can1  1CFE9200   [8]  FF 64 7D FF FF FF 00 00
 (013.184561)  can1  0CF00C03   [8]  00 FB 00 00 FF FF FF FF
 (013.185152)  can1  18FEFF00   [8]  FC C0 FF FF FF FF FF FF
 (013.188482)  can1  0CF00400   [8]  0E 7D 7D 00 00 00 0F 7D
 (013.192223)  can1  0CF00A00   [8]  00 00 00 00 FF FF FF FF
 (013.192812)  can1  18FD9400   [8]  00 00 FF FF FF FF FF FF
 (013.193382)  can1  0CF00203   [8]  C0 00 00 FF F7 00 00 03
 (013.193973)  can1  18FEEF00   [8]  FF FF FF 00 FF 7C FF FA
 (013.194542)  can1  18F00E00   [8]  FF FF FF FF FF FF FF FF
 (013.197652)  can1  18F03300   [8]  FF FF FF FF FF FF FF FF
 (013.198223)  can1  18FEDF00   [8]  7D A0 28 7D 7D FF FF F0
 (013.199262)  can1  18F00131   [8]  FF FF FF 3F 00 FF FF FF
 (013.199822)  can1  18FEF131   [8]  F7 FF FF C3 CC FF FF F0
 (013.200421)  can1  18FEF031   [8]  FF FF FF FF FF FC CC FF
 (013.201021)  can1  18FF4831   [8]  00 00 FF FF 00 00 00 00
 (013.201621)  can1  18FEF231   [8]  FF FF FF FF FF FF FF FF
 (013.202213)  can1  0CF00331   [8]  FF FF FF FF FF FF FF FF
 (013.202773)  can1  18FEE000   [8]  73 49 03 00 BC E0 33 00
 (013.203342)  can1  0CF00203   [8]  C0 00 00 FF F7 00 00 03
 (013.203903)  can1  0CF00300   [8]  D1 00 00 FF FF 0F 6A 7D
 (013.204492)  can1  0CF00C03   [8]  00 FB 00 00 FF FF FF FF
 (013.207261)  can1  18FEF200   [8]  00 00 00 00 AB 08 FA FF
 (013.207861)  can1  18F00F00   [8]  FF FF FF FF FF FF FF FF
 (013.208542)  can1  0CF00400   [8]  0E 7D 7D 00 00 00 0F 7D
 (013.212221)  can1  18FEDB00   [8]  FF FF 80 00 FF FF FF FF
 (013.212822)  can1  0C010305   [8]  FF FF FF FF FF F3 FF FF
 (013.213381)  can1  0CF00203   [8]  C0 00 00 FF F7 00 00 03
 (013.213941)  can1  1CEBFF29   [8]  01 14 01 38 18 3C 40 51
 (013.217622)  can1  18FEDF00   [8]  7D A0 28 7D 7D FF FF F0
 (013.218213)  can1  10FCFD00   [8]  FF FF FF FF 59 51 FF FF
 (013.222262)  can1  0CF00300   [8]  D1 00 00 FF FF 0F 6A 7D
 (013.222941)  can1  0CF00203   [8]  C0 00 00 FF F7 00 00 03
 (013.223541)  can1  0CF00C03   [8]  00 FB 00 00 FF FF FF FF
 (013.227222)  can1  18F00100   [8]  FF FF FF FF FF FF FF FF
 (013.228462)  can1  0CF00400   [8]  0E 7D 7D 00 00 00 0F 7D
 (013.232221)  can1  18FEF600   [8]  FF 00 39 FF FF FF FF FF
 (013.232861)  can1  0CF00203   [8]  C0 00 00 FF F7 00 00 03
 (013.237661)  can1  18FEDF00   [8]  7D A0 28 7D 7D FF FF F0
 (013.242222)  can1  0CF00300   [8]  D1 00 00 FF FF 0F 6A 7D
 (013.242822)  can1  0CF00A00   [8]  00 00 00 00 FF FF FF FF
 (013.243383)  can1  0CF00203   [8]  C0 00 00 FF F7 00 00 03
 (013.243982)  can1  18FEF000   [8]  FF FF FF E0 15 FF FF FF
 (013.244572)  can1  0CF00C03   [8]  00 FB 00 00 FF FF FF FF
 (013.245141)  can1  18F00E00   [8]  FF FF FF FF FF FF FF FF
 (013.245702)  can1  18F00503   [8]  7D 00 00 7D 4E 20 4E 43
 (013.246391)  can1  18FE4A03   [8]  03 5F 4F FF FF F3 FF FF
 (013.247308)  can1  18F03300   [8]  FF FF FF FF FF FF FF FF
 (013.248522)  can1  0CF00400   [8]  0E 7D 7D 00 00 00 0F 7D
 (013.249242)  can1  0CF00331   [8]  FF FF FF FF FF FF FF FF
 (013.252242)  can1  18FCF200   [8]  FA FF FF FF FF FF FF FF
 (013.252873)  can1  0CF00203   [8]  C0 00 00 FF F7 00 00 03
 (013.257634)  can1  18FEDF00   [8]  7D A0 28 7D 7D FF FF F0
 (013.258203)  can1  18FDC600   [8]  FC 04 FF FF FF FF FF FF
 (013.258803)  can1  18F00F00   [8]  FF FF FF FF FF FF FF FF
 (013.262272)  can1  0CF00300   [8]  D1 00 00 FF FF 0F 6A 7D
 (013.262842)  can1  0C010305   [8]  FF FF FF FF FF F3 FF FF
 (013.263402)  can1  0CF00203   [8]  C0 00 00 FF F7 00 00 03
 (013.263992)  can1  18F0010B   [8]  CF FF F0 FF FF DC FF FF
 (013.264561)  can1  0CF00C03   [8]  00 FB 00 00 FF FF FF FF
 (013.265122)  can1  18FEF100   [8]  FF 00 00 FC FF 68 00 CF
 (013.268481)  can1  0CF00400   [8]  0E 7D 7D 00 00 00 0F 7D
 (013.269042)  can1  1CEBFF29   [8]  02 2A D0 3A 33 80 4C 2C
 (013.272203)  can1  10FDA300   [8]  FF FF 3E FF FF FF FF FF
 (013.272808)  can1  18F00029   [8]  F0 7D 7D F3 29 FF FF 3C
 (013.273341)  can1  0CF00203   [8]  C0 00 00 FF F7 00 00 03
 (013.273943)  can1  18FEBF0B   [8]  00 00 7D 7D 7D 7D FF FF
 (013.277662)  can1  18FEDF00   [8]  7D A0 28 7D 7D FF FF F0
 (013.282262)  can1  18FCDC00   [8]  9F FF FF FF 9C 68 00 00
 (013.282822)  can1  0CF00300   [8]  D1 00 00 FF FF 0F 6A 7D
 (013.283381)  can1  0CF00203   [8]  C0 00 00 FF F7 00 00 03
 (013.283981)  can1  1CFE9200   [8]  FF 58 7D FF FF FF 00 00
 (013.284563)  can1  0CF00C03   [8]  00 FB 00 00 FF FF FF FF
 (013.288482)  can1  0CF00400   [8]  0E 7D 7D 00 00 00 0F 7D
 (013.292202)  can1  0CF00A00   [8]  00 00 00 00 FF FF FF FF
 (013.292802)  can1  18FD9400   [8]  00 00 FF FF FF FF FF FF
 (013.293361)  can1  0CF00203   [8]  C0 00 00 FF F7 00 00 03
 (013.293961)  can1  18F00E00   [8]  FF FF FF FF FF FF FF FF
 (013.297633)  can1  18F03300   [8]  FF FF FF FF FF FF FF FF
 (013.298201)  can1  18FEDF00   [8]  7D A0 28 7D 7D FF FF F0
 (013.299242)  can1  18F00131   [8]  FF FF FF 3F 00 FF FF FF
 (013.299833)  can1  18FEF131   [8]  F7 FF FF C3 CC FF FF F0
 (013.300401)  can1  18FEF031   [8]  FF FF FF FF FF FC CC FF
 (013.301033)  can1  18FF4831   [8]  00 00 FF FF 00 00 00 00
 (013.301602)  can1  18FEF231   [8]  FF FF FF FF FF FF FF FF
 (013.302201)  can1  0CF00331   [8]  FF FF FF FF FF FF FF FF
 (013.302761)  can1  18FEE000   [8]  73 49 03 00 BC E0 33 00
 (013.303363)  can1  0CF00203   [8]  C0 00 00 FF F7 00 00 03
 (013.303911)  can1  0CF00300   [8]  D1 00 00 FF FF 0F 6A 7D
 (013.304481)  can1  0CF00C03   [8]  00 FB 00 00 FF FF FF FF
 (013.307282)  can1  18FEF200   [8]  00 00 00 00 AA 08 FA FF
 (013.307881)  can1  18F00F00   [8]  FF FF FF FF FF FF FF FF
 (013.308561)  can1  0CF00400   [8]  0E 7D 7D 00 00 00 0F 7D
 (013.312712)  can1  0C010305   [8]  FF FF FF FF FF F3 FF FF
 (013.313281)  can1  0CF00203   [8]  C0 00 00 FF F7 00 00 03
 (013.317633)  can1  18FEDF00   [8]  7D A0 28 7D 7D FF FF F0
 (013.318202)  can1  10FCFD00   [8]  FF FF FF FF 59 51 FF FF
 (013.322273)  can1  0CF00300   [8]  D1 00 00 FF FF 0F 6A 7D
 (013.322921)  can1  0CF00203   [8]  C0 00 00 FF F7 00 00 03
 (013.323562)  can1  0CF00C03   [8]  00 FB 00 00 FF FF FF FF
 (013.324521)  can1  1CEBFF29   [8]  03 40 51 C2 01 2A FF FF
 (013.327242)  can1  18F00100   [8]  FF FF FF FF FF FF FF FF
 (013.328479)  can1  0CF00400   [8]  0E 7D 7D 00 00 00 0F 7D
 (013.332873)  can1  0CF00203   [8]  C0 00 00 FF F7 00 00 03
 (013.337682)  can1  18FEDF00   [8]  7D A0 28 7D 7D FF FF F0
 (013.342242)  can1  0CF00300   [8]  D1 00 00 FF FF 0F 6A 7D
 (013.342842)  can1  0CF00A00   [8]  00 00 00 00 FF FF FF FF
 (013.343401)  can1  0CF00203   [8]  C0 00 00 FF F7 00 00 03
 (013.344001)  can1  18FEF000   [8]  FF FF FF E0 15 FF FF FF
 (013.344561)  can1  0CF00C03   [8]  00 FB 00 00 FF FF FF FF
 (013.345162)  can1  18F00E00   [8]  FF FF FF FF FF FF FF FF
 (013.345721)  can1  18F00503   [8]  7D 00 00 7D 4E 20 4E 43
 (013.346321)  can1  18FE4A03   [8]  03 5F 4F FF FF F3 FF FF
 (013.347281)  can1  18F03300   [8]  FF FF FF FF FF FF FF FF
 (013.348552)  can1  0CF00400   [8]  0E 7D 7D 00 00 00 0F 7D
 (013.349271)  can1  0CF00331   [8]  FF FF FF FF FF FF FF FF
 (013.352241)  can1  18FCF200   [8]  FA FF FF FF FF FF FF FF
 (013.352871)  can1  0CF00203   [8]  C0 00 00 FF F7 00 00 03
 (013.357643)  can1  18FEDF00   [8]  7D A0 28 7D 7D FF FF F0
 (013.358232)  can1  18F00F00   [8]  FF FF FF FF FF FF FF FF
 (013.362283)  can1  0CF00300   [8]  D1 00 00 FF FF 0F 6A 7D
 (013.362882)  can1  0C010305   [8]  FF FF FF FF FF F3 FF FF
 (013.363472)  can1  0CF00203   [8]  C0 00 00 FF F7 00 00 03
 (013.364032)  can1  18FEF100   [8]  FF 00 00 FC FF 68 00 CF
 (013.364602)  can1  0CF00C03   [8]  00 FB 00 00 FF FF FF FF
 (013.365161)  can1  18F0010B   [8]  CF FF F0 FF FF DC FF FF
 (013.368479)  can1  0CF00400   [8]  0E 7D 7D 00 00 00 0F 7D
 (013.372241)  can1  10FDA300   [8]  FF FF 36 FF FF FF FF FF
 (013.372802)  can1  18F00029   [8]  F0 7D 7D F3 29 FF FF 3C
 (013.373393)  can1  0CF00203   [8]  C0 00 00 FF F7 00 00 03
 (013.374081)  can1  18FEBF0B   [8]  00 00 7D 7D 7D 7D FF FF
 (013.377681)  can1  18FEDF00   [8]  7D A0 28 7D 7D FF FF F0
 (013.382281)  can1  18FCDC00   [8]  9F FF FF FF 9C 68 00 00
 (013.382841)  can1  0CF00300   [8]  D1 00 00 FF FF 0F 6A 7D
 (013.383433)  can1  0CF00203   [8]  C0 00 00 FF F7 00 00 03
 (013.384002)  can1  1CFE9200   [8]  FF 60 7D FF FF FF 00 00
 (013.384592)  can1  0CF00C03   [8]  00 FB 00 00 FF FF FF FF
 (013.388482)  can1  0CF00400   [8]  0E 7D 7D 00 00 00 0F 7D
 (013.392241)  can1  0CF00A00   [8]  00 00 00 00 FF FF FF FF
 (013.392832)  can1  18FD9400   [8]  00 00 FF FF FF FF FF FF
 (013.393433)  can1  0CF00203   [8]  C0 00 00 FF F7 00 00 03
 (013.393993)  can1  18F00E00   [8]  FF FF FF FF FF FF FF FF
 (013.397649)  can1  18F03300   [8]  FF FF FF FF FF FF FF FF
 (013.398223)  can1  18FEDF00   [8]  7D A0 28 7D 7D FF FF F0
 (013.399263)  can1  18F00131   [8]  FF FF FF 3F 00 FF FF FF
 (013.399822)  can1  18FEF131   [8]  F7 FF FF C3 CC FF FF F0
 (013.400422)  can1  18FEF031   [8]  FF FF FF FF FF FC CC FF
 (013.401023)  can1  18FF4831   [8]  00 00 FF FF 00 00 00 00
 (013.401621)  can1  18FEF231   [8]  FF FF FF FF FF FF FF FF
 (013.402221)  can1  0CF00331   [8]  FF FF FF FF FF FF FF FF
 (013.402781)  can1  18FEE000   [8]  73 49 03 00 BC E0 33 00
 (013.403342)  can1  0CF00203   [8]  C0 00 00 FF F7 00 00 03
 (013.403901)  can1  0CF00300   [8]  D1 00 00 FF FF 0F 6A 7D
 (013.404501)  can1  0CF00C03   [8]  00 FB 00 00 FF FF FF FF
 (013.407302)  can1  18FEF200   [8]  00 00 00 00 AA 08 FA FF
 (013.407892)  can1  18F00F00   [8]  FF FF FF FF FF FF FF FF
 (013.408582)  can1  0CF00400   [8]  0E 7D 7D 00 00 00 0F 7D
 (013.412742)  can1  0C010305   [8]  FF FF FF FF FF F3 FF FF
 (013.413302)  can1  0CF00203   [8]  C0 00 00 FF F7 00 00 03
 (013.417622)  can1  18FEDF00   [8]  7D A0 28 7D 7D FF FF F0
 (013.418252)  can1  10FCFD00   [8]  FF FF FF FF 80 51 FF FF
 (013.418822)  can1  0CFD9200   [8]  F0 FF FF FF FF FF FF FF
 (013.422262)  can1  0CF00300   [8]  D1 00 00 FF FF 0F 6A 7D
 (013.422941)  can1  0CF00203   [8]  C0 00 00 FF F7 00 00 03
 (013.423542)  can1  0CF00C03   [8]  00 FB 00 00 FF FF FF FF
 (013.427262)  can1  18F00100   [8]  FF FF FF FF FF FF FF FF
 (013.428481)  can1  0CF00400   [8]  0E 7D 7D 00 00 00 0F 7D
 (013.432863)  can1  0CF00203   [8]  C0 00 00 FF F7 00 00 03
 (013.437703)  can1  18FEDF00   [8]  7D A0 28 7D 7D FF FF F0
 (013.442263)  can1  0CF00300   [8]  D1 00 00 FF FF 0F 6A 7D
 (013.442853)  can1  0CF00A00   [8]  00 00 00 00 FF FF FF FF
 (013.443452)  can1  0CF00203   [8]  C0 00 00 FF F7 00 00 03
 (013.444012)  can1  18FEF000   [8]  FF FF FF E0 15 FF FF FF
 (013.444583)  can1  0CF00C03   [8]  00 FB 00 00 FF FF FF FF
 (013.445182)  can1  18F00E00   [8]  FF FF FF FF FF FF FF FF
 (013.445732)  can1  18F00503   [8]  7D 00 00 7D 4E 20 4E 43
 (013.446343)  can1  18FE4A03   [8]  03 5F 4F FF FF F3 FF FF
 (013.447302)  can1  18F03300   [8]  FF FF FF FF FF FF FF FF
 (013.448562)  can1  0CF00400   [8]  0E 7D 7D 00 00 00 0F 7D
 (013.449242)  can1  0CF00331   [8]  FF FF FF FF FF FF FF FF
 (013.452242)  can1  18FCF200   [8]  FA FF FF FF FF FF FF FF
 (013.452873)  can1  0CF00203   [8]  C0 00 00 FF F7 00 00 03
 (013.457673)  can1  18FEDF00   [8]  7D A0 28 7D 7D FF FF F0
 (013.458273)  can1  18F00F00   [8]  FF FF FF FF FF FF FF FF
 (013.462308)  can1  18FD0700   [8]  57 0C FC FF FF FF FF FF
 (013.462882)  can1  0C010305   [8]  FF FF FF FF FF F3 FF FF
 (013.463442)  can1  0CF00203   [8]  C0 00 00 FF F7 00 00 03
 (013.464003)  can1  0CF00300   [8]  D1 00 00 FF FF 0F 6A 7D
 (013.464608)  can1  0CF00C03   [8]  00 FB 00 00 FF FF FF FF
 (013.465173)  can1  18F0010B   [8]  CF FF F0 FF FF DC FF FF
 (013.465741)  can1  18FEF100   [8]  FF 00 00 FC FF 68 00 CF
 (013.468547)  can1  0CF00400   [8]  0E 7D 7D 00 00 00 0F 7D
 (013.472242)  can1  10FDA300   [8]  FF FF 2D FF FF FF FF FF
 (013.472802)  can1  18F00029   [8]  F0 7D 7D F3 29 FF FF 3C
 (013.473389)  can1  0CF00203   [8]  C0 00 00 FF F7 00 00 03
 (013.474313)  can1  18FEBF0B   [8]  00 00 7D 7D 7D 7D FF FF
 (013.477681)  can1  18FEDF00   [8]  7D A0 28 7D 7D FF FF F0
 (013.482282)  can1  18FCDC00   [8]  9F FF FF FF 9C 68 00 00
 (013.482841)  can1  0CF00300   [8]  D1 00 00 FF FF 0F 6A 7D
 (013.483402)  can1  0CF00203   [8]  C0 00 00 FF F7 00 00 03
 (013.484001)  can1  1CFE9200   [8]  FF 48 7D FF FF FF 00 00
 (013.484589)  can1  0CF00C03   [8]  00 FB 00 00 FF FF FF FF
 (013.488512)  can1  0CF00400   [8]  0E 7D 7D 00 00 00 0F 7D
 (013.492232)  can1  14FC9800   [8]  FF 00 00 00 00 00 00 FF
 (013.492802)  can1  0CF00A00   [8]  00 00 00 00 FF FF FF FF
 (013.493393)  can1  0CF00203   [8]  C0 00 00 FF F7 00 00 03
 (013.493962)  can1  18FD9400   [8]  00 00 FF FF FF FF FF FF
 (013.494560)  can1  18F00E00   [8]  FF FF FF FF FF FF FF FF
 (013.497668)  can1  18F03300   [8]  FF FF FF FF FF FF FF FF
 (013.498233)  can1  18FEDF00   [8]  7D A0 28 7D 7D FF FF F0
 (013.499241)  can1  18F00131   [8]  FF FF FF 3F 00 FF FF FF
 (013.499842)  can1  18FEF131   [8]  F7 FF FF C3 CC FF FF F0
 (013.500403)  can1  18FEF031   [8]  FF FF FF FF FF FC CC FF
 (013.501031)  can1  18FF4831   [8]  00 00 FF FF 00 00 00 00
 (013.501631)  can1  18FEF231   [8]  FF FF FF FF FF FF FF FF
 (013.502230)  can1  0CF00331   [8]  FF FF FF FF FF FF FF FF
 (013.502791)  can1  18FEE000   [8]  73 49 03 00 BC E0 33 00
 (013.503361)  can1  0CF00203   [8]  C0 00 00 FF F7 00 00 03
 (013.503921)  can1  0CF00300   [8]  D1 00 00 FF FF 0F 6A 7D
 (013.504483)  can1  0CF00C03   [8]  00 FB 00 00 FF FF FF FF
 (013.507283)  can1  18FDB400   [8]  C3 26 59 25 FF FF FF FF
 (013.507842)  can1  18FEF200   [8]  00 00 00 00 AA 08 FA FF
 (013.508442)  can1  18F00F00   [8]  FF FF FF FF FF FF FF FF
 (013.509033)  can1  0CF00400   [8]  0E 7D 7D 00 00 00 0F 7D
 (013.512752)  can1  0C010305   [8]  FF FF FF FF FF F3 FF FF
 (013.513322)  can1  0CF00203   [8]  C0 00 00 FF F7 00 00 03
 (013.517642)  can1  18FEDF00   [8]  7D A0 28 7D 7D FF FF F0
 (013.518242)  can1  10FCFD00   [8]  FF FF FF FF 80 51 FF FF
 (013.522282)  can1  0CF00300   [8]  D1 00 00 FF FF 0F 6A 7D
 (013.522921)  can1  0CF00203   [8]  C0 00 00 FF F7 00 00 03
 (013.523561)  can1  0CF00C03   [8]  00 FB 00 00 FF FF FF FF
 (013.527273)  can1  18F00100   [8]  FF FF FF FF FF FF FF FF
 (013.528523)  can1  0CF00400   [8]  0E 7D 7D 00 00 00 0F 7D
 (013.532242)  can1  18FDB300   [8]  FF FF 69 24 FF FF FF FF
 (013.532872)  can1  0CF00203   [8]  C0 00 00 FF F7 00 00 03
 (013.537713)  can1  18FEDF00   [8]  7D A0 28 7D 7D FF FF F0
 (013.542274)  can1  0CF00300   [8]  D1 00 00 FF FF 0F 6A 7D
 (013.542871)  can1  0CF00A00   [8]  00 00 00 00 FF FF FF FF
 (013.543441)  can1  0CF00203   [8]  C0 00 00 FF F7 00 00 03
 (013.544002)  can1  18FEF000   [8]  FF FF FF E0 15 FF FF FF
 (013.544597)  can1  0CF00C03   [8]  00 FB 00 00 FF FF FF FF
 (013.545193)  can1  18F00E00   [8]  FF FF FF FF FF FF FF FF
 (013.545753)  can1  18F00503   [8]  7D 00 00 7D 4E 20 4E 43
 (013.546362)  can1  18FE4A03   [8]  03 5F 4F FF FF F3 FF FF
 (013.547321)  can1  18F03300   [8]  FF FF FF FF FF FF FF FF
 (013.548562)  can1  0CF00400   [8]  0E 7D 7D 00 00 00 0F 7D
 (013.549271)  can1  0CF00331   [8]  FF FF FF FF FF FF FF FF
 (013.552242)  can1  18FDB200   [8]  FF FF FF FF 06 00 FF FF
 (013.552842)  can1  18FCF200   [8]  FA FF FF FF FF FF FF FF
 (013.553431)  can1  0CF00203   [8]  C0 00 00 FF F7 00 00 03
 (013.557674)  can1  18FEDF00   [8]  7D A0 28 7D 7D FF FF F0
 (013.558243)  can1  18F00F00   [8]  FF FF FF FF FF FF FF FF
 (013.562281)  can1  0CF00300   [8]  D1 00 00 FF FF 0F 6A 7D
 (013.562881)  can1  0C010305   [8]  FF FF FF FF FF F3 FF FF
 (013.563442)  can1  0CF00203   [8]  C0 00 00 FF F7 00 00 03
 (013.564030)  can1  18FEF100   [8]  FF 00 00 FC FF 68 00 CF
 (013.564598)  can1  0CF00C03   [8]  00 FB 00 00 FF FF FF FF
 (013.565162)  can1  18F0010B   [8]  CF FF F0 FF FF DC FF FF
 (013.568522)  can1  0CF00400   [8]  0E 7D 7D 00 00 00 0F 7D
 (013.572243)  can1  10FDA300   [8]  FF FF 27 FF FF FF FF FF
 (013.572831)  can1  18F00029   [8]  F0 7D 7D F3 29 FF FF 3C
 (013.573402)  can1  0CF00203   [8]  C0 00 00 FF F7 00 00 03
 (013.574512)  can1  18FEBF0B   [8]  00 00 7D 7D 7D 7D FF FF
 (013.577682)  can1  18FD8C00   [8]  FF FF 00 00 FF FF FF FF
 (013.578282)  can1  18FEDF00   [8]  7D A0 28 7D 7D FF FF F0
 (013.582321)  can1  18FCDC00   [8]  9F FF FF FF 9C 68 00 00
 (013.582882)  can1  0CF00203   [8]  C0 00 00 FF F7 00 00 03
 (013.583442)  can1  0CF00300   [8]  D1 00 00 FF FF 0F 6A 7D
 (013.584032)  can1  0CF00C03   [8]  00 FB 00 00 FF FF FF FF
 (013.584599)  can1  1CFE9200   [8]  FF 60 7D FF FF FF 00 00
 (013.588522)  can1  0CF00400   [8]  0E 7D 7D 00 00 00 0F 7D
 (013.592271)  can1  0CF00A00   [8]  00 00 00 00 FF FF FF FF
 (013.592868)  can1  18FD9400   [8]  00 00 FF FF FF FF FF FF
 (013.593433)  can1  0CF00203   [8]  C0 00 00 FF F7 00 00 03
 (013.594027)  can1  18F00E00   [8]  FF FF FF FF FF FF FF FF
 (013.597673)  can1  18FD2000   [8]  C3 26 FF FF FF FF FF FF
 (013.598242)  can1  18F03300   [8]  FF FF FF FF FF FF FF FF
 (013.598833)  can1  18FEDF00   [8]  7D A0 28 7D 7D FF FF F0
 (013.599401)  can1  18F00131   [8]  FF FF FF 3F 00 FF FF FF
 (013.599991)  can1  18E0FF31   [8]  FA FF FF FF FF F0 FF FF
 (013.600562)  can1  18FEF131   [8]  F7 FF FF C3 CC FF FF F0
 (013.601141)  can1  18FEF031   [8]  FF FF FF FF FF FC CC FF
 (013.601733)  can1  18FEFC31   [8]  FF 33 FF FF FF FF 00 FF
 (013.602301)  can1  18FEAE31   [8]  FF FF 05 01 FF FF FF FF
 (013.602862)  can1  18FEE000   [8]  73 49 03 00 BC E0 33 00
 (013.603451)  can1  0CF00203   [8]  C0 00 00 FF F7 00 00 03
 (013.604012)  can1  0CF00300   [8]  D1 00 00 FF FF 0F 6A 7D
 (013.604593)  can1  0CF00C03   [8]  00 FB 00 00 FF FF FF FF
 (013.605160)  can1  18FEF731   [8]  FF FF FF FF ED 00 FF FF
 (013.605762)  can1  18FF4831   [8]  00 00 FF FF 00 00 00 00
 (013.606361)  can1  18FD8331   [8]  F8 FF FF FF FF FF FF FF
 (013.606961)  can1  18FEF831   [8]  FF FF FF FF FF FF FF FF
 (013.607552)  can1  18FEF200   [8]  00 00 00 00 AA 08 FA FF
 (013.608121)  can1  18F00F00   [8]  FF FF FF FF FF FF FF FF
 (013.608712)  can1  18FEF231   [8]  FF FF FF FF FF FF FF FF
 (013.609282)  can1  0CF00400   [8]  0E 7D 7D 00 00 00 0F 7D
 (013.609842)  can1  18FEFA31   [8]  FF 09 02 FF FF FF FF FF
 (013.610442)  can1  18FEC131   [8]  5F F2 10 05 FF FF FF FF
 (013.611041)  can1  0CF00331   [8]  FF FF FF FF FF FF FF FF
 (013.612723)  can1  0C010305   [8]  FF FF FF FF FF F3 FF FF
 (013.613312)  can1  0CF00203   [8]  C0 00 00 FF F7 00 00 03
 (013.617672)  can1  18FEDF00   [8]  7D A0 28 7D 7D FF FF F0
 (013.618241)  can1  10FCFD00   [8]  FF FF FF FF 80 51 FF FF
 (013.622295)  can1  18FD3E00   [8]  4C 24 FF 69 24 FF FF FF
 (013.622842)  can1  0CF00300   [8]  D1 00 00 FF FF 0F 6A 7D
 (013.623432)  can1  0CF00203   [8]  C0 00 00 FF F7 00 00 03
 (013.624040)  can1  0CF00C03   [8]  00 FB 00 00 FF FF FF FF
 (013.627283)  can1  18F00100   [8]  FF FF FF FF FF FF FF FF
 (013.628522)  can1  0CF00400   [8]  0E 7D 7D 00 00 00 0F 7D
 (013.632873)  can1  0CF00203   [8]  C0 00 00 FF F7 00 00 03
 (013.637722)  can1  18FEDF00   [8]  7D A0 28 7D 7D FF FF F0
 (013.642281)  can1  18FD4000   [8]  FF 3F 00 FF FF FF FF FF
 (013.642871)  can1  0CF00300   [8]  D1 00 00 FF FF 0F 6A 7D
 (013.643441)  can1  0CF00203   [8]  C0 00 00 FF F7 00 00 03
 (013.644030)  can1  0CF00A00   [8]  00 00 00 00 FF FF FF FF
 (013.644597)  can1  0CF00C03   [8]  00 FB 00 00 FF FF FF FF
 (013.645192)  can1  18FEF000   [8]  FF FF FF E0 15 FF FF FF
 (013.645751)  can1  18F00503   [8]  7D 00 00 7D 4E 20 4E 43
 (013.646321)  can1  18F00E00   [8]  FF FF FF FF FF FF FF FF
 (013.646911)  can1  18FE4A03   [8]  03 5F 4F FF FF F3 FF FF
 (013.647483)  can1  18F03300   [8]  FF FF FF FF FF FF FF FF
 (013.648072)  can1  18FD9503   [8]  CC FF FF BB FF FF FF FF
 (013.648641)  can1  0CF00400   [8]  0E 7D 7D 00 00 00 0F 7D
 (013.649203)  can1  18FEF803   [8]  FF FF FF FF 14 24 FF FF
 (013.649832)  can1  0CF00331   [8]  FF FF FF FF FF FF FF FF
 (013.652390)  can1  18FCF200   [8]  FA FF FF FF FF FF FF FF
 (013.652953)  can1  0CF00203   [8]  C0 00 00 FF F7 00 00 03
 (013.657708)  can1  18FEDF00   [8]  7D A0 28 7D 7D FF FF F0
 (013.658272)  can1  18F00F00   [8]  FF FF FF FF FF FF FF FF
 (013.662303)  can1  0CF00300   [8]  D1 00 00 FF FF 0F 6A 7D
 (013.662902)  can1  0C010305   [8]  FF FF FF FF FF F3 FF FF
 (013.663462)  can1  0CF00203   [8]  C0 00 00 FF F7 00 00 03
 (013.664021)  can1  18FEF100   [8]  FF 00 00 FC FF 68 00 CF
 (013.664603)  can1  0CF00C03   [8]  00 FB 00 00 FF FF FF FF
 (013.665192)  can1  18F0010B   [8]  CF FF F0 FF FF DC FF FF
 (013.667312)  can1  18FCC500   [8]  4C 24 FF FF FF FF FF FF
 (013.667872)  can1  0CFD9200   [8]  F0 FF FF FF FF FF FF FF
 (013.668561)  can1  0CF00400   [8]  0E 7D 7D 00 00 00 0F 7D
 (013.672272)  can1  10FDA300   [8]  FF FF 26 FF FF FF FF FF
 (013.672833)  can1  18F00029   [8]  F0 7D 7D F3 29 FF FF 3C
 (013.673402)  can1  0CF00203   [8]  C0 00 00 FF F7 00 00 03
 (013.674023)  can1  18FECA03   [8]  00 FF 00 00 00 00 FF FF
 (013.674732)  can1  18FEBF0B   [8]  00 00 7D 7D 7D 7D FF FF
 (013.677743)  can1  18FEDF00   [8]  7D A0 28 7D 7D FF FF F0
 (013.682332)  can1  18FCDC00   [8]  9F FF FF FF 9C 68 00 00
 (013.682888)  can1  0CF00203   [8]  C0 00 00 FF F7 00 00 03
 (013.683451)  can1  0CF00300   [8]  D1 00 00 FF FF 0F 6A 7D
 (013.684021)  can1  0CF00C03   [8]  00 FB 00 00 FF FF FF FF
 (013.684636)  can1  1CFE9200   [8]  FF 58 7D FF FF FF 00 00
 (013.688523)  can1  0CF00400   [8]  0E 7D 7D 00 00 00 0F 7D
 (013.692274)  can1  0CF00A00   [8]  00 00 00 00 FF FF FF FF
 (013.692841)  can1  18FD9400   [8]  00 00 FF FF FF FF FF FF
 (013.693433)  can1  0CF00203   [8]  C0 00 00 FF F7 00 00 03
 (013.694001)  can1  18FEEF00   [8]  FF FF FF 00 FF 7C FF FA
 (013.694633)  can1  18F00E00   [8]  FF FF FF FF FF FF FF FF
 (013.697682)  can1  18F03300   [8]  FF FF FF FF FF FF FF FF
 (013.698282)  can1  18FEDF00   [8]  7D A0 28 7D 7D FF FF F0
 (013.699242)  can1  18F00131   [8]  FF FF FF 3F 00 FF FF FF
 (013.699842)  can1  18FEF131   [8]  F7 FF FF C3 CC FF FF F0
 (013.700432)  can1  18FEF031   [8]  FF FF FF FF FF FC CC FF
 (013.701032)  can1  18FF4831   [8]  00 00 FF FF 00 00 00 00
 (013.701631)  can1  18FEF231   [8]  FF FF FF FF FF FF FF FF
 (013.702202)  can1  0CF00331   [8]  FF FF FF FF FF FF FF FF
 (013.702762)  can1  18FEE000   [8]  73 49 03 00 BC E0 33 00
 (013.703352)  can1  0CF00203   [8]  C0 00 00 FF F7 00 00 03
 (013.703921)  can1  0CF00300   [8]  D1 00 00 FF FF 0F 6A 7D
 (013.704482)  can1  0CF00C03   [8]  00 FB 00 00 FF FF FF FF
 (013.707322)  can1  18FEF200   [8]  00 00 00 00 AA 08 FA FF
 (013.707922)  can1  18F00F00   [8]  FF FF FF FF FF FF FF FF
 (013.708602)  can1  0CF00400   [8]  0E 7D 7D 00 00 00 0F 7D
 (013.712282)  can1  18FEDB00   [8]  FF FF 8A 00 FF FF FF FF
 (013.712873)  can1  0C010305   [8]  FF FF FF FF FF F3 FF FF
 (013.713441)  can1  0CF00203   [8]  C0 00 00 FF F7 00 00 03
 (013.717682)  can1  18FEDF00   [8]  7D A0 28 7D 7D FF FF F0
 (013.718282)  can1  10FCFD00   [8]  FF FF FF FF 80 51 FF FF
 (013.722312)  can1  0CF00300   [8]  D1 00 00 FF FF 0F 6A 7D
 (013.722881)  can1  0CF00203   [8]  C0 00 00 FF F7 00 00 03
 (013.723481)  can1  0CF00C03   [8]  00 FB 00 00 FF FF FF FF
 (013.727282)  can1  18F00100   [8]  FF FF FF FF FF FF FF FF
 (013.728551)  can1  0CF00400   [8]  0E 7D 7D 00 00 00 0F 7D
 (013.732282)  can1  18FEF600   [8]  FF 00 39 FF FF FF FF FF
 (013.732872)  can1  0CF00203   [8]  C0 00 00 FF F7 00 00 03
 (013.737752)  can1  18FEDF00   [8]  7D A0 28 7D 7D FF FF F0
 (013.742281)  can1  0CF00300   [8]  D1 00 00 FF FF 0F 6A 7D
 (013.742881)  can1  0CF00A00   [8]  00 00 00 00 FF FF FF FF
 (013.743471)  can1  0CF00203   [8]  C0 00 00 FF F7 00 00 03
 (013.744040)  can1  18FEF000   [8]  FF FF FF E0 15 FF FF FF
 (013.744633)  can1  0CF00C03   [8]  00 FB 00 00 FF FF FF FF
 (013.745202)  can1  18F00E00   [8]  FF FF FF FF FF FF FF FF
 (013.745761)  can1  18F00503   [8]  7D 00 00 7D 4E 20 4E 43
 (013.746393)  can1  18FE4A03   [8]  03 1F 4F FF FF F3 FF FF
 (013.747322)  can1  18F03300   [8]  FF FF FF FF FF FF FF FF
 (013.748593)  can1  0CF00400   [8]  0E 7D 7D 00 00 00 0F 7D
 (013.749274)  can1  0CF00331   [8]  FF FF FF FF FF FF FF FF
 (013.752313)  can1  18FCF200   [8]  FA FF FF FF FF FF FF FF
 (013.752881)  can1  0CF00203   [8]  C0 00 00 FF F7 00 00 03
 (013.757683)  can1  18FEDF00   [8]  7D A0 28 7D 7D FF FF F0
 (013.758282)  can1  18FDC600   [8]  FC 04 FF FF FF FF FF FF
 (013.758872)  can1  18F00F00   [8]  FF FF FF FF FF FF FF FF
 (013.762323)  can1  0CF00300   [8]  D1 00 00 FF FF 0F 6A 7D
 (013.762911)  can1  0C010305   [8]  FF FF FF FF FF F3 FF FF
 (013.763482)  can1  0CF00203   [8]  C0 00 00 FF F7 00 00 03
 (013.764041)  can1  18FEF100   [8]  FF 00 00 FC FF 68 00 CF
 (013.764633)  can1  0CF00C03   [8]  00 FB 00 00 FF FF FF FF
 (013.765193)  can1  18F0010B   [8]  CF FF F0 FF FF DC FF FF
 (013.768553)  can1  0CF00400   [8]  0E 7D 7D 00 00 00 0F 7D
 (013.772283)  can1  10FDA300   [8]  FF FF 26 FF FF FF FF FF
 (013.772842)  can1  18F00029   [8]  F0 7D 7D F3 29 FF FF 3C
 (013.773434)  can1  0CF00203   [8]  C0 00 00 FF F7 00 00 03
 (013.774963)  can1  18FEBF0B   [8]  00 00 7D 7D 7D 7D FF FF
 (013.777753)  can1  18FEDF00   [8]  7D A0 28 7D 7D FF FF F0
 (013.782322)  can1  18FCDC00   [8]  9F FF FF FF 9C 68 00 00
 (013.782912)  can1  0CF00203   [8]  C0 00 00 FF F7 00 00 03
 (013.783481)  can1  0CF00300   [8]  D1 00 00 FF FF 0F 6A 7D
 (013.784041)  can1  0CF00C03   [8]  00 FB 00 00 FF FF FF FF
 (013.784634)  can1  1CFE9200   [8]  FF 54 7D FF FF FF 00 00
 (013.785202)  can1  18FECA0B   [8]  04 FF 00 00 00 00 FF FF
 (013.788593)  can1  0CF00400   [8]  0E 7D 7D 00 00 00 0F 7D
 (013.792282)  can1  0CF00A00   [8]  00 00 00 00 FF FF FF FF
 (013.792882)  can1  18FD9400   [8]  00 00 FF FF FF FF FF FF
 (013.793441)  can1  0CF00203   [8]  C0 00 00 FF F7 00 00 03
 (013.794042)  can1  18F00E00   [8]  FF FF FF FF FF FF FF FF
 (013.797682)  can1  18F03300   [8]  FF FF FF FF FF FF FF FF
 (013.798281)  can1  18FEDF00   [8]  7D A0 28 7D 7D FF FF F0
 (013.799273)  can1  18F00131   [8]  FF FF FF 3F 00 FF FF FF
 (013.799842)  can1  18FEF131   [8]  F7 FF FF C3 CC FF FF F0
 (013.800442)  can1  18FEF031   [8]  FF FF FF FF FF FC CC FF
 (013.801040)  can1  18FF4831   [8]  00 00 FF FF 00 00 00 00
 (013.801642)  can1  18FEF231   [8]  FF FF FF FF FF FF FF FF
 (013.802233)  can1  0CF00331   [8]  FF FF FF FF FF FF FF FF
 (013.802801)  can1  18FEF700   [8]  FF FF FF FF ED 00 FF FF
 (013.803390)  can1  0CF00203   [8]  C0 00 00 FF F7 00 00 03
 (013.803952)  can1  18FEE000   [8]  73 49 03 00 BC E0 33 00
 (013.804522)  can1  0CF00C03   [8]  00 FB 00 00 FF FF FF FF
 (013.805081)  can1  0CF00300   [8]  D1 00 00 FF FF 0F 6A 7D
 (013.807322)  can1  18FEF200   [8]  00 00 00 00 AB 08 FA FF
 (013.807922)  can1  18F00F00   [8]  FF FF FF FF FF FF FF FF
 (013.808632)  can1  0CF00400   [8]  0E 7D 7D 00 00 00 0F 7D
 (013.812762)  can1  0C010305   [8]  FF FF FF FF FF F3 FF FF
 (013.813321)  can1  0CF00203   [8]  C0 00 00 FF F7 00 00 03
 (013.817682)  can1  18FEDF00   [8]  7D A0 28 7D 7D FF FF F0
 (013.818281)  can1  10FCFD00   [8]  FF FF FF FF 80 51 FF FF
 (013.822311)  can1  18FEC100   [8]  5F F2 10 05 4F 2C 52 00
 (013.822881)  can1  0CF00203   [8]  C0 00 00 FF F7 00 00 03
 (013.823441)  can1  0CF00300   [8]  D1 00 00 FF FF 0F 6A 7D
 (013.824031)  can1  0CF00C03   [8]  00 FB 00 00 FF FF FF FF
 (013.827312)  can1  18F00100   [8]  FF FF FF FF FF FF FF FF
 (013.828553)  can1  0CF00400   [8]  0E 7D 7D 00 00 00 0F 7D
 (013.832881)  can1  0CF00203   [8]  C0 00 00 FF F7 00 00 03
 (013.837753)  can1  18FEDF00   [8]  7D A0 28 7D 7D FF FF F0
 (013.842321)  can1  0CF00300   [8]  D1 00 00 FF FF 0F 6A 7D
 (013.842881)  can1  0CF00203   [8]  C0 00 00 FF F7 00 00 03
 (013.843481)  can1  0CF00A00   [8]  00 00 00 00 FF FF FF FF
 (013.844073)  can1  0CF00C03   [8]  00 FB 00 00 FF FF FF FF
 (013.844641)  can1  18FEF000   [8]  FF FF FF E0 15 FF FF FF
 (013.845202)  can1  18F00503   [8]  7D 00 00 7D 4E 20 4E 43
 (013.845793)  can1  18F00E00   [8]  FF FF FF FF FF FF FF FF
 (013.846361)  can1  18FE4A03   [8]  03 1F 4F FF FF F3 FF FF
 (013.847323)  can1  18FE5600   [8]  97 35 FF FF 1F 1F 00 FF
 (013.847921)  can1  18F03300   [8]  FF FF FF FF FF FF FF FF
 (013.848641)  can1  0CF00400   [8]  0E 7D 7D 00 00 00 0F 7D
 (013.849272)  can1  0CF00331   [8]  FF FF FF FF FF FF FF FF
 (013.852312)  can1  18FCF200   [8]  FA FF FF FF FF FF FF FF
 (013.852881)  can1  0CF00203   [8]  C0 00 00 FF F7 00 00 03
 (013.857722)  can1  18FEDF00   [8]  7D A0 28 7D 7D FF FF F0
 (013.858314)  can1  18F00F00   [8]  FF FF FF FF FF FF FF FF
 (013.862322)  can1  0CF00300   [8]  D1 00 00 FF FF 0F 6A 7D
 (013.862922)  can1  0C010305   [8]  FF FF FF FF FF F3 FF FF
 (013.863481)  can1  0CF00203   [8]  C0 00 00 FF F7 00 00 03
 (013.864068)  can1  18FEF100   [8]  FF 00 00 FC FF 68 00 CF
 (013.864642)  can1  0CF00C03   [8]  00 FB 00 00 FF FF FF FF
 (013.865202)  can1  18F0010B   [8]  CF FF F0 FF FF DC FF FF
 (013.867322)  can1  18FD7B00   [8]  00 FF E6 77 00 00 82 37
 (013.868593)  can1  0CF00400   [8]  0E 7D 7D 00 00 00 0F 7D
 (013.872312)  can1  10FDA300   [8]  FF FF 26 FF FF FF FF FF
 (013.872908)  can1  0CF00203   [8]  C0 00 00 FF F7 00 00 03
 (013.873442)  can1  18F00029   [8]  F0 7D 7D F3 29 FF FF 3C
 (013.875192)  can1  18FEBF0B   [8]  00 00 7D 7D 7D 7D FF FF
 (013.877722)  can1  18FEDF00   [8]  7D A0 28 7D 7D FF FF F0
 (013.882347)  can1  18FCDC00   [8]  9F FF FF FF 9C 68 00 00
 (013.882921)  can1  0CF00203   [8]  C0 00 00 FF F7 00 00 03
 (013.883481)  can1  0CF00300   [8]  D1 00 00 FF FF 0F 6A 7D
 (013.884042)  can1  0CF00C03   [8]  00 FB 00 00 FF FF FF FF
 (013.884668)  can1  1CFE9200   [8]  FF 5C 7D FF FF FF 00 00
 (013.888562)  can1  0CF00400   [8]  0E 7D 7D 00 00 00 0F 7D
 (013.892282)  can1  0CF00A00   [8]  00 00 00 00 FF FF FF FF
 (013.892881)  can1  0CF00203   [8]  C0 00 00 FF F7 00 00 03
 (013.893441)  can1  18FD9400   [8]  00 00 FF FF FF FF FF FF
 (013.894041)  can1  18FEDD00   [8]  FF 00 00 FF FF FF FF FF
 (013.894641)  can1  18F00E00   [8]  FF FF FF FF FF FF FF FF
 (013.897713)  can1  18F03300   [8]  FF FF FF FF FF FF FF FF
 (013.898282)  can1  18FEDF00   [8]  7D A0 28 7D 7D FF FF F0
 (013.899272)  can1  18F00131   [8]  FF FF FF 3F 00 FF FF FF
 (013.899842)  can1  18FEF131   [8]  F7 FF FF C3 CC FF FF F0
 (013.900432)  can1  18FEF031   [8]  FF FF FF FF FF FC CC FF
 (013.901041)  can1  18FF4831   [8]  00 00 FF FF 00 00 00 00
 (013.901632)  can1  18FEF231   [8]  FF FF FF FF FF FF FF FF
 (013.902231)  can1  0CF00331   [8]  FF FF FF FF FF FF FF FF
 (013.902791)  can1  18FEE000   [8]  73 49 03 00 BC E0 33 00
 (013.903361)  can1  0CF00203   [8]  C0 00 00 FF F7 00 00 03
 (013.903921)  can1  0CF00300   [8]  D1 00 00 FF FF 0F 6A 7D
 (013.904512)  can1  0CF00C03   [8]  00 FB 00 00 FF FF FF FF
 (013.907362)  can1  18FEF200   [8]  00 00 00 00 AA 08 FA FF
 (013.907952)  can1  18F00F00   [8]  FF FF FF FF FF FF FF FF
 (013.908633)  can1  0CF00400   [8]  0E 7D 7D 00 00 00 0F 7D
 (013.912350)  can1  18FEE400   [8]  FF 3F FC FD 00 7F FF FF
 (013.912881)  can1  0C010305   [8]  FF FF FF FF FF F3 FF FF
 (013.913472)  can1  0CF00203   [8]  C0 00 00 FF F7 00 00 03
 (013.917722)  can1  18FEDF00   [8]  7D A0 28 7D 7D FF FF F0
 (013.918312)  can1  10FCFD00   [8]  FF FF FF FF 80 51 FF FF
 (013.918881)  can1  0CFD9200   [8]  F0 FF FF FF FF FF FF FF
 (013.922321)  can1  0CF00300   [8]  D1 00 00 FF FF 0F 6A 7D
 (013.922912)  can1  0CF00203   [8]  C0 00 00 FF F7 00 00 03
 (013.923521)  can1  0CF00C03   [8]  00 FB 00 00 FF FF FF FF
 (013.927321)  can1  18F00100   [8]  FF FF FF FF FF FF FF FF
 (013.928562)  can1  0CF00400   [8]  0E 7D 7D 00 00 00 0F 7D
 (013.932872)  can1  0CF00203   [8]  C0 00 00 FF F7 00 00 03
 (013.937761)  can1  18FEDF00   [8]  7D A0 28 7D 7D FF FF F0
 (013.942321)  can1  0CF00300   [8]  D1 00 00 FF FF 0F 6A 7D
 (013.942911)  can1  0CF00203   [8]  C0 00 00 FF F7 00 00 03
 (013.943481)  can1  0CF00A00   [8]  00 00 00 00 FF FF FF FF
 (013.944081)  can1  0CF00C03   [8]  00 FB 00 00 FF FF FF FF
 (013.944668)  can1  18FEF000   [8]  FF FF FF E0 15 FF FF FF
 (013.945202)  can1  18F00503   [8]  7D 00 00 7D 4E 20 4E 43
 (013.945801)  can1  18FEBD00   [8]  00 F0 FF FF FF FF FF FF
 (013.946392)  can1  18F00E00   [8]  FF FF FF FF FF FF FF FF
 (013.946962)  can1  18FE4A03   [8]  03 1F 4F FF FF F3 FF FF
 (013.947553)  can1  18F03300   [8]  FF FF FF FF FF FF FF FF
 (013.948632)  can1  0CF00400   [8]  0E 7D 7D 00 00 00 0F 7D
 (013.949272)  can1  0CF00331   [8]  FF FF FF FF FF FF FF FF
 (013.949872)  can1  18FECA31   [8]  00 FF 00 00 00 00 FF FF
 (013.952392)  can1  18FCF200   [8]  FA FF FF FF FF FF FF FF
 (013.952961)  can1  0CF00203   [8]  C0 00 00 FF F7 00 00 03
 (013.957722)  can1  18FEDF00   [8]  7D A0 28 7D 7D FF FF F0
 (013.958322)  can1  18E0FF00   [8]  00 FF FF FF FF FF FF FF
 (013.958922)  can1  18F00F00   [8]  FF FF FF FF FF FF FF FF
 (013.962362)  can1  18FD0700   [8]  47 0C FC FF FF FF FF FF
 (013.962961)  can1  0C010305   [8]  FF FF FF FF FF F3 FF FF
 (013.963553)  can1  0CF00203   [8]  C0 00 00 FF F7 00 00 03
 (013.964081)  can1  0CF00300   [8]  D1 00 00 FF FF 0F 6A 7D
 (013.964683)  can1  0CF00C03   [8]  00 FB 00 00 FF FF FF FF
 (013.965242)  can1  18FEF100   [8]  FF 00 00 FC FF 68 00 CF
 (013.965802)  can1  18F0010B   [8]  CF FF F0 FF FF DC FF FF
 (013.967353)  can1  18FEEE00   [8]  37 FF FF FF FF FF FF FF
 (013.968602)  can1  0CF00400   [8]  0E 7D 7D 00 00 00 0F 7D
 (013.972471)  can1  10FDA300   [8]  FF FF 26 FF FF FF FF FF
 (013.972883)  can1  0CF00203   [8]  C0 00 00 FF F7 00 00 03
 (013.973474)  can1  18F00029   [8]  F0 7D 7D F3 29 FF FF 3C
 (013.975402)  can1  18FEBF0B   [8]  00 00 7D 7D 7D 7D FF FF
 (013.977762)  can1  18FEDF00   [8]  7D A0 28 7D 7D FF FF F0
 (013.982361)  can1  18FCDC00   [8]  9F FF FF FF 9C 68 00 00
 (013.982921)  can1  0CF00203   [8]  C0 00 00 FF F7 00 00 03
 (013.983511)  can1  0CF00300   [8]  D1 00 00 FF FF 0F 6A 7D
 (013.984081)  can1  0CF00C03   [8]  00 FB 00 00 FF FF FF FF
 (013.984668)  can1  1CFE9200   [8]  FF 64 7D FF FF FF 00 00
 (013.985231)  can1  18FEF500   [8]  AA FF FF 4F 25 FF FF FF
 (013.988563)  can1  0CF00400   [8]  0E 7D 7D 00 00 00 0F 7D
 (013.992282)  can1  14FC9800   [8]  FF 00 00 00 00 00 00 FF
 (013.992881)  can1  0CF00A00   [8]  00 00 00 00 FF FF FF FF
 (013.993472)  can1  0CF00203   [8]  C0 00 00 FF F7 00 00 03
 (013.994042)  can1  18FD9400   [8]  00 00 FF FF FF FF FF FF
 (013.994641)  can1  18F00E00   [8]  FF FF FF FF FF FF FF FF
 (013.997721)  can1  18F03300   [8]  FF FF FF FF FF FF FF FF
 (013.998312)  can1  18FEDF00   [8]  7D A0 28 7D 7D FF FF F0
 (013.999272)  can1  18F00131   [8]  FF FF FF 3F 00 FF FF FF
 (013.999841)  can1  18FEF131   [8]  F7 FF FF C3 CC FF FF F0
 (014.000442)  can1  18FEF031   [8]  FF FF FF FF FF FC CC FF
 (014.001041)  can1  18F11031   [8]  00 00 FF FF FF FF FF FF
 (014.001641)  can1  18FF4831   [8]  00 00 FF FF 00 00 00 00
 (014.002241)  can1  18FEF231   [8]  FF FF FF FF FF FF FF FF
 (014.002801)  can1  18FEE000   [8]  73 49 03 00 BC E0 33 00
 (014.003361)  can1  0CF00203   [8]  C0 00 00 FF F7 00 00 03
 (014.003921)  can1  0CF00300   [8]  D1 00 00 FF FF 0F 6A 7D
 (014.004513)  can1  0CF00331   [8]  FF FF FF FF FF FF FF FF
 (014.005081)  can1  0CF00C03   [8]  00 FB 00 00 FF FF FF FF
 (014.005670)  can1  18FEA400   [8]  FF FF 1D 24 FF FF 3B 24
 (014.007362)  can1  18FDB400   [8]  C3 26 59 25 FF FF FF FF
 (014.007961)  can1  18FEF200   [8]  00 00 00 00 AA 08 FA FF
 (014.008552)  can1  18F00F00   [8]  FF FF FF FF FF FF FF FF
 (014.009122)  can1  0CF00400   [8]  0E 7D 7D 00 00 00 0F 7D
 (014.012762)  can1  0C010305   [8]  FF FF FF FF FF F3 FF FF
 (014.013352)  can1  0CF00203   [8]  C0 00 00 FF F7 00 00 03
 (014.017722)  can1  18FEDF00   [8]  7D A0 28 7D 7D FF FF F0
 (014.018312)  can1  10FCFD00   [8]  FF FF FF FF 80 51 FF FF
 (014.022352)  can1  0CF00300   [8]  D1 00 00 FF FF 0F 6A 7D
 (014.022921)  can1  0CF00203   [8]  C0 00 00 FF F7 00 00 03
 (014.023523)  can1  0CF00C03   [8]  00 FB 00 00 FF FF FF FF
 (014.027322)  can1  18FD7C00   [8]  F8 83 01 00 C3 1F 03 FF
 (014.027908)  can1  18F00100   [8]  FF FF FF FF FF FF FF FF
 (014.028602)  can1  0CF00400   [8]  0E 7D 7D 00 00 00 0F 7D
 (014.032312)  can1  18FDB300   [8]  FF FF 69 24 FF FF FF FF
 (014.032882)  can1  0CF00203   [8]  C0 00 00 FF F7 00 00 03
 (014.037761)  can1  18FEDF00   [8]  7D A0 28 7D 7D FF FF F0
 (014.042321)  can1  0CF00300   [8]  D1 00 00 FF FF 0F 6A 7D
 (014.042913)  can1  0CF00203   [8]  C0 00 00 FF F7 00 00 03
 (014.043481)  can1  0CF00A00   [8]  00 00 00 00 FF FF FF FF
 (014.044081)  can1  0CF00C03   [8]  00 FB 00 00 FF FF FF FF
 (014.044673)  can1  18FEF000   [8]  FF FF FF E0 15 FF FF FF
 (014.045202)  can1  18F00503   [8]  7D 00 00 7D 4E 20 4E 43
 (014.045802)  can1  18F00E00   [8]  FF FF FF FF FF FF FF FF
 (014.046363)  can1  18FE4A03   [8]  03 1F 4F FF FF F3 FF FF
 (014.047361)  can1  18F03300   [8]  FF FF FF FF FF FF FF FF
 (014.047961)  can1  18FE9A00   [8]  77 24 FF FF FF FF FF FF
 (014.048682)  can1  0CF00400   [8]  0E 7D 7D 00 00 00 0F 7D
 (014.049281)  can1  0CF00331   [8]  FF FF FF FF FF FF FF FF
 (014.052350)  can1  18FDB200   [8]  FF FF FF FF 06 00 FF FF
 (014.052881)  can1  0CF00203   [8]  C0 00 00 FF F7 00 00 03
 (014.053481)  can1  18FCF200   [8]  FA FF FF FF FF FF FF FF
 (014.057722)  can1  18FEDF00   [8]  7D A0 28 7D 7D FF FF F0
 (014.058323)  can1  18F00F00   [8]  FF FF FF FF FF FF FF FF
 (014.062362)  can1  0CF00300   [8]  D1 00 00 FF FF 0F 6A 7D
 (014.062953)  can1  0C010305   [8]  FF FF FF FF FF F3 FF FF
 (014.063521)  can1  0CF00203   [8]  C0 00 00 FF F7 00 00 03
 (014.064081)  can1  18FEF100   [8]  FF 00 00 FC FF 68 00 CF
 (014.064673)  can1  0CF00C03   [8]  00 FB 00 00 FF FF FF FF
 (014.065603)  can1  18F0010B   [8]  CF FF F0 FF FF DC FF FF
 (014.068563)  can1  0CF00400   [8]  0E 7D 7D 00 00 00 0F 7D
 (014.072351)  can1  10FDA300   [8]  FF FF 26 FF FF FF FF FF
 (014.072881)  can1  0CF00203   [8]  C0 00 00 FF F7 00 00 03
 (014.073481)  can1  18FE9900   [8]  FF FF FF FF FF FF FF FF
 (014.074041)  can1  18F00029   [8]  F0 7D 7D F3 29 FF FF 3C
 (014.075641)  can1  18FEBF0B   [8]  00 00 7D 7D 7D 7D FF FF
 (014.077761)  can1  18FD8C00   [8]  FF FF 00 00 FF FF FF FF
 (014.078322)  can1  18FEDF00   [8]  7D A0 28 7D 7D FF FF F0
 (014.082361)  can1  18FCDC00   [8]  9F FF FF FF 9C 68 00 00
 (014.082921)  can1  0CF00203   [8]  C0 00 00 FF F7 00 00 03
 (014.083481)  can1  0CF00300   [8]  D1 00 00 FF FF 0F 6A 7D
 (014.084081)  can1  0CF00C03   [8]  00 FB 00 00 FF FF FF FF
 (014.084642)  can1  1CFE9200   [8]  FF 58 7D FF FF FF 00 00
 (014.088592)  can1  0CF00400   [8]  0E 7D 7D 00 00 00 0F 7D
 (014.092350)  can1  0CF00A00   [8]  00 00 00 00 FF FF FF FF
 (014.092881)  can1  0CF00203   [8]  C0 00 00 FF F7 00 00 03
 (014.093482)  can1  18FD9400   [8]  00 00 FF FF FF FF FF FF
 (014.094073)  can1  18FEFC00   [8]  FF FF FF FF FF FF FF FF
 (014.094643)  can1  18F00E00   [8]  FF FF FF FF FF FF FF FF
 (014.097721)  can1  18FD2000   [8]  C3 26 FF FF FF FF FF FF
 (014.098321)  can1  18F03300   [8]  FF FF FF FF FF FF FF FF
 (014.098912)  can1  18FEDF00   [8]  7D A0 28 7D 7D FF FF F0
 (014.099481)  can1  18F00131   [8]  FF FF FF 3F 00 FF FF FF
 (014.100042)  can1  18FEF131   [8]  F7 FF FF C3 CC FF FF F0
 (014.100641)  can1  18FEF031   [8]  FF FF FF FF FF FC CC FF
 (014.101241)  can1  18FF4831   [8]  00 00 FF FF 00 00 00 00
 (014.101841)  can1  18FEF231   [8]  FF FF FF FF FF FF FF FF
 (014.102441)  can1  0CF00331   [8]  FF FF FF FF FF FF FF FF
 (014.103001)  can1  0CF00203   [8]  C0 00 00 FF F7 00 00 03
 (014.103561)  can1  18FEE000   [8]  73 49 03 00 BC E0 33 00
 (014.104121)  can1  0CF00300   [8]  D1 00 00 FF FF 0F 6A 7D
 (014.104723)  can1  0CF00C03   [8]  00 FB 00 00 FF FF FF FF
 (014.107392)  can1  18FEF200   [8]  00 00 00 00 AA 08 FA FF
 (014.107962)  can1  18F00F00   [8]  FF FF FF FF FF FF FF FF
 (014.108673)  can1  0CF00400   [8]  0E 7D 7D 00 00 00 0F 7D
 (014.112802)  can1  0C010305   [8]  FF FF FF FF FF F3 FF FF
 (014.113361)  can1  0CF00203   [8]  C0 00 00 FF F7 00 00 03
 (014.117752)  can1  18FEDF00   [8]  7D A0 28 7D 7D FF FF F0
 (014.118322)  can1  10FCFD00   [8]  FF FF FF FF 90 51 FF FF
 (014.122353)  can1  18FD3E00   [8]  4C 24 FF 70 24 FF FF FF
 (014.122922)  can1  0CF00203   [8]  C0 00 00 FF F7 00 00 03
 (014.123481)  can1  0CF00300   [8]  D1 00 00 FF FF 0F 6A 7D
 (014.124072)  can1  0CF00C03   [8]  00 FB 00 00 FF FF FF FF
 (014.127352)  can1  18F00100   [8]  FF FF FF FF FF FF FF FF
 (014.128591)  can1  0CF00400   [8]  0E 7D 7D 00 00 00 0F 7D
 (014.132883)  can1  0CF00203   [8]  C0 00 00 FF F7 00 00 03
 (014.137763)  can1  18FEDF00   [8]  7D A0 28 7D 7D FF FF F0
 (014.142361)  can1  18FD4000   [8]  FF 3F 00 FF FF FF FF FF
 (014.142919)  can1  0CF00203   [8]  C0 00 00 FF F7 00 00 03
 (014.143481)  can1  0CF00300   [8]  D1 00 00 FF FF 0F 6A 7D
 (014.144081)  can1  0CF00A00   [8]  00 00 00 00 FF FF FF FF
 (014.144673)  can1  0CF00C03   [8]  00 FB 00 00 FF FF FF FF
 (014.145272)  can1  18FEF000   [8]  FF FF FF E0 15 FF FF FF
 (014.145802)  can1  18F00503   [8]  7D 00 00 7D 4E 20 4E 43
 (014.146401)  can1  18F00E00   [8]  FF FF FF FF FF FF FF FF
 (014.146961)  can1  18FE4A03   [8]  03 1F 4F FF FF F3 FF FF
 (014.147561)  can1  18FECA00   [8]  03 FF 00 00 00 00 FF FF
 (014.148152)  can1  18F03300   [8]  FF FF FF FF FF FF FF FF
 (014.148721)  can1  0CF00400   [8]  0E 7D 7D 00 00 00 0F 7D
 (014.149311)  can1  0CF00331   [8]  FF FF FF FF FF FF FF FF
 (014.152392)  can1  18FCF200   [8]  FA FF FF FF FF FF FF FF
 (014.152988)  can1  0CF00203   [8]  C0 00 00 FF F7 00 00 03
 (014.157752)  can1  18FEDF00   [8]  7D A0 28 7D 7D FF FF F0
 (014.158322)  can1  18F00F00   [8]  FF FF FF FF FF FF FF FF
 (014.162362)  can1  0CF00300   [8]  D1 00 00 FF FF 0F 6A 7D
 (014.162963)  can1  0C010305   [8]  FF FF FF FF FF F3 FF FF
 (014.163522)  can1  0CF00203   [8]  C0 00 00 FF F7 00 00 03
 (014.164082)  can1  18FEF100   [8]  FF 00 00 FC FF 68 00 CF
 (014.164682)  can1  0CF00C03   [8]  00 FB 00 00 FF FF FF FF
 (014.165832)  can1  18F0010B   [8]  CF FF F0 FF FF DC FF FF
 (014.167352)  can1  18FCC500   [8]  4C 24 FF FF FF FF FF FF
 (014.167922)  can1  0CFD9200   [8]  F0 FF FF FF FF FF FF FF
 (014.168641)  can1  0CF00400   [8]  0E 7D 7D 00 00 00 0F 7D
 (014.172351)  can1  10FDA300   [8]  FF FF 26 FF FF FF FF FF
 (014.172912)  can1  0CF00203   [8]  C0 00 00 FF F7 00 00 03
 (014.173472)  can1  18F00029   [8]  F0 7D 7D F3 29 FF FF 3C
 (014.175842)  can1  18FEBF0B   [8]  00 00 7D 7D 7D 7D FF FF
 (014.177802)  can1  18FEDF00   [8]  7D A0 28 7D 7D FF FF F0
 (014.182393)  can1  18FCDC00   [8]  9F FF FF FF 9C 68 00 00
 (014.182962)  can1  0CF00203   [8]  C0 00 00 FF F7 00 00 03
 (014.183521)  can1  0CF00300   [8]  D1 00 00 FF FF 0F 6A 7D
 (014.184112)  can1  0CF00C03   [8]  00 FB 00 00 FF FF FF FF
 (014.184683)  can1  1CFE9200   [8]  FF 5C 7D FF FF FF 00 00
 (014.188602)  can1  0CF00400   [8]  0E 7D 7D 00 00 00 0F 7D
 (014.192351)  can1  0CF00A00   [8]  00 00 00 00 FF FF FF FF
 (014.192912)  can1  0CF00203   [8]  C0 00 00 FF F7 00 00 03
 (014.193481)  can1  18FD9400   [8]  00 00 FF FF FF FF FF FF
 (014.194073)  can1  18FEEF00   [8]  FF FF FF 00 FF 7C FF FA
