(1682544435.763237) can1 18EEFF00#0000004005000000
(1682544436.012653) can1 0CF00400#F87D7D000000F07D
(1682544436.022290) can1 0CF00400#F87D7D000000F07D
(1682544436.025023) can1 18FDA100#00FE000000000FFF
(1682544436.025639) can1 18FFB000#7F7F7F7F7F7FFFFF
(1682544436.026254) can1 18FE9400#0000004000000000
(1682544436.026873) can1 18FD9400#0000FFFF0000FFFF
(1682544436.027476) can1 18FE6900#201CFFFFFFFF201D
(1682544436.028104) can1 18FEFF00#FCFFFFFFFFFFFFFF
(1682544436.032383) can1 0CF00400#F87D7D000000F07D
(1682544436.042374) can1 0CF00400#F87D7D000000F07D
(1682544436.052624) can1 0CF00400#F87D7D000000F07D
(1682544436.062390) can1 0CF00400#F87D7D000000F07D
(1682544436.072405) can1 0CF00400#F87D7D000000F07D
(1682544436.082363) can1 0CF00400#F87D7D000000F07D
(1682544436.092621) can1 0CF00400#F87D7D000000F07D
(1682544436.102418) can1 0CF00400#F87D7D000000F07D
(1682544436.112408) can1 0CF00400#F87D7D000000F07D
(1682544436.122362) can1 0CF00400#F87D7D000000F07D
(1682544436.132615) can1 0CF00400#F87D7D000000F07D
(1682544436.142407) can1 0CF00400#F87D7D000000F07D
(1682544436.152421) can1 0CF00400#F87D7D000000F07D
(1682544436.162391) can1 0CF00400#F87D7D000000F07D
(1682544436.172598) can1 0CF00400#F87D7D000000F07D
(1682544436.182400) can1 0CF00400#F87D7D000000F07D
(1682544436.192414) can1 0CF00400#F87D7D000000F07D
(1682544436.202365) can1 0CF00400#F87D7D000000F07D
(1682544436.212605) can1 0CF00400#F87D7D000000F07D
(1682544436.222410) can1 0CF00400#F87D7D000000F07D
(1682544436.232404) can1 0CF00400#F87D7D000000F07D
(1682544436.242380) can1 0CF00400#F87D7D000000F07D
(1682544436.252566) can1 18ECFF00#20270006FFE3FE00
(1682544436.253168) can1 0CF00400#F87D7D000000F07D
(1682544436.262385) can1 0CF00400#F87D7D000000F07D
(1682544436.272428) can1 0CF00400#F87D7D000000F07D
(1682544436.282382) can1 0CF00400#F87D7D000000F07D
(1682544436.292617) can1 0CF00400#F87D7D000000F07D
(1682544436.302335) can1 18EBFF00#01C01297103B9800
(1682544436.302938) can1 0CF00400#F87D7D000000F07D
(1682544436.312406) can1 0CF00400#F87D7D000000F07D
(1682544436.322363) can1 0CF00400#F87D7D000000F07D
(1682544436.332610) can1 0CF00400#F87D7D000000F07D
(1682544436.342431) can1 0CF00400#F87D7D000000F07D
(1682544436.352348) can1 18EBFF00#02199D401F9DC02B
(1682544436.352953) can1 0CF00400#F87D7D000000F07D
(1682544436.362379) can1 0CF00400#F87D7D000000F07D
(1682544436.372608) can1 0CF00400#F87D7D000000F07D
(1682544436.382404) can1 0CF00400#F87D7D000000F07D
(1682544436.392447) can1 0CF00400#F87D7D000000F07D
(1682544436.402339) can1 18EBFF00#039E7017FFFA8B08
(1682544436.402939) can1 0CF00400#F87D7D000000F07D
(1682544436.412613) can1 0CF00400#F87D7D000000F07D
(1682544436.422391) can1 0CF00400#F87D7D000000F07D
(1682544436.432409) can1 0CF00400#F87D7D000000F07D
(1682544436.442385) can1 0CF00400#F87D7D000000F07D
(1682544436.452584) can1 18EBFF00#04D052333CDC7DB0
(1682544436.453166) can1 0CF00400#F87D7D000000F07D
(1682544436.462411) can1 0CF00400#F87D7D000000F07D
(1682544436.472406) can1 0CF00400#F87D7D000000F07D
(1682544436.482367) can1 0CF00400#F87D7D000000F07D
(1682544436.492608) can1 0CF00400#F87D7D000000F07D
(1682544436.502340) can1 18EBFF00#05FFFF3D010000FF
(1682544436.502942) can1 0CF00400#F87D7D000000F07D
(1682544436.512401) can1 0CF00400#F87D7D000000F07D
(1682544436.522383) can1 0CF00400#F87D7D000000F07D
(1682544436.525474) can1 18FD9400#0000FFFF0000FFFF
(1682544436.526089) can1 0CF00300#D10000FFFFFF00FF
(1682544436.526687) can1 18FEDF00#8300FEFE7D0000FF
(1682544436.527293) can1 18F00E00#FFFF325BFFFFFFFF
(1682544436.527913) can1 10FE6F00#FFFFFFFFFFFFFFFF
(1682544436.528524) can1 18FEF500#A7FFFF201D00FFFF
(1682544436.529138) can1 18FD6500#00FEFFFFFFFEFFFF
(1682544436.529750) can1 18FDB200#031AFFFF0000FFFF
(1682544436.530366) can1 18E0FF00#FAFFFFFFFFFFFFFF
(1682544436.530967) can1 18FEF100#F3000000FF001FC5
(1682544436.531578) can1 18FEEE00#00FFA02EFFFFFFFF
(1682544436.532192) can1 18FD7C00#F8B30000C1CFE3FF
(1682544436.532795) can1 0CF00400#F87D7D000000F07D
(1682544436.533408) can1 18FE9600#0CFAFFFFFFFFFFFF
(1682544436.534023) can1 0CF00A00#FFFF0000FFFFFFFF
(1682544436.534636) can1 18EFFF00#FFFFFFFF00011980
(1682544436.535251) can1 18FD7C00#F8B34000C1CFE3FF
(1682544436.535857) can1 18FF3500#FFFFFF00FFFEFFFF
(1682544436.536474) can1 18FDB400#FFFF031AFFFFFFFF
(1682544436.537065) can1 18FDB300#031A031AFFFFFFFF
(1682544436.537685) can1 18FF9A00#0100000000F0FFFF
(1682544436.538293) can1 10FCFD00#FFFFFFFF2964FFFF
(1682544436.538909) can1 18FEA400#FFFFFFFFFFFFE01B
(1682544436.539517) can1 18FE9A00#FFFF201CFFFFFFFF
(1682544436.540127) can1 10F01A00#3007FFFF0000B004
(1682544436.540756) can1 18FF1800#00FFFFFFFFFFFFFF
(1682544436.541369) can1 18F00100#FFFFFFCFFFFFFFFF
(1682544436.541972) can1 18FEEF00#FEFFFFFE8080FFFA
(1682544436.542579) can1 0CF00400#F87D7D000000F07D
(1682544436.543199) can1 18FD6600#FEFFFFFFFFFFFFFF
(1682544436.543833) can1 18FEF200#000000FEFFFF00FF
(1682544436.544440) can1 18FDD000#FFFFFFFFFAFFFFFF
(1682544436.545034) can1 18FF9B00#FFF0F0FFFE00FEF2
(1682544436.545644) can1 18FEE400#007FFFFD007FFFFF
(1682544436.546224) can1 18FEC100#4CD9D102285C8F02
(1682544436.546837) can1 18FEF700#FFFFFFFFFFFFF100
(1682544436.547461) can1 18FF3800#000000FFFF3EFFFF
(1682544436.548079) can1 10FD5200#FFFFFFFA00FFFFFF
(1682544436.548693) can1 10FCE300#FA0000FFFFFFFFFF
(1682544436.549310) can1 18FEDB00#FFFF00FEFFFFFFFF
(1682544436.549929) can1 18FEBD00#00F00000FFFFFFFF
(1682544436.550546) can1 18FEF000#FFFFFF0000C0FFFF
(1682544436.551162) can1 18FD2000#00FE00FEFFFFFFFF
(1682544436.551782) can1 18FDA100#00FE000000000FFF
(1682544436.552411) can1 18FE9400#0000003F00000000
(1682544436.553014) can1 0CF00400#F87D7D000000F07D
(1682544436.553635) can1 18EBFF00#06FFFFFFFFFFFFFF
(1682544436.555523) can1 18F00E00#FFFF325BFFFFFFFF
(1682544436.556132) can1 0CF00300#D10000FFFFFF00FF
(1682544436.556743) can1 0CF00A00#FFFF0000FFFFFFFF
(1682544436.557355) can1 18EFFF00#FFFFFFFF00011980
(1682544436.557964) can1 10F01A00#3007FFFF0000B004
(1682544436.562366) can1 0CF00400#F87D7D000000F07D
(1682544436.572613) can1 0CF00400#F87D7D000000F07D
(1682544436.582415) can1 0CF00400#F87D7D000000F07D
(1682544436.592417) can1 0CF00400#F87D7D000000F07D
(1682544436.602369) can1 0CF00400#F87D7D000000F07D
(1682544436.603140) can1 18F00E00#FFFF325BFFFFFFFF
(1682544436.603745) can1 0CF00300#D10000FFFFFF00FF
(1682544436.604362) can1 0CF00A00#FFFF0000FFFFFFFF
(1682544436.604972) can1 18EFFF00#FFFFFFFF00011980
(1682544436.605581) can1 10F01A00#3007FFFF0000B004
(1682544436.612607) can1 0CF00400#F87D7D000000F07D
(1682544436.622393) can1 0CF00400#F87D7D000000F07D
(1682544436.625220) can1 10FE6F00#FFFFFFFFFFFFFFFF
(1682544436.625834) can1 18FF3500#FFFFFF00FFFEFFFF
(1682544436.626459) can1 18FF1800#00FFFFFFFFFFFFFF
(1682544436.627062) can1 18FEF100#F3000010FF001FC5
(1682544436.627679) can1 18F00100#FFFFFFCFFFFFFFFF
(1682544436.628302) can1 10FCE300#FE0000FFFFFFFFFF
(1682544436.628916) can1 18FD9400#0000FFFF0000FFFF
(1682544436.629524) can1 10FCFD00#FFFFFFFF2964FFFF
(1682544436.630135) can1 18FEF200#000000FEFFFF00FF
(1682544436.630740) can1 18FEF600#FAFAFEFEFF001FFF
(1682544436.631364) can1 18FF5000#FFFFFFCFFFFFFFFF
(1682544436.631980) can1 18FEF000#FFFFFF0000C0FFFF
(1682544436.632589) can1 0CF00400#F87D7D000000F07D
(1682544436.633206) can1 18FE9900#FFFFFFFAFFFFFFFF
(1682544436.633817) can1 18FE9600#0CFAFFFFFFFFFFFF
(1682544436.634429) can1 18FE5600#00FFFFFF1F1FFFFF
(1682544436.642384) can1 0CF00400#F87D7D000000F07D
(1682544436.652617) can1 0CF00400#F87D7D000000F07D
(1682544436.655656) can1 18F00E00#FFFF325BFFFFFFFF
(1682544436.656264) can1 0CF00300#D10000FFFFFF00FF
(1682544436.656875) can1 0CF00A00#FFFF0000FFFFFFFF
(1682544436.657487) can1 18EFFF00#FFFFFFFF00011980
(1682544436.658095) can1 10F01A00#3007FFFF0000B004
(1682544436.662397) can1 0CF00400#F87D7D000000F07D
(1682544436.672412) can1 0CF00400#F87D7D000000F07D
(1682544436.682378) can1 0CF00400#F87D7D000000F07D
(1682544436.682793) can1 18EA9600#E6FE00
(1682544436.692618) can1 0CF00400#F87D7D000000F07D
(1682544436.702394) can1 0CF00400#F87D7D000000F07D
(1682544436.703164) can1 18F00E00#FFFF325BFFFFFFFF
(1682544436.703768) can1 0CF00300#D10000FFFFFF00FF
(1682544436.704389) can1 0CF00A00#FFFF0000FFFFFFFF
(1682544436.705011) can1 18EFFF00#FFFFFFFF00011980
(1682544436.705609) can1 10F01A00#3007FFFF0000B004
(1682544436.712426) can1 0CF00400#F87D7D000000F07D
(1682544436.722387) can1 0CF00400#F87D7D000000F07D
(1682544436.725213) can1 10FE6F00#FFFFFFFFFFFFFFFF
(1682544436.725827) can1 18FF3500#FFFFFF00FFFEFFFF
(1682544436.726451) can1 18FF1800#00FFFFFFFFFFFFFF
(1682544436.727054) can1 18FEF100#F3000010FF001FC5
(1682544436.727670) can1 18F00100#FFFFFFCFFFFFFFFF
(1682544436.728295) can1 10FCE300#FE0000FFFFFFFFFF
(1682544436.728906) can1 18FD9400#0000FFFF0000FFFF
(1682544436.729515) can1 10FCFD00#FFFFFFFF2964FFFF
(1682544436.730126) can1 18FEF200#000000FEFFFF00FF
(1682544436.730743) can1 18FEF000#FFFFFF0000C0FFFF
(1682544436.731355) can1 18FE9600#0CFAFFFFFFFFFFFF
(1682544436.732637) can1 0CF00400#F87D7D000000F07D
(1682544436.742403) can1 0CF00400#F87D7D000000F07D
(1682544436.752423) can1 18FECA00#40FF00000000FFFF
(1682544436.753030) can1 0CF00400#F87D7D000000F07D
(1682544436.755482) can1 18F00E00#FFFF325BFFFFFFFF
(1682544436.756091) can1 0CF00300#D10000FFFFFF00FF
(1682544436.756695) can1 18FEDF00#FE00FEFE7D0000FF
(1682544436.757311) can1 0CF00A00#FFFF0000FFFFFFFF
(1682544436.757922) can1 18EFFF00#FFFFFFFF00011980
(1682544436.758530) can1 10F01A00#3007FFFF0000B004
(1682544436.762384) can1 0CF00400#F87D7D000000F07D
(1682544436.772607) can1 0CF00400#F87D7D000000F07D
(1682544436.782389) can1 0CF00400#F87D7D000000F07D
(1682544436.792396) can1 0CF00400#F87D7D000000F07D
(1682544436.802351) can1 0CF00400#F87D7D000000F07D
(1682544436.803119) can1 18F00E00#FFFF325BFFFFFFFF
(1682544436.803744) can1 0CF00300#D10000FFFFFF00FF
(1682544436.804356) can1 0CF00A00#FFFF0000FFFFFFFF
(1682544436.804977) can1 18EFFF00#FFFFFFFF00011980
(1682544436.805566) can1 10F01A00#3007FFFF0000B004
(1682544436.812625) can1 0CF00400#F87D7D000000F07D
(1682544436.822412) can1 0CF00400#F87D7D000000F07D
(1682544436.825281) can1 10FE6F00#FFFFFFFFFFFFFFFF
(1682544436.825894) can1 18FF3500#FFFFFF00FFFEFFFF
(1682544436.826518) can1 18FF1800#00FFFFFFFFFFFFFF
(1682544436.827121) can1 18FEF100#F3000010FF001FC5
(1682544436.827737) can1 18F00100#FFFFFFCFFFFFFFFF
(1682544436.828357) can1 10FCE300#FE0000FFFFFFFFFF
(1682544436.828977) can1 18FD9400#0000FFFF0000FFFF
(1682544436.829582) can1 10FCFD00#FFFFFFFF2964FFFF
(1682544436.830195) can1 18FEF200#000000FEFFFF00FF
(1682544436.830811) can1 18FEF000#FFFFFF0000C0FFFF
(1682544436.831423) can1 18FE9600#0CFAFFFFFFFFFFFF
(1682544436.832450) can1 0CF00400#F87D7D000000F07D
(1682544436.842363) can1 0CF00400#F87D7D000000F07D
(1682544436.852620) can1 0CF00400#F87D7D000000F07D
(1682544436.855656) can1 18F00E00#FFFF325BFFFFFFFF
(1682544436.856262) can1 0CF00300#D10000FFFFFF00FF
(1682544436.856873) can1 0CF00A00#FFFF0000FFFFFFFF
(1682544436.857485) can1 18EFFF00#FFFFFFFF00011980
(1682544436.858093) can1 10F01A00#3007FFFF0000B004
(1682544436.862402) can1 0CF00400#F87D7D000000F07D
(1682544436.872414) can1 0CF00400#F87D7D000000F07D
(1682544436.882396) can1 0CF00400#F87D7D000000F07D
(1682544436.892599) can1 0CF00400#F87D7D000000F07D
(1682544436.902385) can1 0CF00400#F87D7D000000F07D
(1682544436.903141) can1 18F00E00#FFFF325BFFFFFFFF
(1682544436.903745) can1 0CF00300#D10000FFFFFF00FF
(1682544436.904363) can1 0CF00A00#FFFF0000FFFFFFFF
(1682544436.904973) can1 18EFFF00#FFFFFFFF00011980
(1682544436.905582) can1 10F01A00#3007FFFF0000B004
(1682544436.912419) can1 0CF00400#F87D7D000000F07D
(1682544436.922378) can1 0CF00400#F87D7D000000F07D
(1682544436.925204) can1 10FE6F00#FFFFFFFFFFFFFFFF
(1682544436.925818) can1 18FF3500#FFFFFF00FFFEFFFF
(1682544436.926442) can1 18FF1800#00FFFFFFFFFFFFFF
(1682544436.927048) can1 18FEF100#F3000010FF001FC5
(1682544436.927662) can1 18F00100#FFFFFFCFFFFFFFFF
(1682544436.928285) can1 10FCE300#FE0000FFFFFFFFFF
(1682544436.928899) can1 18FD9400#0000FFFF0000FFFF
(1682544436.929508) can1 10FCFD00#FFFFFFFF2964FFFF
(1682544436.930120) can1 18FEF200#000000FEFFFF00FF
(1682544436.930736) can1 18FEF000#FFFFFF0000C0FFFF
(1682544436.931349) can1 18FE9600#0CFAFFFFFFFFFFFF
(1682544436.932634) can1 0CF00400#F87D7D000000F07D
(1682544436.942428) can1 0CF00400#F87D7D000000F07D
(1682544436.952441) can1 0CF00400#F87D7D000000F07D
(1682544436.955465) can1 18F00E00#FFFF325BFFFFFFFF
(1682544436.956177) can1 0CF00300#D10000FFFFFF00FF
(1682544436.956684) can1 0CF00A00#FFFF0000FFFFFFFF
(1682544436.957293) can1 18EFFF00#FFFFFFFF00011980
(1682544436.957901) can1 10F01A00#3007FFFF0000B004
(1682544436.962368) can1 0CF00400#F87D7D000000F07D
(1682544436.972600) can1 0CF00400#F87D7D000000F07D
(1682544436.982398) can1 0CF00400#F87D7D000000F07D
(1682544436.992417) can1 0CF00400#F87D7D000000F07D
(1682544437.002379) can1 0CF00400#F87D7D000000F07D
(1682544437.003147) can1 18F00E00#FFFF325BFFFFFFFF
(1682544437.003751) can1 0CF00300#D10000FFFFFF00FF
(1682544437.004362) can1 18FEDF00#FE00FEFE7D0000FF
(1682544437.004976) can1 0CF00A00#FFFF0000FFFFFFFF
(1682544437.005588) can1 18EFFF00#FFFFFFFF00011980
(1682544437.006197) can1 10F01A00#3007FFFF0000B004
(1682544437.012606) can1 0CF00400#F87D7D000000F07D
(1682544437.022397) can1 0CF00400#F87D7D000000F07D
(1682544437.025196) can1 18FD2000#00FE00FEFFFFFFFF
(1682544437.025813) can1 10FE6F00#FFFFFFFFFFFFFFFF
(1682544437.026429) can1 18FF3500#FFFFFF00FFFEFFFF
(1682544437.027053) can1 18FF1800#00FFFFFFFFFFFFFF
(1682544437.027674) can1 18FDA100#00FE000000000FFF
(1682544437.028299) can1 18FD6500#00FEFFFFFFFEFFFF
(1682544437.028906) can1 18FDB400#FFFF00FEFFFFFFFF
(1682544437.029523) can1 18FDB200#00FEFFFF00FEFFFF
(1682544437.030142) can1 18FDB300#00FE00FEFFFFFFFF
(1682544437.030748) can1 18FEF100#F3000010FF001FC5
(1682544437.031368) can1 18FFB000#7F7F7F7F7F7FFFFF
(1682544437.032005) can1 18FE9400#0000004000000000
(1682544437.032594) can1 0CF00400#F87D7D000000F07D
(1682544437.033208) can1 18F00100#FFFFFFCFFFFFFFFF
(1682544437.033825) can1 10FCE300#FE0000FFFFFFFFFF
(1682544437.034444) can1 18FD9400#0000FFFF0000FFFF
(1682544437.035053) can1 10FCFD00#FFFFFFFF2964FFFF
(1682544437.035669) can1 18FEDB00#FFFF00FEFFFFFFFF
(1682544437.036279) can1 18FEEF00#FEFFFFFE8080FFFA
(1682544437.036885) can1 18FE6900#00FEFFFFFFFF201D
(1682544437.037498) can1 18FEF200#000000FEFFFF00FF
(1682544437.038114) can1 18FDD000#FFFFFFFFFAFFFFFF
(1682544437.038718) can1 18FF9B00#FFF0F0FFFE00FEF2
(1682544437.039335) can1 18FEF000#FFFFFF0000C0FFFF
(1682544437.039946) can1 18FE9600#0CFAFFFFFFFFFFFF
(1682544437.042386) can1 0CF00400#F87D7D000000F07D
(1682544437.052639) can1 0CF00400#F87D7D000000F07D
(1682544437.055672) can1 18F00E00#FFFF325BFFFFFFFF
(1682544437.056280) can1 0CF00300#D10000FFFFFF00FF
(1682544437.056892) can1 0CF00A00#FFFF0000FFFFFFFF
(1682544437.057503) can1 18EFFF00#FFFFFFFF00011980
(1682544437.058111) can1 10F01A00#3007FFFF0000B004
(1682544437.062408) can1 0CF00400#F87D7D000000F07D
(1682544437.072405) can1 0CF00400#F87D7D000000F07D
(1682544437.082366) can1 0CF00400#F87D7D000000F07D
(1682544437.092626) can1 0CF00400#F87D7D000000F07D
(1682544437.102397) can1 0CF00400#F87D7D000000F07D
(1682544437.103161) can1 18F00E00#FFFF325BFFFFFFFF
(1682544437.103764) can1 0CF00300#D10000FFFFFF00FF
(1682544437.104382) can1 0CF00A00#FFFF0000FFFFFFFF
(1682544437.104992) can1 18EFFF00#FFFFFFFF00011980
(1682544437.105600) can1 10F01A00#3007FFFF0000B004
(1682544437.112413) can1 0CF00400#F87D7D000000F07D
(1682544437.122393) can1 0CF00400#F87D7D000000F07D
(1682544437.125235) can1 10FE6F00#FFFFFFFFFFFFFFFF
(1682544437.125850) can1 18FF3500#FFFFFF00FFFEFFFF
(1682544437.126474) can1 18FF1800#00FFFFFFFFFFFFFF
(1682544437.127078) can1 18FEF100#F3000010FF001FC5
(1682544437.127694) can1 18F00100#FFFFFFCFFFFFFFFF
(1682544437.128316) can1 10FCE300#FE0000FFFFFFFFFF
(1682544437.128930) can1 18FD9400#0000FFFF0000FFFF
(1682544437.129540) can1 10FCFD00#FFFFFFFF2964FFFF
(1682544437.130151) can1 18FEF200#000000FEFFFF00FF
(1682544437.130755) can1 18FEF600#FAFAFEFEFF001FFF
(1682544437.131371) can1 18FEF000#FFFFFF0000C0FFFF
(1682544437.131983) can1 18FE9600#0CFAFFFFFFFFFFFF
(1682544437.132651) can1 0CF00400#F87D7D000000F07D
(1682544437.142411) can1 0CF00400#F87D7D000000F07D
(1682544437.152442) can1 0CF00400#F87D7D000000F07D
(1682544437.155479) can1 18F00E00#FFFF325BFFFFFFFF
(1682544437.156088) can1 0CF00300#D10000FFFFFF00FF
(1682544437.156709) can1 0CF00A00#FFFF0000FFFFFFFF
(1682544437.157314) can1 18EFFF00#FFFFFFFF00011980
(1682544437.157921) can1 10F01A00#3007FFFF0000B004
(1682544437.162382) can1 0CF00400#F87D7D000000F07D
(1682544437.172610) can1 0CF00400#F87D7D000000F07D
(1682544437.182420) can1 0CF00400#F87D7D000000F07D
(1682544437.192425) can1 0CF00400#F87D7D000000F07D
(1682544437.202371) can1 0CF00400#F87D7D000000F07D
(1682544437.203127) can1 18F00E00#FFFF325BFFFFFFFF
(1682544437.203749) can1 0CF00300#D10000FFFFFF00FF
(1682544437.204353) can1 0CF00A00#FFFF0000FFFFFFFF
(1682544437.204963) can1 18EFFF00#FFFFFFFF00011980
(1682544437.205569) can1 10F01A00#3007FFFF0000B004
(1682544437.212614) can1 0CF00400#F87D7D000000F07D
(1682544437.222401) can1 0CF00400#F87D7D000000F07D
(1682544437.225223) can1 10FE6F00#FFFFFFFFFFFFFFFF
(1682544437.225837) can1 18FF3500#FFFFFF00FFFEFFFF
(1682544437.226461) can1 18FF1800#00FFFFFFFFFFFFFF
(1682544437.227066) can1 18FEF100#F3000010FF001FC5
(1682544437.227681) can1 18F00100#FFFFFFCFFFFFFFFF
(1682544437.228303) can1 10FCE300#FE0000FFFFFFFFFF
(1682544437.228917) can1 18FD9400#0000FFFF0000FFFF
(1682544437.229525) can1 10FCFD00#FFFFFFFF2964FFFF
(1682544437.230138) can1 18FEF200#000000FEFFFF00FF
(1682544437.230754) can1 18FEF000#FFFFFF0000C0FFFF
(1682544437.231367) can1 18FE9600#0CFAFFFFFFFFFFFF
(1682544437.232444) can1 0CF00400#F87D7D000000F07D
(1682544437.242406) can1 0CF00400#F87D7D000000F07D
(1682544437.252633) can1 0CF00400#F87D7D000000F07D
(1682544437.255661) can1 18F00E00#FFFF325BFFFFFFFF
(1682544437.256270) can1 0CF00300#D10000FFFFFF00FF
(1682544437.256874) can1 18FEDF00#FE00FEFE7D0000FF
(1682544437.257489) can1 0CF00A00#FFFF0000FFFFFFFF
(1682544437.258101) can1 18EFFF00#FFFFFFFF00011980
(1682544437.258710) can1 10F01A00#3007FFFF0000B004
(1682544437.262396) can1 0CF00400#F87D7D000000F07D
(1682544437.272409) can1 0CF00400#F87D7D000000F07D
(1682544437.282360) can1 0CF00400#F87D7D000000F07D
(1682544437.292619) can1 0CF00400#F87D7D000000F07D
(1682544437.302410) can1 0CF00400#F87D7D000000F07D
(1682544437.303178) can1 18F00E00#FFFF325BFFFFFFFF
(1682544437.303785) can1 0CF00300#D10000FFFFFF00FF
(1682544437.304398) can1 0CF00A00#FFFF0000FFFFFFFF
(1682544437.305007) can1 18EFFF00#FFFFFFFF00011980
(1682544437.305615) can1 10F01A00#3007FFFF0000B004
(1682544437.312417) can1 0CF00400#F87D7D000000F07D
(1682544437.322372) can1 0CF00400#F87D7D000000F07D
(1682544437.325201) can1 10FE6F00#FFFFFFFFFFFFFFFF
(1682544437.325816) can1 18FF3500#FFFFFF00FFFEFFFF
(1682544437.326440) can1 18FF1800#00FFFFFFFFFFFFFF
(1682544437.327044) can1 18FEF100#F3000010FF001FC5
(1682544437.327660) can1 18F00100#FFFFFFCFFFFFFFFF
(1682544437.328283) can1 10FCE300#FE0000FFFFFFFFFF
(1682544437.328897) can1 18FD9400#0000FFFF0000FFFF
(1682544437.329505) can1 10FCFD00#FFFFFFFF2964FFFF
(1682544437.330117) can1 18FEF200#000000FEFFFF00FF
(1682544437.330734) can1 18FEF000#FFFFFF0000C0FFFF
(1682544437.331345) can1 18FE9600#0CFAFFFFFFFFFFFF
(1682544437.332644) can1 0CF00400#F87D7D000000F07D
(1682544437.342410) can1 0CF00400#F87D7D000000F07D
(1682544437.352440) can1 0CF00400#F87D7D000000F07D
(1682544437.355477) can1 18F00E00#FFFF325BFFFFFFFF
(1682544437.356085) can1 0CF00300#D10000FFFFFF00FF
(1682544437.356696) can1 0CF00A00#FFFF0000FFFFFFFF
(1682544437.357308) can1 18EFFF00#FFFFFFFF00011980
(1682544437.357917) can1 10F01A00#3007FFFF0000B004
(1682544437.362403) can1 0CF00400#F87D7D000000F07D
(1682544437.372620) can1 0CF00400#F87D7D000000F07D
(1682544437.382406) can1 0CF00400#F87D7D000000F07D
(1682544437.392427) can1 0CF00400#F87D7D000000F07D
(1682544437.402391) can1 0CF00400#F87D7D000000F07D
(1682544437.403130) can1 18F00E00#FFFF325BFFFFFFFF
(1682544437.403733) can1 0CF00300#D10000FFFFFF00FF
(1682544437.404351) can1 0CF00A00#FFFF0000FFFFFFFF
(1682544437.404961) can1 18EFFF00#FFFFFFFF00011980
(1682544437.405569) can1 10F01A00#3007FFFF0000B004
(1682544437.412617) can1 0CF00400#F87D7D000000F07D
(1682544437.422426) can1 0CF00400#F87D7D000000F07D
(1682544437.425308) can1 10FE6F00#FFFFFFFFFFFFFFFF
(1682544437.425923) can1 18FF3500#FFFFFF00FFFEFFFF
(1682544437.426555) can1 18FF1800#00FFFFFFFFFFFFFF
(1682544437.427154) can1 18FEF100#F3000010FF001FC5
(1682544437.427769) can1 18F00100#FFFFFFCFFFFFFFFF
(1682544437.428393) can1 10FCE300#FE0000FFFFFFFFFF
(1682544437.429004) can1 18FD9400#0000FFFF0000FFFF
(1682544437.429612) can1 10FCFD00#FFFFFFFF2964FFFF
(1682544437.430224) can1 18FEF200#000000FEFFFF00FF
(1682544437.430840) can1 18FEF000#FFFFFF0000C0FFFF
(1682544437.431453) can1 18FE9600#0CFAFFFFFFFFFFFF
(1682544437.432451) can1 0CF00400#F87D7D000000F07D
(1682544437.442403) can1 0CF00400#F87D7D000000F07D
(1682544437.452645) can1 0CF00400#F87D7D000000F07D
(1682544437.455649) can1 18F00E00#FFFF325BFFFFFFFF
(1682544437.456257) can1 0CF00300#D10000FFFFFF00FF
(1682544437.456867) can1 0CF00A00#FFFF0000FFFFFFFF
(1682544437.457480) can1 18EFFF00#FFFFFFFF00011980
(1682544437.458088) can1 10F01A00#3007FFFF0000B004
(1682544437.462393) can1 0CF00400#F87D7D000000F07D
(1682544437.472407) can1 0CF00400#F87D7D000000F07D
(1682544437.482389) can1 0CF00400#F87D7D000000F07D
(1682544437.492617) can1 0CF00400#F87D7D000000F07D
(1682544437.502395) can1 0CF00400#F87D7D000000F07D
(1682544437.503159) can1 18F00E00#FFFF325BFFFFFFFF
(1682544437.503764) can1 0CF00300#D10000FFFFFF00FF
(1682544437.504374) can1 18FEDF00#FE00FEFE7D0000FF
(1682544437.504988) can1 0CF00A00#FFFF0000FFFFFFFF
(1682544437.505601) can1 18EFFF00#FFFFFFFF00011980
(1682544437.506209) can1 10F01A00#3007FFFF0000B004
(1682544437.512410) can1 0CF00400#F87D7D000000F07D
(1682544437.522374) can1 0CF00400#F87D7D000000F07D
(1682544437.525202) can1 18FD2000#00FE00FEFFFFFFFF
(1682544437.525821) can1 10FE6F00#FFFFFFFFFFFFFFFF
(1682544437.526437) can1 18FF3500#FFFFFF00FFFEFFFF
(1682544437.527057) can1 18FF3800#000000FFFF80FFFF
(1682544437.527682) can1 18FF1800#00FFFFFFFFFFFFFF
(1682544437.528307) can1 18FDA100#00FE000000000FFF
(1682544437.528906) can1 18FEF500#A8FFFF201D00FFFF
(1682544437.529526) can1 18FD6500#00FEFFFFFFFEFFFF
(1682544437.530139) can1 18FDB400#FFFF00FEFFFFFFFF
(1682544437.530755) can1 18FDB200#00FEFFFF00FEFFFF
(1682544437.531375) can1 18FDB300#00FE00FEFFFFFFFF
(1682544437.531991) can1 18E0FF00#FAFFFFFFFFFFFFFF
(1682544437.532600) can1 18FEF100#F3000010FF001FC5
(1682544437.533206) can1 0CF00400#F87D7D000000F07D
(1682544437.533828) can1 18FE9400#0000003F00000000
(1682544437.534445) can1 18F00100#FFFFFFCFFFFFFFFF
(1682544437.535056) can1 10FD5200#FFFFFFFA00FFFFFF
(1682544437.535677) can1 18FF9A00#0000000000F0FFFF
(1682544437.536300) can1 10FCE300#FE0000FFFFFFFFFF
(1682544437.536913) can1 18FD9400#0000FFFF0000FFFF
(1682544437.537521) can1 10FCFD00#FFFFFFFF2964FFFF
(1682544437.538138) can1 18FEDB00#FFFF00FEFFFFFFFF
(1682544437.538762) can1 18FEEF00#FEFFFFFE8080FFFA
(1682544437.539356) can1 18FEEE00#FEFF00FEFFFFFFFF
(1682544437.539968) can1 18FEA400#FFFFFFFFFFFF00FE
(1682544437.540588) can1 18FD6600#FEFFFFFFFFFFFFFF
(1682544437.541208) can1 18FEBD00#00F00000FFFFFFFF
(1682544437.541819) can1 18FEF200#000000FEFFFF00FF
(1682544437.542435) can1 18FDD000#FFFFFFFFFAFFFFFF
(1682544437.543043) can1 0CF00400#F87D7D000000F07D
(1682544437.543647) can1 18FF9B00#FFF0F0FFFE00FEF2
(1682544437.544249) can1 18FD7C00#F8B34100D1CFE3FF
(1682544437.544859) can1 18FEF000#FFFFFF0000C0FFFF
(1682544437.545475) can1 18FEE400#007FFFFC007FFFFF
(1682544437.546084) can1 18FE9A00#FFFF201CFFFFFFFF
(1682544437.546697) can1 18FE9600#0CFAFFFFFFFFFFFF
(1682544437.547276) can1 18FEC100#4CD9D102285C8F02
(1682544437.547889) can1 18FEF700#FFFFFFFFFFFFF100
(1682544437.552434) can1 0CF00400#F87D7D000000F07D
(1682544437.555462) can1 18F00E00#FFFF325BFFFFFFFF
(1682544437.556072) can1 0CF00300#D10000FFFFFF00FF
(1682544437.556684) can1 0CF00A00#FFFF0000FFFFFFFF
(1682544437.557296) can1 18EFFF00#FFFFFFFF00011980
(1682544437.557904) can1 10F01A00#3007FFFF0000B004
(1682544437.562369) can1 0CF00400#F87D7D000000F07D
(1682544437.572616) can1 0CF00400#F87D7D000000F07D
(1682544437.582395) can1 0CF00400#F87D7D000000F07D
(1682544437.592423) can1 0CF00400#F87D7D000000F07D
(1682544437.602392) can1 0CF00400#F87D7D000000F07D
(1682544437.603159) can1 18F00E00#FFFF325BFFFFFFFF
(1682544437.603764) can1 0CF00300#D10000FFFFFF00FF
(1682544437.604390) can1 0CF00A00#FFFF0000FFFFFFFF
(1682544437.604997) can1 18EFFF00#FFFFFFFF00011980
(1682544437.605603) can1 10F01A00#3007FFFF0000B004
(1682544437.612623) can1 0CF00400#F87D7D000000F07D
(1682544437.622406) can1 0CF00400#F87D7D000000F07D
(1682544437.625232) can1 10FE6F00#FFFFFFFFFFFFFFFF
(1682544437.625847) can1 18FF3500#FFFFFF00FFFEFFFF
(1682544437.626471) can1 18FF1800#00FFFFFFFFFFFFFF
(1682544437.627074) can1 18FEF100#F3000010FF001FC5
(1682544437.627690) can1 18F00100#FFFFFFCFFFFFFFFF
(1682544437.628311) can1 10FCE300#FE0000FFFFFFFFFF
(1682544437.628927) can1 18FD9400#0000FFFF0000FFFF
(1682544437.629535) can1 10FCFD00#FFFFFFFF2964FFFF
(1682544437.630147) can1 18FEF200#000000FEFFFF00FF
(1682544437.630752) can1 18FEF600#FAFAFEFEFF001FFF
(1682544437.631376) can1 18FF5000#FFFFFFCFFFFFFFFF
(1682544437.631992) can1 18FEF000#FFFFFF0000C0FFFF
(1682544437.632602) can1 0CF00400#F87D7D000000F07D
(1682544437.633213) can1 18FE9900#FFFF00FEFFFFFFFF
(1682544437.633825) can1 18FE9600#0CFAFFFFFFFFFFFF
(1682544437.634437) can1 18FE5600#00FFFFFF1F1FFFFF
(1682544437.642384) can1 0CF00400#F87D7D000000F07D
(1682544437.652630) can1 0CF00400#F87D7D000000F07D
(1682544437.655659) can1 18F00E00#FFFF325BFFFFFFFF
(1682544437.656267) can1 0CF00300#D10000FFFFFF00FF
(1682544437.656879) can1 0CF00A00#FFFF0000FFFFFFFF
(1682544437.657491) can1 18EFFF00#FFFFFFFF00011980
(1682544437.658099) can1 10F01A00#3007FFFF0000B004
(1682544437.662429) can1 0CF00400#F87D7D000000F07D
(1682544437.672427) can1 0CF00400#F87D7D000000F07D
(1682544437.682387) can1 0CF00400#F87D7D000000F07D
(1682544437.682784) can1 18EA9600#E6FE00
(1682544437.692621) can1 0CF00400#F87D7D000000F07D
(1682544437.702406) can1 0CF00400#F87D7D000000F07D
(1682544437.703156) can1 18F00E00#FFFF325BFFFFFFFF
(1682544437.703759) can1 0CF00300#D10000FFFFFF00FF
(1682544437.704377) can1 0CF00A00#FFFF0000FFFFFFFF
(1682544437.704988) can1 18EFFF00#FFFFFFFF00011980
(1682544437.705596) can1 10F01A00#3007FFFF0000B004
(1682544437.712423) can1 0CF00400#F87D7D000000F07D
(1682544437.722408) can1 0CF00400#F87D7D000000F07D
(1682544437.725228) can1 10FE6F00#FFFFFFFFFFFFFFFF
(1682544437.725839) can1 18FF3500#FFFFFF00FFFEFFFF
(1682544437.726464) can1 18FF1800#00FFFFFFFFFFFFFF
(1682544437.727066) can1 18FEF100#F3000010FF001FC5
(1682544437.727682) can1 18F00100#FFFFFFCFFFFFFFFF
(1682544437.728304) can1 10FCE300#FE0000FFFFFFFFFF
(1682544437.728919) can1 18FD9400#0000FFFF0000FFFF
(1682544437.729528) can1 10FCFD00#FFFFFFFF2964FFFF
(1682544437.730140) can1 18FEF200#000000FEFFFF00FF
(1682544437.730756) can1 18FEF000#FFFFFF0000C0FFFF
(1682544437.731367) can1 18FE9600#0CFAFFFFFFFFFFFF
(1682544437.732646) can1 0CF00400#F87D7D000000F07D
(1682544437.742435) can1 0CF00400#F87D7D000000F07D
(1682544437.752512) can1 18FECA00#40FF00000000FFFF
(1682544437.753114) can1 0CF00400#F87D7D000000F07D
(1682544437.755643) can1 18F00E00#FFFF325BFFFFFFFF
(1682544437.756253) can1 0CF00300#D10000FFFFFF00FF
(1682544437.756856) can1 18FEDF00#FE00FEFE7D0000FF
(1682544437.757471) can1 0CF00A00#FFFF0000FFFFFFFF
(1682544437.758083) can1 18EFFF00#FFFFFFFF00011980
(1682544437.758690) can1 10F01A00#3007FFFF0000B004
(1682544437.762380) can1 0CF00400#F87D7D000000F07D
(1682544437.772622) can1 0CF00400#F87D7D000000F07D
(1682544437.782418) can1 0CF00400#F87D7D000000F07D
(1682544437.792419) can1 0CF00400#F87D7D000000F07D
(1682544437.802366) can1 0CF00400#F87D7D000000F07D
(1682544437.803202) can1 18F00E00#FFFF325BFFFFFFFF
(1682544437.803806) can1 0CF00300#D10000FFFFFF00FF
(1682544437.804425) can1 0CF00A00#FFFF0000FFFFFFFF
(1682544437.805035) can1 18EFFF00#FFFFFFFF00011980
(1682544437.805643) can1 10F01A00#3007FFFF0000B004
(1682544437.812617) can1 0CF00400#F87D7D000000F07D
(1682544437.822404) can1 0CF00400#F87D7D000000F07D
(1682544437.825225) can1 10FE6F00#FFFFFFFFFFFFFFFF
(1682544437.825841) can1 18FF3500#FFFFFF00FFFEFFFF
(1682544437.826464) can1 18FF1800#00FFFFFFFFFFFFFF
(1682544437.827068) can1 18FEF100#F3000010FF001FC5
(1682544437.827684) can1 18F00100#FFFFFFCFFFFFFFFF
(1682544437.828305) can1 10FCE300#FE0000FFFFFFFFFF
(1682544437.828932) can1 18FD9400#0000FFFF0000FFFF
(1682544437.829534) can1 10FCFD00#FFFFFFFF2964FFFF
(1682544437.830147) can1 18FEF200#000000FEFFFFFEFF
(1682544437.830785) can1 18FEF000#FFFFFF0000C0FFFF
(1682544437.831376) can1 18FE9600#0CFAFFFFFFFFFFFF
(1682544437.832452) can1 0CF00400#F87D7D000000F07D
(1682544437.842403) can1 0CF00400#F87D7D000000F07D
(1682544437.852630) can1 0CF00400#F87D7D000000F07D
(1682544437.855634) can1 18F00E00#FFFF325BFFFFFFFF
(1682544437.856245) can1 0CF00300#D10000FFFFFF00FF
(1682544437.856854) can1 0CF00A00#FFFF0000FFFFFFFF
(1682544437.857466) can1 18EFFF00#FFFFFFFF00011980
(1682544437.858073) can1 10F01A00#0000FFFF0000B004
(1682544437.862408) can1 0CF00400#F87D7D000000F07D
(1682544437.872425) can1 0CF00400#F87D7D000000F07D
(1682544437.882364) can1 0CF00400#F87D7D000000F07D
(1682544437.892614) can1 0CF00400#F87D7D000000F07D
(1682544437.902433) can1 0CF00400#F87D7D000000F07D
(1682544437.903152) can1 18F00E00#FFFF325BFFFFFFFF
(1682544437.903757) can1 0CF00300#D10000FFFFFF00FF
(1682544437.904372) can1 0CF00A00#FFFF0000FFFFFFFF
(1682544437.904985) can1 18EFFF00#FFFFFFFF00011980
(1682544437.905593) can1 10F01A00#0000FFFF0000B004
(1682544437.912428) can1 0CF00400#F87D7D000000F07D
(1682544437.922382) can1 0CF00400#F87D7D000000F07D
(1682544437.925224) can1 10FE6F00#FFFFFFFFFFFFFFFF
(1682544437.925838) can1 18FF3500#FFFFFF00FFFEFFFF
(1682544437.926462) can1 18FF1800#00FFFFFFFFFFFFFF
(1682544437.927066) can1 18FEF100#F3000010FF001FC5
(1682544437.927683) can1 18F00100#FFFFFFCFFFFFFFFF
(1682544437.928304) can1 10FCE300#FE0000FFFFFFFFFF
(1682544437.928919) can1 18FD9400#0000FFFF0000FFFF
(1682544437.929528) can1 10FCFD00#FFFFFFFF2964FFFF
(1682544437.930143) can1 18FEF200#000000FEFFFFFEFF
(1682544437.930760) can1 18FEF000#FFFFFF0000C0FFFF
(1682544437.931372) can1 18FE9600#0CFAFFFFFFFFFFFF
(1682544437.932649) can1 0CF00400#F87D7D000000F07D
(1682544437.942434) can1 0CF00400#F87D7D000000F07D
(1682544437.952458) can1 0CF00400#F87D7D000000F07D
(1682544437.955434) can1 18F00E00#FFFF325BFFFFFFFF
(1682544437.956044) can1 0CF00300#D10000FFFFFF00FF
(1682544437.956652) can1 0CF00A00#FFFF0000FFFFFFFF
(1682544437.957263) can1 18EFFF00#FFFFFFFF00011980
(1682544437.957870) can1 10F01A00#0000FFFF0000B004
(1682544437.962401) can1 0CF00400#F87D7D000000F07D
(1682544437.972611) can1 0CF00400#F87D7D000000F07D
(1682544437.982399) can1 0CF00400#F87D7D000000F07D
(1682544437.992506) can1 18FECA00#40FF66000301FFFF
(1682544437.993105) can1 0CF00400#F87D7D000000F07D
(1682544438.002372) can1 0CF00400#F87D7D000000F07D
(1682544438.003091) can1 18F00E00#FFFF325BFFFFFFFF
(1682544438.003695) can1 0CF00300#D10000FFFFFF00FF
(1682544438.004305) can1 18FEDF00#FE00FEFE7DF607FF
(1682544438.004919) can1 0CF00A00#FFFF0000FFFFFFFF
(1682544438.005531) can1 18EFFF00#FFFFFFFF00011980
(1682544438.006139) can1 10F01A00#0000FFFF0000B004
(1682544438.012610) can1 0CF00400#F87D7D000000F07D
(1682544438.022420) can1 0CF00400#F87D7D000000F07D
(1682544438.025218) can1 18FD2000#00FE00FEFFFFFFFF
(1682544438.025836) can1 10FE6F00#FFFFFFFFFFFFFFFF
(1682544438.026452) can1 18FF3500#FFFFFF00FFFEFFFF
(1682544438.027077) can1 18FF1800#00FFFFFFFFFFFFFF
(1682544438.027696) can1 18FDA100#00FE000000000FFF
(1682544438.028340) can1 18FD6500#00FEFFFFFFFEFFFF
(1682544438.028932) can1 18FDB400#FFFF00FEFFFFFFFF
(1682544438.029547) can1 18FDB200#00FEFFFF00FEFFFF
(1682544438.030167) can1 18FDB300#00FE00FEFFFFFFFF
(1682544438.030771) can1 18FEF100#F3000010FF001FC5
(1682544438.031392) can1 18FFB000#7F7F7F7F7F7FFFFF
(1682544438.032007) can1 18FE9400#0000004000000000
(1682544438.032616) can1 0CF00400#F87D7D000000F07D
(1682544438.033231) can1 18F00100#FFFFFFCFFFFFFFFF
(1682544438.033847) can1 10FCE300#FE0000FFFFFFFFFF
(1682544438.034467) can1 18FD9400#0000FFFF0000FFFF
(1682544438.035075) can1 10FCFD00#FFFFFFFF2964FFFF
(1682544438.035691) can1 18FEDB00#FFFF00FEFFFFFFFF
(1682544438.036302) can1 18FEEF00#FEFFFFFE8080FFFA
(1682544438.036912) can1 18FE6900#00FEFFFFFFFF00FE
(1682544438.037529) can1 18FEF200#000000FEFFFFFEFF
(1682544438.038148) can1 18FDD000#FFFFFFFFFEFFFFFF
(1682544438.038765) can1 18FF9B00#FFF0F0FFFE00FEF2
(1682544438.039373) can1 18FEF000#FFFFFF0000C0FFFF
(1682544438.039982) can1 18FE9600#0CFAFFFFFFFFFFFF
(1682544438.042375) can1 0CF00400#F87D7D000000F07D
(1682544438.052619) can1 0CF00400#F87D7D000000F07D
(1682544438.055607) can1 18F00E00#FFFF325BFFFFFFFF
(1682544438.056215) can1 0CF00300#D10000FFFFFF00FF
(1682544438.056826) can1 0CF00A00#FFFF0000FFFFFFFF
(1682544438.057438) can1 18EFFF00#FFFFFFFF00011980
(1682544438.058046) can1 10F01A00#0000FFFF0000B004
(1682544438.062400) can1 0CF00400#F87D7D000000F07D
(1682544438.072406) can1 0CF00400#F87D7D000000F07D
(1682544438.082373) can1 0CF00400#F87D7D000000F07D
(1682544438.092612) can1 0CF00400#F87D7D000000F07D
(1682544438.102398) can1 0CF00400#F87D7D000000F07D
(1682544438.103133) can1 18F00E00#FFFF325BFFFFFFFF
(1682544438.103736) can1 0CF00300#D10000FFFFFF00FF
(1682544438.104353) can1 0CF00A00#FFFF0000FFFFFFFF
(1682544438.104963) can1 18EFFF00#FFFFFFFF00011980
(1682544438.105571) can1 10F01A00#0000FFFF0000B004
(1682544438.112418) can1 0CF00400#F87D7D000000F07D
(1682544438.122368) can1 0CF00400#F87D7D000000F07D
(1682544438.125198) can1 10FE6F00#FFFFFFFFFFFFFFFF
(1682544438.125813) can1 18FF3500#FFFFFF00FFFEFFFF
(1682544438.126437) can1 18FF1800#00FFFFFFFFFFFFFF
(1682544438.127041) can1 18FEF100#F3000010FF001FC5
(1682544438.127657) can1 18F00100#FFFFFFCFFFFFFFFF
(1682544438.128279) can1 10FCE300#FE0000FFFFFFFFFF
(1682544438.128893) can1 18FD9400#0000FFFF0000FFFF
(1682544438.129503) can1 10FCFD00#FFFFFFFF2964FFFF
(1682544438.130118) can1 18FEF200#000000FEFFFFFEFF
(1682544438.130715) can1 18FEF600#FAFEFEFEFF2022FF
(1682544438.131331) can1 18FEF000#FFFFFF0000C0FFFF
(1682544438.131942) can1 18FE9600#0CFAFFFFFFFFFFFF
(1682544438.132637) can1 0CF00400#F87D7D000000F07D
(1682544438.142435) can1 0CF00400#F87D7D000000F07D
(1682544438.152425) can1 0CF00400#F87D7D000000F07D
(1682544438.155414) can1 18F00E00#FFFF325BFFFFFFFF
(1682544438.156018) can1 0CF00300#D10000FFFFFF00FF
(1682544438.156634) can1 0CF00A00#FFFF0000FFFFFFFF
(1682544438.157246) can1 18EFFF00#FFFFFFFF00011980
(1682544438.157854) can1 10F01A00#0000FFFF0000B004
(1682544438.162380) can1 0CF00400#F87D7D000000F07D
(1682544438.172632) can1 0CF00400#F87D7D000000F07D
(1682544438.182392) can1 0CF00400#F87D7D000000F07D
(1682544438.192412) can1 0CF00400#F87D7D000000F07D
(1682544438.202403) can1 0CF00400#F87D7D000000F07D
(1682544438.203114) can1 18F00E00#FFFF325BFFFFFFFF
(1682544438.203718) can1 0CF00300#D10000FFFFFF00FF
(1682544438.204336) can1 0CF00A00#FFFF0000FFFFFFFF
(1682544438.204946) can1 18EFFF00#FFFFFFFF00011980
(1682544438.205555) can1 10F01A00#0000FFFF0000B004
(1682544438.212613) can1 0CF00400#F87D7D000000F07D
(1682544438.222403) can1 0CF00400#F87D7D000000F07D
(1682544438.225225) can1 10FE6F00#FFFFFFFFFFFFFFFF
(1682544438.225839) can1 18FF3500#FFFFFF00FFFEFFFF
(1682544438.226464) can1 18FF1800#00FFFFFFFFFFFFFF
(1682544438.227068) can1 18FEF100#F3000010FF001FC5
(1682544438.227685) can1 18F00100#FFFFFFCFFFFFFFFF
(1682544438.228306) can1 10FCE300#FE0000FFFFFFFFFF
(1682544438.228920) can1 18FD9400#0000FFFF0000FFFF
(1682544438.229529) can1 10FCFD00#FFFFFFFF2964FFFF
(1682544438.230145) can1 18FEF200#000000FEFFFFFEFF
(1682544438.230761) can1 18FEF000#FFFFFF0000C0FFFF
(1682544438.231374) can1 18FE9600#0CFAFFFFFFFFFFFF
(1682544438.232439) can1 0CF00400#F87D7D000000F07D
(1682544438.242393) can1 0CF00400#F87D7D000000F07D
(1682544438.252623) can1 0CF00400#F87D7D000000F07D
(1682544438.255616) can1 18F00E00#FFFF325BFFFFFFFF
(1682544438.256225) can1 0CF00300#D10000FFFFFF00FF
(1682544438.256820) can1 18FEDF00#FE00FEFE7D710CFF
(1682544438.257437) can1 0CF00A00#FFFF0000FFFFFFFF
(1682544438.258049) can1 18EFFF00#FFFFFFFF00011980
(1682544438.258657) can1 10F01A00#0000FFFF0000B004
(1682544438.262434) can1 0CF00400#F87D7D000000F07D
(1682544438.272409) can1 0CF00400#F87D7D000000F07D
(1682544438.282364) can1 0CF00400#F87D7D000000F07D
(1682544438.292610) can1 0CF00400#F87D7D000000F07D
(1682544438.302396) can1 0CF00400#F87D7D000000F07D
(1682544438.303140) can1 18F00E00#FFFF325BFFFFFFFF
(1682544438.303744) can1 0CF00300#D10000FFFFFF00FF
(1682544438.304376) can1 0CF00A00#FFFF0000FFFFFFFF
(1682544438.304979) can1 18EFFF00#FFFFFFFF00011980
(1682544438.305584) can1 10F01A00#0000FFFF0000B004
(1682544438.312423) can1 0CF00400#F87D7D000000F07D
(1682544438.322400) can1 0CF00400#F87D7D000000F07D
(1682544438.325237) can1 10FE6F00#FFFFFFFFFFFFFFFF
(1682544438.325851) can1 18FF3500#FFFFFF00FFFEFFFF
(1682544438.326476) can1 18FF1800#00FFFFFFFFFFFFFF
(1682544438.327079) can1 18FEF100#F3000010FF001FC5
(1682544438.327696) can1 18F00100#FFFFFFCFFFFFFFFF
(1682544438.328318) can1 10FCE300#FE0000FFFFFFFFFF
(1682544438.328931) can1 18FD9400#0000FFFF0000FFFF
(1682544438.329540) can1 10FCFD00#FFFFFFFF2964FFFF
(1682544438.330156) can1 18FEF200#000000FEFFFFFEFF
(1682544438.330773) can1 18FEF000#FFFFFF0000C0FFFF
(1682544438.331385) can1 18FE9600#0CFAFFFFFFFFFFFF
(1682544438.332646) can1 0CF00400#F87D7D000000F07D
(1682544438.342395) can1 0CF00400#F87D7D000000F07D
(1682544438.352426) can1 0CF00400#F87D7D000000F07D
(1682544438.355415) can1 18F00E00#FFFF325BFFFFFFFF
(1682544438.356019) can1 0CF00300#D10000FFFFFF00FF
(1682544438.356635) can1 0CF00A00#FFFF0000FFFFFFFF
(1682544438.357249) can1 18EFFF00#FFFFFFFF00011980
(1682544438.357856) can1 10F01A00#0000FFFF0000B004
(1682544438.362377) can1 0CF00400#F87D7D000000F07D
(1682544438.372635) can1 0CF00400#F87D7D000000F07D
(1682544438.382428) can1 0CF00400#F87D7D000000F07D
(1682544438.392420) can1 0CF00400#F87D7D000000F07D
(1682544438.402385) can1 0CF00400#F87D7D000000F07D
(1682544438.403108) can1 18F00E00#FFFF325BFFFFFFFF
(1682544438.403711) can1 0CF00300#D10000FFFFFF00FF
(1682544438.404330) can1 0CF00A00#FFFF0000FFFFFFFF
(1682544438.404940) can1 18EFFF00#FFFFFFFF00011980
(1682544438.405548) can1 10F01A00#0000FFFF0000B004
(1682544438.412619) can1 0CF00400#F87D7D000000F07D
(1682544438.422406) can1 0CF00400#F87D7D000000F07D
(1682544438.425223) can1 10FE6F00#FFFFFFFFFFFFFFFF
(1682544438.425837) can1 18FF3500#FFFFFF00FFFEFFFF
(1682544438.426462) can1 18FF1800#00FFFFFFFFFFFFFF
(1682544438.427066) can1 18FEF100#F3000010FF001FC5
(1682544438.427682) can1 18F00100#FFFFFFCFFFFFFFFF
(1682544438.428303) can1 10FCE300#FE0000FFFFFFFFFF
(1682544438.428919) can1 18FD9400#0000FFFF0000FFFF
(1682544438.429526) can1 10FCFD00#FFFFFFFF2964FFFF
(1682544438.430143) can1 18FEF200#000000FEFFFFFEFF
(1682544438.430758) can1 18FEF000#FFFFFF0000C0FFFF
(1682544438.431371) can1 18FE9600#0CFAFFFFFFFFFFFF
(1682544438.432460) can1 0CF00400#F87D7D000000F07D
(1682544438.442410) can1 0CF00400#F87D7D000000F07D
(1682544438.452662) can1 0CF00400#F87D7D000000F07D
(1682544438.455625) can1 18F00E00#FFFF325BFFFFFFFF
(1682544438.456233) can1 0CF00300#D10000FFFFFF00FF
(1682544438.456840) can1 0CF00A00#FFFF0000FFFFFFFF
(1682544438.457451) can1 18EFFF00#FFFFFFFF00011980
(1682544438.458060) can1 10F01A00#0000FFFF0000B004
(1682544438.462414) can1 0CF00400#F87D7D000000F07D
(1682544438.472400) can1 0CF00400#F87D7D000000F07D
(1682544438.482371) can1 0CF00400#F87D7D000000F07D
(1682544438.492609) can1 0CF00400#F87D7D000000F07D
(1682544438.502429) can1 0CF00400#F87D7D000000F07D
(1682544438.503136) can1 18F00E00#FFFF325BFFFFFFFF
(1682544438.503740) can1 0CF00300#D10000FFFFFF00FF
(1682544438.504345) can1 18FEDF00#FE00FEFE7D5D07FF
(1682544438.504959) can1 0CF00A00#FFFF0000FFFFFFFF
(1682544438.505571) can1 18EFFF00#FFFFFFFF00011980
(1682544438.506180) can1 10F01A00#0000FFFF0000B004
(1682544438.512420) can1 0CF00400#F87D7D000000F07D
(1682544438.522373) can1 0CF00400#F87D7D000000F07D
(1682544438.525182) can1 18FD2000#00FE00FEFFFFFFFF
(1682544438.525801) can1 10FE6F00#FFFFFFFFFFFFFFFF
(1682544438.526417) can1 18FF3500#FFFFFF00FFFEFFFF
(1682544438.527037) can1 18FF3800#000000FFFF93FFFF
(1682544438.527661) can1 18FF1800#00FFFFFFFFFFFFFF
(1682544438.528287) can1 18FDA100#00FE000000000FFF
(1682544438.528886) can1 18FEF500#A7FFFF00FE00FFFF
(1682544438.529505) can1 18FD6500#00FEFFFFFFFEFFFF
(1682544438.530118) can1 18FDB400#FFFF00FEFFFFFFFF
(1682544438.530734) can1 18FDB200#00FEFFFF00FEFFFF
(1682544438.531354) can1 18FDB300#00FE00FEFFFFFFFF
(1682544438.531972) can1 18E0FF00#FAFFFFFFFFFFFFFF
(1682544438.532588) can1 18FEF100#F3000010FF001FC5
(1682544438.533189) can1 0CF00400#F87D7D000000F07D
(1682544438.533803) can1 18FE9400#0000004000000000
(1682544438.534438) can1 18F00100#FFFFFFCFFFFFFFFF
(1682544438.535031) can1 10FD5200#FFFFFFFA00FFFFFF
(1682544438.535650) can1 18FF9A00#0000000000F0FFFF
(1682544438.536274) can1 10FCE300#FE0000FFFFFFFFFF
(1682544438.536884) can1 18FD9400#0000FFFF0000FFFF
(1682544438.537493) can1 10FCFD00#FFFFFFFF2964FFFF
(1682544438.538109) can1 18FEDB00#FFFF00FEFFFFFFFF
(1682544438.538713) can1 18FEEF00#FEFFFFFE8080FFFA
(1682544438.539325) can1 18FEEE00#FEFF00FEFFFFFFFF
(1682544438.539938) can1 18FEA400#FFFFFFFFFFFF00FE
(1682544438.540555) can1 18FD6600#FEFFFFFFFFFFFFFF
(1682544438.541178) can1 18FEBD00#00F00000FFFFFFFF
(1682544438.541794) can1 18FEF200#000000FEFFFFFEFF
(1682544438.542415) can1 18FDD000#FFFFFFFFFEFFFFFF
(1682544438.543022) can1 0CF00400#F87D7D000000F07D
(1682544438.543627) can1 18FF9B00#FFF0F0FFFE00FEF2
(1682544438.544228) can1 18FD7C00#F8B34100D1CFE3FF
(1682544438.544840) can1 18FEF000#FFFFFF0000C0FFFF
(1682544438.545456) can1 18FEE400#007FFFFC007FFFFF
(1682544438.546068) can1 18FE9A00#FFFF00FEFFFFFFFF
(1682544438.546680) can1 18FE9600#0CFAFFFFFFFFFFFF
(1682544438.547260) can1 18FEC100#4CD9D102285C8F02
(1682544438.547873) can1 18FEF700#FFFFFFFFFFFFF100
(1682544438.552430) can1 0CF00400#F87D7D000000F07D
(1682544438.555410) can1 18F00E00#FFFF325BFFFFFFFF
(1682544438.556015) can1 0CF00300#D10000FFFFFF00FF
(1682544438.556630) can1 0CF00A00#FFFF0000FFFFFFFF
(1682544438.557243) can1 18EFFF00#FFFFFFFF00011980
(1682544438.557851) can1 10F01A00#0000FFFF0000B004
(1682544438.562397) can1 0CF00400#F87D7D000000F07D
(1682544438.572611) can1 0CF00400#F87D7D000000F07D
(1682544438.582382) can1 0CF00400#F87D7D000000F07D
(1682544438.592408) can1 0CF00400#F87D7D000000F07D
(1682544438.602375) can1 0CF00400#F87D7D000000F07D
(1682544438.603111) can1 18F00E00#FFFF325BFFFFFFFF
(1682544438.603715) can1 0CF00300#D10000FFFFFF00FF
(1682544438.604334) can1 0CF00A00#FFFF0000FFFFFFFF
(1682544438.604943) can1 18EFFF00#FFFFFFFF00011980
(1682544438.605552) can1 10F01A00#0000FFFF0000B004
(1682544438.612626) can1 0CF00400#F87D7D000000F07D
(1682544438.622420) can1 0CF00400#F87D7D000000F07D
(1682544438.625315) can1 10FE6F00#FFFFFFFFFFFFFFFF
(1682544438.625929) can1 18FF3500#FFFFFF00FFFEFFFF
(1682544438.626554) can1 18FF1800#00FFFFFFFFFFFFFF
(1682544438.627157) can1 18FEF100#F3000010FF001FC5
(1682544438.627774) can1 18F00100#FFFFFFCFFFFFFFFF
(1682544438.628395) can1 10FCE300#FE0000FFFFFFFFFF
(1682544438.629010) can1 18FD9400#0000FFFF0000FFFF
(1682544438.629619) can1 10FCFD00#FFFFFFFF2964FFFF
(1682544438.630235) can1 18FEF200#000000FEFFFFFEFF
(1682544438.630831) can1 18FEF600#FAFEFEFEFF2022FF
(1682544438.631455) can1 18FF5000#FFFFFFCFFFFFFFFF
(1682544438.632075) can1 18FEF000#FFFFFF0000C0FFFF
(1682544438.632679) can1 0CF00400#F87D7D000000F07D
(1682544438.633291) can1 18FE9900#FFFF00FEFFFFFFFF
(1682544438.633904) can1 18FE9600#0CFAFFFFFFFFFFFF
(1682544438.634515) can1 18FE5600#00FFFFFF1F1FFFFF
(1682544438.642391) can1 0CF00400#F87D7D000000F07D
(1682544438.652632) can1 0CF00400#F87D7D000000F07D
(1682544438.655621) can1 18F00E00#FFFF325BFFFFFFFF
(1682544438.656229) can1 0CF00300#D10000FFFFFF00FF
(1682544438.656842) can1 0CF00A00#FFFF0000FFFFFFFF
(1682544438.657454) can1 18EFFF00#FFFFFFFF00011980
(1682544438.658075) can1 10F01A00#0000FFFF0000B004
(1682544438.662410) can1 0CF00400#F87D7D000000F07D
(1682544438.672420) can1 0CF00400#F87D7D000000F07D
(1682544438.682385) can1 0CF00400#F87D7D000000F07D
(1682544438.682801) can1 18EA9600#E6FE00
(1682544438.692616) can1 0CF00400#F87D7D000000F07D
(1682544438.702422) can1 0CF00400#F87D7D000000F07D
(1682544438.703130) can1 18F00E00#FFFF325BFFFFFFFF
(1682544438.703734) can1 0CF00300#D10000FFFFFF00FF
(1682544438.704353) can1 0CF00A00#FFFF0000FFFFFFFF
(1682544438.704963) can1 18EFFF00#FFFFFFFF00011980
(1682544438.705570) can1 10F01A00#0000FFFF0000B004
(1682544438.712429) can1 0CF00400#F87D7D000000F07D
(1682544438.722379) can1 0CF00400#F87D7D000000F07D
(1682544438.725189) can1 10FE6F00#FFFFFFFFFFFFFFFF
(1682544438.725814) can1 18FF3500#FFFFFF00FFFEFFFF
(1682544438.726431) can1 18FF1800#00FFFFFFFFFFFFFF
(1682544438.727034) can1 18FEF100#F3000010FF001FC5
(1682544438.727650) can1 18F00100#FFFFFFCFFFFFFFFF
(1682544438.728273) can1 10FCE300#FE0000FFFFFFFFFF
(1682544438.728886) can1 18FD9400#0000FFFF0000FFFF
(1682544438.729494) can1 10FCFD00#FFFFFFFF2964FFFF
(1682544438.730110) can1 18FEF200#000000FEFFFFFEFF
(1682544438.730726) can1 18FEF000#FFFFFF0000C0FFFF
(1682544438.731337) can1 18FE9600#0CFAFFFFFFFFFFFF
(1682544438.732631) can1 0CF00400#F87D7D000000F07D
(1682544438.742461) can1 0CF00400#F87D7D000000F07D
(1682544438.752509) can1 18FECA00#40FF66000301FFFF
(1682544438.753108) can1 0CF00400#F87D7D000000F07D
(1682544438.755510) can1 18F00E00#FFFF325BFFFFFFFF
(1682544438.756117) can1 0CF00300#D10000FFFFFF00FF
(1682544438.756714) can1 18FEDF00#FE00FEFE7DCB05FF
(1682544438.757330) can1 0CF00A00#FFFF0000FFFFFFFF
(1682544438.757940) can1 18EFFF00#FFFFFFFF00011980
(1682544438.758550) can1 10F01A00#0000FFFF0000B004
(1682544438.762391) can1 0CF00400#F87D7D000000F07D
(1682544438.772621) can1 0CF00400#F87D7D000000F07D
(1682544438.782393) can1 0CF00400#F87D7D000000F07D
(1682544438.792413) can1 0CF00400#F87D7D000000F07D
(1682544438.802394) can1 0CF00400#F87D7D000000F07D
(1682544438.803133) can1 18F00E00#FFFF325BFFFFFFFF
(1682544438.803738) can1 0CF00300#D10000FFFFFF00FF
(1682544438.804355) can1 0CF00A00#FFFF0000FFFFFFFF
(1682544438.804966) can1 18EFFF00#FFFFFFFF00011980
(1682544438.805574) can1 10F01A00#0000FFFF0000B004
(1682544438.812620) can1 0CF00400#F87D7D000000F07D
(1682544438.822406) can1 0CF00400#F87D7D000000F07D
(1682544438.825233) can1 10FE6F00#FFFFFFFFFFFFFFFF
(1682544438.825847) can1 18FF3500#FFFFFF00FFFEFFFF
(1682544438.826471) can1 18FF1800#00FFFFFFFFFFFFFF
(1682544438.827076) can1 18FEF100#F3000010FF001FC5
(1682544438.827692) can1 18F00100#FFFFFFCFFFFFFFFF
(1682544438.828313) can1 10FCE300#FE0000FFFFFFFFFF
(1682544438.828929) can1 18FD9400#0000FFFF0000FFFF
(1682544438.829536) can1 10FCFD00#FFFFFFFF2964FFFF
(1682544438.830153) can1 18FEF200#000000FEFFFFFEFF
(1682544438.830770) can1 18FEF000#FFFFFF0000C0FFFF
(1682544438.831381) can1 18FE9600#0CFAFFFFFFFFFFFF
(1682544438.832450) can1 0CF00400#F87D7D000000F07D
(1682544438.842401) can1 0CF00400#F87D7D000000F07D
(1682544438.852634) can1 0CF00400#F87D7D000000F07D
(1682544438.855629) can1 18F00E00#FFFF325BFFFFFFFF
(1682544438.856237) can1 0CF00300#D10000FFFFFF00FF
(1682544438.856849) can1 0CF00A00#FFFF0000FFFFFFFF
(1682544438.857460) can1 18EFFF00#FFFFFFFF00011980
(1682544438.858068) can1 10F01A00#0000FFFF0000B004
(1682544438.862430) can1 0CF00400#F87D7D000000F07D
(1682544438.872414) can1 0CF00400#F87D7D000000F07D
(1682544438.882365) can1 0CF00400#F87D7D000000F07D
(1682544438.892615) can1 0CF00400#F87D7D000000F07D
(1682544438.902410) can1 0CF00400#F87D7D000000F07D
(1682544438.903129) can1 18F00E00#FFFF325BFFFFFFFF
(1682544438.903733) can1 0CF00300#D10000FFFFFF00FF
(1682544438.904351) can1 0CF00A00#FFFF0000FFFFFFFF
(1682544438.904961) can1 18EFFF00#FFFFFFFF00011980
(1682544438.905570) can1 10F01A00#0000FFFF0000B004
(1682544438.912429) can1 0CF00400#F87D7D000000F07D
(1682544438.922402) can1 0CF00400#F87D7D000000F07D
(1682544438.925221) can1 10FE6F00#FFFFFFFFFFFFFFFF
(1682544438.925835) can1 18FF3500#FFFFFF00FFFEFFFF
(1682544438.926458) can1 18FF1800#00FFFFFFFFFFFFFF
(1682544438.927063) can1 18FEF100#F3000010FF001FC5
(1682544438.927679) can1 18F00100#FFFFFFCFFFFFFFFF
(1682544438.928301) can1 10FCE300#FE0000FFFFFFFFFF
(1682544438.928915) can1 18FD9400#0000FFFF0000FFFF
(1682544438.929523) can1 10FCFD00#FFFFFFFF2964FFFF
(1682544438.930141) can1 18FEF200#000000FEFFFFFEFF
(1682544438.930756) can1 18FEF000#FFFFFF0000C0FFFF
(1682544438.931368) can1 18FE9600#0CFAFFFFFFFFFFFF
(1682544438.932652) can1 0CF00400#F87D7D000000F07D
(1682544438.942404) can1 0CF00400#F87D7D000000F07D
(1682544438.952452) can1 0CF00400#F87D7D000000F07D
(1682544438.955477) can1 18F00E00#FFFF325BFFFFFFFF
(1682544438.956084) can1 0CF00300#D10000FFFFFF00FF
(1682544438.956692) can1 0CF00A00#FFFF0000FFFFFFFF
(1682544438.957318) can1 18EFFF00#FFFFFFFF00011980
(1682544438.957915) can1 10F01A00#0000FFFF0000B004
(1682544438.962399) can1 0CF00400#F87D7D000000F07D
(1682544438.972620) can1 0CF00400#F87D7D000000F07D
(1682544438.982411) can1 0CF00400#F87D7D000000F07D
(1682544438.992413) can1 0CF00400#F87D7D000000F07D
(1682544439.002380) can1 0CF00400#F87D7D000000F07D
(1682544439.003100) can1 18F00E00#FFFF325BFFFFFFFF
(1682544439.003704) can1 0CF00300#D10000FFFFFF00FF
(1682544439.004310) can1 18FEDF00#FE00FEFE7D8C00FF
(1682544439.004924) can1 0CF00A00#FFFF0000FFFFFFFF
(1682544439.005536) can1 18EFFF00#FFFFFFFF00011980
(1682544439.006145) can1 10F01A00#0000FFFF0000B004
(1682544439.012617) can1 0CF00400#F87D7D000000F07D
(1682544439.022413) can1 0CF00400#F87D7D000000F07D
(1682544439.025203) can1 18FD2000#00FE00FEFFFFFFFF
(1682544439.025822) can1 10FE6F00#FFFFFFFFFFFFFFFF
(1682544439.026438) can1 18FF3500#FFFFFF00FFFEFFFF
(1682544439.027062) can1 18FF1800#00FFFFFFFFFFFFFF
(1682544439.027682) can1 18FDA100#00FE000000000FFF
(1682544439.028307) can1 18FD6500#00FEFFFFFFFEFFFF
(1682544439.028915) can1 18FDB400#FFFF00FEFFFFFFFF
(1682544439.029531) can1 18FDB200#00FEFFFF00FEFFFF
(1682544439.030152) can1 18FDB300#00FE00FEFFFFFFFF
(1682544439.030776) can1 18FEF100#F3000010FF001FC5
(1682544439.031378) can1 18FFB000#7F7F7F7F7F7FFFFF
(1682544439.031992) can1 18FE9400#0000004000000000
(1682544439.032607) can1 0CF00400#F87D7D000000F07D
(1682544439.033218) can1 18F00100#FFFFFFCFFFFFFFFF
(1682544439.033835) can1 10FCE300#FE0000FFFFFFFFFF
(1682544439.034453) can1 18FD9400#0000FFFF0000FFFF
(1682544439.035061) can1 10FCFD00#FFFFFFFF2964FFFF
(1682544439.035678) can1 18FEDB00#FFFF00FEFFFFFFFF
(1682544439.036290) can1 18FEEF00#FEFFFFFE8080FFFA
(1682544439.036899) can1 18FE6900#00FEFFFFFFFF00FE
(1682544439.037514) can1 18FEF200#000000FEFFFFFEFF
(1682544439.038135) can1 18FDD000#FFFFFFFFFEFFFFFF
(1682544439.038739) can1 18FF9B00#FFF0F0FFFE00FEF2
(1682544439.039355) can1 18FEF000#FFFFFF0000C0FFFF
(1682544439.039967) can1 18FE9600#0CFAFFFFFFFFFFFF
(1682544439.042399) can1 0CF00400#F87D7D000000F07D
(1682544439.052628) can1 0CF00400#F87D7D000000F07D
(1682544439.055615) can1 18F00E00#FFFF325BFFFFFFFF
(1682544439.056225) can1 0CF00300#D10000FFFFFF00FF
(1682544439.056836) can1 0CF00A00#FFFF0000FFFFFFFF
(1682544439.057447) can1 18EFFF00#FFFFFFFF00011980
(1682544439.058056) can1 10F01A00#0000FFFF0000B004
(1682544439.062414) can1 0CF00400#F87D7D000000F07D
(1682544439.072416) can1 0CF00400#F87D7D000000F07D
(1682544439.082367) can1 0CF00400#F87D7D000000F07D
(1682544439.092613) can1 0CF00400#F87D7D000000F07D
(1682544439.102423) can1 0CF00400#F87D7D000000F07D
(1682544439.103157) can1 18F00E00#FFFF325BFFFFFFFF
(1682544439.103760) can1 0CF00300#D10000FFFFFF00FF
(1682544439.104379) can1 0CF00A00#FFFF0000FFFFFFFF
(1682544439.104988) can1 18EFFF00#FFFFFFFF00011980
(1682544439.105597) can1 10F01A00#0000FFFF0000B004
(1682544439.112420) can1 0CF00400#F87D7D000000F07D
(1682544439.122374) can1 0CF00400#F87D7D000000F07D
(1682544439.125225) can1 10FE6F00#FFFFFFFFFFFFFFFF
(1682544439.125838) can1 18FF3500#FFFFFF00FFFEFFFF
(1682544439.126463) can1 18FF1800#00FFFFFFFFFFFFFF
(1682544439.127067) can1 18FEF100#F3000010FF001FC5
(1682544439.127683) can1 18F00100#FFFFFFCFFFFFFFFF
(1682544439.128304) can1 10FCE300#FE0000FFFFFFFFFF
(1682544439.128920) can1 18FD9400#0000FFFF0000FFFF
(1682544439.129528) can1 10FCFD00#FFFFFFFF2964FFFF
(1682544439.130144) can1 18FEF200#000000FEFFFFFEFF
(1682544439.130740) can1 18FEF600#FAFEFEFEFF2022FF
(1682544439.131357) can1 18FEF000#FFFFFF0000C0FFFF
(1682544439.131968) can1 18FE9600#0CFAFFFFFFFFFFFF
(1682544439.132645) can1 0CF00400#F87D7D000000F07D
(1682544439.142416) can1 0CF00400#F87D7D000000F07D
(1682544439.152437) can1 0CF00400#F87D7D000000F07D
(1682544439.155423) can1 18F00E00#FFFF325BFFFFFFFF
(1682544439.156027) can1 0CF00300#D10000FFFFFF00FF
(1682544439.156643) can1 0CF00A00#FFFF0000FFFFFFFF
(1682544439.157255) can1 18EFFF00#FFFFFFFF00011980
(1682544439.157864) can1 10F01A00#0000FFFF0000B004
(1682544439.162413) can1 0CF00400#F87D7D000000F07D
(1682544439.172637) can1 0CF00400#F87D7D000000F07D
(1682544439.182400) can1 0CF00400#F87D7D000000F07D
(1682544439.192447) can1 0CF00400#F87D7D000000F07D
(1682544439.202385) can1 0CF00400#F87D7D000000F07D
(1682544439.203110) can1 18F00E00#FFFF325BFFFFFFFF
(1682544439.203711) can1 0CF00300#D10000FFFFFF00FF
(1682544439.204330) can1 0CF00A00#FFFF0000FFFFFFFF
(1682544439.204940) can1 18EFFF00#FFFFFFFF00011980
(1682544439.205549) can1 10F01A00#0000FFFF0000B004
(1682544439.212628) can1 0CF00400#F87D7D000000F07D
(1682544439.222431) can1 0CF00400#F87D7D000000F07D
(1682544439.225254) can1 10FE6F00#FFFFFFFFFFFFFFFF
(1682544439.225862) can1 18FF3500#FFFFFF00FFFEFFFF
(1682544439.226486) can1 18FF1800#00FFFFFFFFFFFFFF
(1682544439.227091) can1 18FEF100#F3000010FF001FC5
(1682544439.227706) can1 18F00100#FFFFFFCFFFFFFFFF
(1682544439.228328) can1 10FCE300#FE0000FFFFFFFFFF
(1682544439.228942) can1 18FD9400#0000FFFF0000FFFF
(1682544439.229550) can1 10FCFD00#FFFFFFFF2964FFFF
(1682544439.230167) can1 18FEF200#000000FEFFFFFEFF
(1682544439.230783) can1 18FEF000#FFFFFF0000C0FFFF
(1682544439.231395) can1 18FE9600#0CFAFFFFFFFFFFFF
(1682544439.232448) can1 0CF00400#F87D7D000000F07D
(1682544439.242403) can1 0CF00400#F87D7D000000F07D
(1682544439.252636) can1 0CF00400#F87D7D000000F07D
(1682544439.255621) can1 18F00E00#FFFF325BFFFFFFFF
(1682544439.256229) can1 0CF00300#D10000FFFFFF00FF
(1682544439.256829) can1 18FEDF00#FE00FEFE7D0600FF
(1682544439.257445) can1 0CF00A00#FFFF0000FFFFFFFF
(1682544439.258058) can1 18EFFF00#FFFFFFFF00011980
(1682544439.258666) can1 10F01A00#0000FFFF0000B004
(1682544439.262418) can1 0CF00400#F87D7D000000F07D
(1682544439.272427) can1 0CF00400#F87D7D000000F07D
(1682544439.282397) can1 0CF00400#F87D7D000000F07D
(1682544439.292608) can1 0CF00400#F87D7D000000F07D
(1682544439.302406) can1 0CF00400#F87D7D000000F07D
(1682544439.303126) can1 18F00E00#FFFF325BFFFFFFFF
(1682544439.303730) can1 0CF00300#D10000FFFFFF00FF
(1682544439.304348) can1 0CF00A00#FFFF0000FFFFFFFF
(1682544439.304958) can1 18EFFF00#FFFFFFFF00011980
(1682544439.305573) can1 10F01A00#0000FFFF0000B004
(1682544439.312433) can1 0CF00400#F87D7D000000F07D
(1682544439.322385) can1 0CF00400#F87D7D000000F07D
(1682544439.325206) can1 10FE6F00#FFFFFFFFFFFFFFFF
(1682544439.325820) can1 18FF3500#FFFFFF00FFFEFFFF
(1682544439.326444) can1 18FF1800#00FFFFFFFFFFFFFF
(1682544439.327048) can1 18FEF100#F3000010FF001FC5
(1682544439.327665) can1 18F00100#FFFFFFCFFFFFFFFF
(1682544439.328286) can1 10FCE300#FE0000FFFFFFFFFF
(1682544439.328902) can1 18FD9400#0000FFFF0000FFFF
(1682544439.329509) can1 10FCFD00#FFFFFFFF2964FFFF
(1682544439.330125) can1 18FEF200#000000FEFFFFFEFF
(1682544439.330742) can1 18FEF000#FFFFFF0000C0FFFF
(1682544439.331354) can1 18FE9600#0CFAFFFFFFFFFFFF
(1682544439.332656) can1 0CF00400#F87D7D000000F07D
(1682544439.342433) can1 0CF00400#F87D7D000000F07D
(1682544439.352431) can1 0CF00400#F87D7D000000F07D
(1682544439.355419) can1 18F00E00#FFFF325BFFFFFFFF
(1682544439.356024) can1 0CF00300#D10000FFFFFF00FF
(1682544439.356640) can1 0CF00A00#FFFF0000FFFFFFFF
(1682544439.357252) can1 18EFFF00#FFFFFFFF00011980
(1682544439.357861) can1 10F01A00#0000FFFF0000B004
(1682544439.362386) can1 0CF00400#F87D7D000000F07D
(1682544439.372642) can1 0CF00400#F87D7D000000F07D
(1682544439.382403) can1 0CF00400#F87D7D000000F07D
(1682544439.392431) can1 0CF00400#F87D7D000000F07D
(1682544439.402402) can1 0CF00400#F87D7D000000F07D
(1682544439.403130) can1 18F00E00#FFFF325BFFFFFFFF
(1682544439.403733) can1 0CF00300#D10000FFFFFF00FF
(1682544439.404351) can1 0CF00A00#FFFF0000FFFFFFFF
(1682544439.404961) can1 18EFFF00#FFFFFFFF00011980
(1682544439.405570) can1 10F01A00#0000FFFF0000B004
(1682544439.412629) can1 0CF00400#F87D7D000000F07D
(1682544439.422411) can1 0CF00400#F87D7D000000F07D
(1682544439.425224) can1 10FE6F00#FFFFFFFFFFFFFFFF
(1682544439.425838) can1 18FF3500#FFFFFF00FFFEFFFF
(1682544439.426463) can1 18FF1800#00FFFFFFFFFFFFFF
(1682544439.427067) can1 18FEF100#F3000010FF001FC5
(1682544439.427683) can1 18F00100#FFFFFFCFFFFFFFFF
(1682544439.428304) can1 10FCE300#FE0000FFFFFFFFFF
(1682544439.428932) can1 18FD9400#0000FFFF0000FFFF
(1682544439.429533) can1 10FCFD00#FFFFFFFF2964FFFF
(1682544439.430145) can1 18FEF200#000000FEFFFFFEFF
(1682544439.430762) can1 18FEF000#FFFFFF0000C0FFFF
(1682544439.431373) can1 18FE9600#0CFAFFFFFFFFFFFF
(1682544439.432466) can1 0CF00400#F87D7D000000F07D
(1682544439.442396) can1 0CF00400#F87D7D000000F07D
(1682544439.452671) can1 0CF00400#F87D7D000000F07D
(1682544439.455630) can1 18F00E00#FFFF325BFFFFFFFF
(1682544439.456238) can1 0CF00300#D10000FFFFFF00FF
(1682544439.456846) can1 0CF00A00#FFFF0000FFFFFFFF
(1682544439.457456) can1 18EFFF00#FFFFFFFF00011980
(1682544439.458063) can1 10F01A00#0000FFFF0000B004
(1682544439.462442) can1 0CF00400#F87D7D000000F07D
(1682544439.472427) can1 0CF00400#F87D7D000000F07D
(1682544439.482390) can1 0CF00400#F87D7D000000F07D
(1682544439.492608) can1 0CF00400#F87D7D000000F07D
(1682544439.502404) can1 0CF00400#F87D7D000000F07D
(1682544439.503123) can1 18F00E00#FFFF325BFFFFFFFF
(1682544439.503727) can1 0CF00300#D10000FFFFFF00FF
(1682544439.504338) can1 18FEDF00#FE00FEFE7D0000FF
(1682544439.504951) can1 0CF00A00#FFFF0000FFFFFFFF
(1682544439.505564) can1 18EFFF00#FFFFFFFF00011980
(1682544439.506172) can1 10F01A00#0000FFFF0000B004
(1682544439.512427) can1 0CF00400#F87D7D000000F07D
(1682544439.522403) can1 0CF00400#F87D7D000000F07D
(1682544439.525296) can1 18FD2000#00FE00FEFFFFFFFF
(1682544439.525914) can1 10FE6F00#FFFFFFFFFFFFFFFF
(1682544439.526529) can1 18FF3500#FFFFFF00FFFEFFFF
(1682544439.527146) can1 18FF3800#000000FFFF9AFFFF
(1682544439.527770) can1 18FF1800#00FFFFFFFFFFFFFF
(1682544439.528396) can1 18FDA100#00FE000000000FFF
(1682544439.528995) can1 18FEF500#A7FFFF00FE00FFFF
(1682544439.529615) can1 18FD6500#00FEFFFFFFFEFFFF
(1682544439.530227) can1 18FDB400#FFFF00FEFFFFFFFF
(1682544439.530843) can1 18FDB200#00FEFFFF00FEFFFF
(1682544439.531463) can1 18FDB300#00FE00FEFFFFFFFF
(1682544439.532084) can1 18E0FF00#FAFFFFFFFFFFFFFF
(1682544439.532684) can1 18FEF100#F3000010FF001FC5
(1682544439.533292) can1 0CF00400#F87D7D000000F07D
(1682544439.533908) can1 18FE9400#0000004000000000
(1682544439.534524) can1 18F00100#FFFFFFCFFFFFFFFF
(1682544439.535136) can1 10FD5200#FFFFFFFA00FFFFFF
(1682544439.535757) can1 18FF9A00#0000000000F0FFFF
(1682544439.536396) can1 10FCE300#FE0000FFFFFFFFFF
(1682544439.536997) can1 18FD9400#0000FFFF0000FFFF
(1682544439.537603) can1 10FCFD00#FFFFFFFF2964FFFF
(1682544439.538218) can1 18FEDB00#FFFF00FEFFFFFFFF
(1682544439.538823) can1 18FEEF00#FEFFFFFE8080FFFA
(1682544439.539434) can1 18FEEE00#FEFF00FEFFFFFFFF
(1682544439.540052) can1 18FEA400#FFFFFFFFFFFF00FE
(1682544439.540667) can1 18FD6600#FEFFFFFFFFFFFFFF
(1682544439.541288) can1 18FEBD00#00F00000FFFFFFFF
(1682544439.541904) can1 18FEF200#000000FEFFFFFEFF
(1682544439.542512) can1 0CF00400#F87D7D000000F07D
(1682544439.543132) can1 18FDD000#FFFFFFFFFEFFFFFF
(1682544439.543736) can1 18FF9B00#FFF0F0FFFE00FEF2
(1682544439.544339) can1 18FD7C00#F8B34100D1CFE3FF
(1682544439.544948) can1 18FEF000#FFFFFF0000C0FFFF
(1682544439.545564) can1 18FEE400#007FFFFC007FFFFF
(1682544439.546176) can1 18FE9A00#FFFF00FEFFFFFFFF
(1682544439.546789) can1 18FE9600#0CFAFFFFFFFFFFFF
(1682544439.547369) can1 18FEC100#4CD9D102285C8F02
(1682544439.547981) can1 18FEF700#FFFFFFFFFFFFF100
(1682544439.552435) can1 0CF00400#F87D7D000000F07D
(1682544439.555421) can1 18F00E00#FFFF325BFFFFFFFF
(1682544439.556025) can1 0CF00300#D10000FFFFFF00FF
(1682544439.556640) can1 0CF00A00#FFFF0000FFFFFFFF
(1682544439.557252) can1 18EFFF00#FFFFFFFF00011980
(1682544439.557860) can1 10F01A00#0000FFFF0000B004
(1682544439.562396) can1 0CF00400#F87D7D000000F07D
(1682544439.572749) can1 0CF00400#F87D7D000000F07D
(1682544439.582410) can1 0CF00400#F87D7D000000F07D
(1682544439.592418) can1 0CF00400#F87D7D000000F07D
(1682544439.602380) can1 0CF00400#F87D7D000000F07D
(1682544439.603119) can1 18F00E00#FFFF325BFFFFFFFF
(1682544439.603724) can1 0CF00300#D10000FFFFFF00FF
(1682544439.604343) can1 0CF00A00#FFFF0000FFFFFFFF
(1682544439.604953) can1 18EFFF00#FFFFFFFF00011980
(1682544439.605561) can1 10F01A00#0000FFFF0000B004
(1682544439.612751) can1 0CF00400#F87D7D000000F07D
(1682544439.622419) can1 0CF00400#F87D7D000000F07D
(1682544439.625236) can1 10FE6F00#FFFFFFFFFFFFFFFF
(1682544439.625847) can1 18FF3500#FFFFFF00FFFEFFFF
(1682544439.626471) can1 18FF1800#00FFFFFFFFFFFFFF
(1682544439.627075) can1 18FEF100#F3000010FF001FC5
(1682544439.627692) can1 18F00100#FFFFFFCFFFFFFFFF
(1682544439.628313) can1 10FCE300#FE0000FFFFFFFFFF
(1682544439.628927) can1 18FD9400#0000FFFF0000FFFF
(1682544439.629536) can1 10FCFD00#FFFFFFFF2964FFFF
(1682544439.630151) can1 18FEF200#000000FEFFFFFEFF
(1682544439.630748) can1 18FEF600#FAFEFEFEFF2022FF
(1682544439.631372) can1 18FF5000#FFFFFFCFFFFFFFFF
(1682544439.631987) can1 18FEF000#FFFFFF0000C0FFFF
(1682544439.632597) can1 0CF00400#F87D7D000000F07D
(1682544439.633209) can1 18FE9900#FFFF00FEFFFFFFFF
(1682544439.633822) can1 18FE9600#0CFAFFFFFFFFFFFF
(1682544439.634434) can1 18FE5600#00FFFFFF1F1FFFFF
(1682544439.642413) can1 0CF00400#F87D7D000000F07D
(1682544439.652763) can1 0CF00400#F87D7D000000F07D
(1682544439.655750) can1 18F00E00#FFFF325BFFFFFFFF
(1682544439.656359) can1 0CF00300#D10000FFFFFF00FF
(1682544439.656971) can1 0CF00A00#FFFF0000FFFFFFFF
(1682544439.657584) can1 18EFFF00#FFFFFFFF00011980
(1682544439.658192) can1 10F01A00#0000FFFF0000B004
(1682544439.662420) can1 0CF00400#F87D7D000000F07D
(1682544439.672442) can1 0CF00400#F87D7D000000F07D
(1682544439.682376) can1 0CF00400#F87D7D000000F07D
(1682544439.682790) can1 18EA9600#E6FE00
(1682544439.692741) can1 0CF00400#F87D7D000000F07D
(1682544439.702430) can1 0CF00400#F87D7D000000F07D
(1682544439.703160) can1 18F00E00#FFFF325BFFFFFFFF
(1682544439.703764) can1 0CF00300#D10000FFFFFF00FF
(1682544439.704382) can1 0CF00A00#FFFF0000FFFFFFFF
(1682544439.704992) can1 18EFFF00#FFFFFFFF00011980
(1682544439.705601) can1 10F01A00#0000FFFF0000B004
(1682544439.712440) can1 0CF00400#F87D7D000000F07D
(1682544439.722385) can1 0CF00400#F87D7D000000F07D
(1682544439.725206) can1 10FE6F00#FFFFFFFFFFFFFFFF
(1682544439.725821) can1 18FF3500#FFFFFF00FFFEFFFF
(1682544439.726445) can1 18FF1800#00FFFFFFFFFFFFFF
(1682544439.727049) can1 18FEF100#F3000010FF001FC5
(1682544439.727666) can1 18F00100#FFFFFFCFFFFFFFFF
(1682544439.728286) can1 10FCE300#FE0000FFFFFFFFFF
(1682544439.728902) can1 18FD9400#0000FFFF0000FFFF
(1682544439.729510) can1 10FCFD00#FFFFFFFF2964FFFF
(1682544439.730126) can1 18FEF200#000000FEFFFFFEFF
(1682544439.730742) can1 18FEF000#FFFFFF0000C0FFFF
(1682544439.731354) can1 18FE9600#0CFAFFFFFFFFFFFF
(1682544439.732754) can1 0CF00400#F87D7D000000F07D
(1682544439.742447) can1 0CF00400#F87D7D000000F07D
(1682544439.752510) can1 18FECA00#40FF66000301FFFF
(1682544439.753113) can1 0CF00400#F87D7D000000F07D
(1682544439.755521) can1 18F00E00#FFFF325BFFFFFFFF
(1682544439.756128) can1 0CF00300#D10000FFFFFF00FF
(1682544439.756733) can1 18FEDF00#FE00FEFE7D0200FF
(1682544439.757349) can1 0CF00A00#FFFF0000FFFFFFFF
(1682544439.757962) can1 18EFFF00#FFFFFFFF00011980
(1682544439.758570) can1 10F01A00#0000FFFF0000B004
(1682544439.762423) can1 0CF00400#F87D7D000000F07D
(1682544439.772749) can1 0CF00400#F87D7D000000F07D
(1682544439.782416) can1 0CF00400#F87D7D000000F07D
(1682544439.792426) can1 0CF00400#F87D7D000000F07D
(1682544439.802388) can1 0CF00400#F87D7D000000F07D
(1682544439.803129) can1 18F00E00#FFFF325BFFFFFFFF
(1682544439.803735) can1 0CF00300#D10000FFFFFF00FF
(1682544439.804375) can1 0CF00A00#FFFF0000FFFFFFFF
(1682544439.804948) can1 18EFFF00#FFFFFFFF00011980
(1682544439.805553) can1 10F01A00#0000FFFF0000B004
(1682544439.812758) can1 0CF00400#F87D7D000000F07D
(1682544439.822434) can1 0CF00400#F87D7D000000F07D
(1682544439.825250) can1 10FE6F00#FFFFFFFFFFFFFFFF
(1682544439.825864) can1 18FF3500#FFFFFF00FFFEFFFF
(1682544439.826488) can1 18FF1800#00FFFFFFFFFFFFFF
(1682544439.827092) can1 18FEF100#F3000010FF001FC5
(1682544439.827708) can1 18F00100#FFFFFFCFFFFFFFFF
(1682544439.828329) can1 10FCE300#FE0000FFFFFFFFFF
(1682544439.828944) can1 18FD9400#0000FFFF0000FFFF
(1682544439.829552) can1 10FCFD00#FFFFFFFF2964FFFF
(1682544439.830169) can1 18FEF200#000000FEFFFFFEFF
(1682544439.830785) can1 18FEF000#FFFFFF0000C0FFFF
(1682544439.831413) can1 18FE9600#0CFAFFFFFFFFFFFF
(1682544439.832463) can1 0CF00400#F87D7D000000F07D
(1682544439.842422) can1 0CF00400#F87D7D000000F07D
(1682544439.852784) can1 0CF00400#F87D7D000000F07D
(1682544439.855774) can1 18F00E00#FFFF325BFFFFFFFF
(1682544439.856381) can1 0CF00300#D10000FFFFFF00FF
(1682544439.856992) can1 0CF00A00#FFFF0000FFFFFFFF
(1682544439.857606) can1 18EFFF00#FFFFFFFF00011980
(1682544439.858213) can1 10F01A00#0000FFFF0000B004
(1682544439.862419) can1 0CF00400#F87D7D000000F07D
(1682544439.872421) can1 0CF00400#F87D7D000000F07D
(1682544439.882408) can1 0CF00400#F87D7D000000F07D
(1682544439.892742) can1 0CF00400#F87D7D000000F07D
(1682544439.902410) can1 0CF00400#F87D7D000000F07D
(1682544439.903148) can1 18F00E00#FFFF325BFFFFFFFF
(1682544439.903750) can1 0CF00300#D10000FFFFFF00FF
(1682544439.904374) can1 0CF00A00#FFFF0000FFFFFFFF
(1682544439.904978) can1 18EFFF00#FFFFFFFF00011980
(1682544439.905585) can1 10F01A00#0000FFFF0000B004
(1682544439.912429) can1 0CF00400#F87D7D000000F07D
(1682544439.922382) can1 0CF00400#F87D7D000000F07D
(1682544439.925204) can1 10FE6F00#FFFFFFFFFFFFFFFF
(1682544439.925819) can1 18FF3500#FFFFFF00FFFEFFFF
(1682544439.926443) can1 18FF1800#00FFFFFFFFFFFFFF
(1682544439.927047) can1 18FEF100#F3000010FF001FC5
(1682544439.927663) can1 18F00100#FFFFFFCFFFFFFFFF
(1682544439.928284) can1 10FCE300#FE0000FFFFFFFFFF
(1682544439.928900) can1 18FD9400#0000FFFF0000FFFF
(1682544439.929508) can1 10FCFD00#FFFFFFFF2964FFFF
(1682544439.930124) can1 18FEF200#000000FEFFFFFEFF
(1682544439.930740) can1 18FEF000#FFFFFF0000C0FFFF
(1682544439.931353) can1 18FE9600#0CFAFFFFFFFFFFFF
(1682544439.932686) can1 0CF00400#F87D7D000000F07D
(1682544439.942444) can1 0CF00400#F87D7D000000F07D
(1682544439.952480) can1 0CF00400#F87D7D000000F07D
(1682544439.955449) can1 18F00E00#FFFF325BFFFFFFFF
(1682544439.956057) can1 0CF00300#D10000FFFFFF00FF
(1682544439.956664) can1 0CF00A00#FFFF0000FFFFFFFF
(1682544439.957276) can1 18EFFF00#FFFFFFFF00011980
(1682544439.957884) can1 10F01A00#0000FFFF0000B004
(1682544439.962403) can1 0CF00400#F87D7D000000F07D
(1682544439.972629) can1 0CF00400#F87D7D000000F07D
(1682544439.982406) can1 0CF00400#F87D7D000000F07D
(1682544439.992432) can1 0CF00400#F87D7D000000F07D
(1682544440.002419) can1 0CF00400#F87D7D000000F07D
(1682544440.003136) can1 18F00E00#FFFF325BFFFFFFFF
(1682544440.003740) can1 0CF00300#D10000FFFFFF00FF
(1682544440.004350) can1 18FEDF00#FE00FEFE7D0200FF
(1682544440.004964) can1 0CF00A00#FFFF0000FFFFFFFF
(1682544440.005576) can1 18EFFF00#FFFFFFFF00011980
(1682544440.006185) can1 10F01A00#0000FFFF0000B004
(1682544440.012623) can1 0CF00400#F87D7D000000F07D
(1682544440.022417) can1 0CF00400#F87D7D000000F07D
(1682544440.025199) can1 18FD2000#00FE00FEFFFFFFFF
(1682544440.025818) can1 10FE6F00#FFFFFFFFFFFFFFFF
(1682544440.026434) can1 18FF3500#FFFFFF00FFFEFFFF
(1682544440.027058) can1 18FF1800#00FFFFFFFFFFFFFF
(1682544440.027679) can1 18FDA100#00FE000000000FFF
(1682544440.028303) can1 18FD6500#00FEFFFFFFFEFFFF
(1682544440.028910) can1 18FDB400#FFFF00FEFFFFFFFF
(1682544440.029527) can1 18FDB200#00FEFFFF00FEFFFF
(1682544440.030147) can1 18FDB300#00FE00FEFFFFFFFF
(1682544440.030751) can1 18FEF100#F3000010FF001FC5
(1682544440.031371) can1 18FFB000#7F7F7F7F7F7FFFFF
(1682544440.032007) can1 18FE9400#0000004000000000
(1682544440.032597) can1 0CF00400#F87D7D000000F07D
(1682544440.033213) can1 18F00100#FFFFFFCFFFFFFFFF
(1682544440.033828) can1 10FCE300#FE0000FFFFFFFFFF
(1682544440.034448) can1 18FD9400#0000FFFF0000FFFF
(1682544440.035056) can1 10FCFD00#FFFFFFFF2964FFFF
(1682544440.035673) can1 18FEDB00#FFFF00FEFFFFFFFF
(1682544440.036282) can1 18FEEF00#FEFFFFFE8080FFFA
(1682544440.036894) can1 18FE6900#00FEFFFFFFFF00FE
(1682544440.037510) can1 18FEF200#000000FEFFFFFEFF
(1682544440.038130) can1 18FDD000#FFFFFFFFFEFFFFFF
(1682544440.038734) can1 18FF9B00#FFF0F0FFFE00FEF2
(1682544440.039350) can1 18FEF000#FFFFFF0000C0FFFF
(1682544440.039962) can1 18FE9600#0CFAFFFFFFFFFFFF
(1682544440.042391) can1 0CF00400#F87D7D000000F07D
(1682544440.052644) can1 0CF00400#F87D7D000000F07D
(1682544440.055625) can1 18F00E00#FFFF325BFFFFFFFF
(1682544440.056249) can1 0CF00300#D10000FFFFFF00FF
(1682544440.056848) can1 0CF00A00#FFFF0000FFFFFFFF
(1682544440.057456) can1 18EFFF00#FFFFFFFF00011980
(1682544440.058065) can1 10F01A00#0000FFFF0000B004
(1682544440.062442) can1 0CF00400#F87D7D000000F07D
(1682544440.072424) can1 0CF00400#F87D7D000000F07D
(1682544440.082375) can1 0CF00400#F87D7D000000F07D
(1682544440.092621) can1 0CF00400#F87D7D000000F07D
(1682544440.102414) can1 0CF00400#F87D7D000000F07D
(1682544440.103142) can1 18F00E00#FFFF325BFFFFFFFF
(1682544440.103743) can1 0CF00300#D10000FFFFFF00FF
(1682544440.104361) can1 0CF00A00#FFFF0000FFFFFFFF
(1682544440.104972) can1 18EFFF00#FFFFFFFF00011980
(1682544440.105580) can1 10F01A00#0000FFFF0000B004
(1682544440.112427) can1 0CF00400#F87D7D000000F07D
(1682544440.122401) can1 0CF00400#F87D7D000000F07D
(1682544440.125231) can1 10FE6F00#FFFFFFFFFFFFFFFF
(1682544440.125846) can1 18FF3500#FFFFFF00FFFEFFFF
(1682544440.126469) can1 18FF1800#00FFFFFFFFFFFFFF
(1682544440.127075) can1 18FEF100#F3000010FF001FC5
(1682544440.127690) can1 18F00100#FFFFFFCFFFFFFFFF
(1682544440.128313) can1 10FCE300#FE0000FFFFFFFFFF
(1682544440.128927) can1 18FD9400#0000FFFF0000FFFF
(1682544440.129535) can1 10FCFD00#FFFFFFFF2964FFFF
(1682544440.130151) can1 18FEF200#000000FEFFFFFEFF
(1682544440.130747) can1 18FEF600#FAFEFEFEFF2022FF
(1682544440.131363) can1 18FEF000#FFFFFF0000C0FFFF
(1682544440.131975) can1 18FE9600#0CFAFFFFFFFFFFFF
(1682544440.132669) can1 0CF00400#F87D7D000000F07D
(1682544440.142420) can1 0CF00400#F87D7D000000F07D
(1682544440.152439) can1 0CF00400#F87D7D000000F07D
(1682544440.155426) can1 18F00E00#FFFF325BFFFFFFFF
(1682544440.156030) can1 0CF00300#D10000FFFFFF00FF
(1682544440.156662) can1 0CF00A00#FFFF0000FFFFFFFF
(1682544440.157276) can1 18EFFF00#FFFFFFFF00011980
(1682544440.157885) can1 10F01A00#0000FFFF0000B004
(1682544440.162436) can1 0CF00400#F87D7D000000F07D
(1682544440.172662) can1 0CF00400#F87D7D000000F07D
(1682544440.182462) can1 0CF00400#F87D7D000000F07D
(1682544440.192451) can1 0CF00400#F87D7D000000F07D
(1682544440.202436) can1 0CF00400#F87D7D000000F07D
(1682544440.203146) can1 18F00E00#FFFF325BFFFFFFFF
(1682544440.203750) can1 0CF00300#D10000FFFFFF00FF
(1682544440.204360) can1 0CF00A00#FFFF0000FFFFFFFF
(1682544440.204981) can1 18EFFF00#FFFFFFFF00011980
(1682544440.205584) can1 10F01A00#0000FFFF0000B004
(1682544440.212675) can1 0CF00400#F87D7D000000F07D
(1682544440.222509) can1 0CF00400#F87D7D000000F07D
(1682544440.225263) can1 10FE6F00#FFFFFFFFFFFFFFFF
(1682544440.225867) can1 18FF3500#FFFFFF00FFFEFFFF
(1682544440.226491) can1 18FF1800#00FFFFFFFFFFFFFF
(1682544440.227098) can1 18FEF100#F3000010FF001FC5
(1682544440.227712) can1 18F00100#FFFFFFCFFFFFFFFF
(1682544440.228319) can1 10FCE300#FE0000FFFFFFFFFF
(1682544440.228950) can1 18FD9400#0000FFFF0000FFFF
(1682544440.229551) can1 10FCFD00#FFFFFFFF2964FFFF
(1682544440.230178) can1 18FEF200#000000FEFFFFFEFF
(1682544440.230789) can1 18FEF000#FFFFFF0000C0FFFF
(1682544440.231399) can1 18FE9600#0CFAFFFFFFFFFFFF
(1682544440.232476) can1 0CF00400#F87D7D000000F07D
(1682544440.242454) can1 0CF00400#F87D7D000000F07D
(1682544440.252711) can1 0CF00400#F87D7D000000F07D
(1682544440.255647) can1 18F00E00#FFFF325BFFFFFFFF
(1682544440.256236) can1 0CF00300#D10000FFFFFF00FF
(1682544440.256855) can1 18FEDF00#FE00FEFE7D0000FF
(1682544440.257469) can1 0CF00A00#FFFF0000FFFFFFFF
(1682544440.258072) can1 18EFFF00#FFFFFFFF00011980
(1682544440.258679) can1 10F01A00#0000FFFF0000B004
(1682544440.262460) can1 0CF00400#F87D7D000000F07D
(1682544440.263479) can1 18EC0001#20F906FFFF01FE00
(1682544440.271253) can1 18EC0002#20F906FFFF02FE00
(1682544440.272461) can1 0CF00400#F87D7D000000F07D
(1682544440.278964) can1 18EC0003#20F906FFFF03FE00
(1682544440.282422) can1 0CF00400#F87D7D000000F07D
(1682544440.283499) can1 18EB0001#0161626364656667
(1682544440.286831) can1 18EC0004#20F906FFFF04FE00
(1682544440.291304) can1 18EB0002#0161626364656667
(1682544440.292673) can1 0CF00400#F87D7D000000F07D
(1682544440.295100) can1 18EC0005#20F906FFFF05FE00
(1682544440.299019) can1 18EB0003#0161626364656667
(1682544440.302458) can1 0CF00400#F87D7D000000F07D
(1682544440.303171) can1 18F00E00#FFFF325BFFFFFFFF
(1682544440.303762) can1 0CF00300#D10000FFFFFF00FF
(1682544440.304333) can1 0CF00A00#FFFF0000FFFFFFFF
(1682544440.304870) can1 18EB0001#0268696A6B6C6D6E
(1682544440.305447) can1 18EC0006#20F906FFFF06FE00
(1682544440.306053) can1 18EFFF00#FFFFFFFF00011980
(1682544440.306600) can1 10F01A00#0000FFFF0000B004
(1682544440.307159) can1 18EB0004#0161626364656667
(1682544440.311380) can1 18EB0002#0268696A6B6C6D6E
(1682544440.312452) can1 0CF00400#F87D7D000000F07D
(1682544440.313511) can1 18EC0007#20F906FFFF07FE00
(1682544440.315154) can1 18EB0005#0161626364656667
(1682544440.319098) can1 18EB0003#0268696A6B6C6D6E
(1682544440.321614) can1 18EC0008#20F906FFFF08FE00
(1682544440.322427) can1 0CF00400#F87D7D000000F07D
(1682544440.323699) can1 18EB0001#036F707172737475
(1682544440.324227) can1 18EB0006#0161626364656667
(1682544440.325268) can1 10FE6F00#FFFFFFFFFFFFFFFF
(1682544440.325834) can1 18FF3500#FFFFFF00FFFEFFFF
(1682544440.326418) can1 18FF1800#00FFFFFFFFFFFFFF
(1682544440.326957) can1 18EB0004#0268696A6B6C6D6E
(1682544440.327534) can1 18FEF100#F3000010FF001FC5
(1682544440.328113) can1 18F00100#FFFFFFCFFFFFFFFF
(1682544440.328701) can1 10FCE300#FE0000FFFFFFFFFF
(1682544440.329286) can1 18FD9400#0000FFFF0000FFFF
(1682544440.329860) can1 10FCFD00#FFFFFFFF2964FFFF
(1682544440.330449) can1 18FEF200#000000FEFFFFFEFF
(1682544440.331039) can1 18FEF000#FFFFFF0000C0FFFF
(1682544440.331610) can1 18EC0009#20F906FFFF09FE00
(1682544440.332169) can1 18EB0002#036F707172737475
(1682544440.332748) can1 18FE9600#0CFAFFFFFFFFFFFF
(1682544440.333319) can1 0CF00400#F87D7D000000F07D
(1682544440.333873) can1 18EB0007#0161626364656667
(1682544440.335226) can1 18EB0005#0268696A6B6C6D6E
(1682544440.339159) can1 18EB0003#036F707172737475
(1682544440.340448) can1 18EC000A#20F906FFFF0AFE00
(1682544440.341706) can1 18EB0008#0161626364656667
(1682544440.342441) can1 0CF00400#F87D7D000000F07D
(1682544440.343777) can1 18EB0001#04767778797A6162
(1682544440.344304) can1 18EB0006#0268696A6B6C6D6E
(1682544440.347009) can1 18EB0004#036F707172737475
(1682544440.349434) can1 18EC000B#20F906FFFF0BFE00
(1682544440.351343) can1 18EB0009#0161626364656667
(1682544440.351878) can1 18EB0002#04767778797A6162
(1682544440.352467) can1 0CF00400#F87D7D000000F07D
(1682544440.353602) can1 18EB0007#0268696A6B6C6D6E
(1682544440.355272) can1 18EB0005#036F707172737475
(1682544440.355856) can1 18F00E00#FFFF325BFFFFFFFF
(1682544440.356431) can1 0CF00300#D10000FFFFFF00FF
(1682544440.357010) can1 0CF00A00#FFFF0000FFFFFFFF
(1682544440.357587) can1 18EFFF00#FFFFFFFF00011980
(1682544440.358167) can1 10F01A00#0000FFFF0000B004
(1682544440.358960) can1 18EC000C#20F906FFFF0CFE00
(1682544440.359493) can1 18EB0003#04767778797A6162
(1682544440.360482) can1 18EB000A#0161626364656667
(1682544440.362074) can1 18EB0008#0268696A6B6C6D6E
(1682544440.362457) can1 0CF00400#F87D7D000000F07D
(1682544440.363868) can1 18EB0001#0563646566676869
(1682544440.364400) can1 18EB0006#036F707172737475
(1682544440.367082) can1 18EB0004#04767778797A6162
(1682544440.369451) can1 18EB000B#0161626364656667
(1682544440.370020) can1 18EC000D#20F906FFFF0DFE00
(1682544440.371429) can1 18EB0009#0268696A6B6C6D6E
(1682544440.371959) can1 18EB0002#0563646566676869
(1682544440.372666) can1 0CF00400#F87D7D000000F07D
(1682544440.373703) can1 18EB0007#036F707172737475
(1682544440.375340) can1 18EB0005#04767778797A6162
(1682544440.378809) can1 18EC000E#20F906FFFF0EFE00
(1682544440.379337) can1 18EB000C#0161626364656667
(1682544440.379879) can1 18EB0003#0563646566676869
(1682544440.380694) can1 18EB000A#0268696A6B6C6D6E
(1682544440.381889) can1 18EB0008#036F707172737475
(1682544440.382475) can1 0CF00400#F87D7D000000F07D
(1682544440.383945) can1 18EB0001#066A6B6C6D6E6F70
(1682544440.384479) can1 18EB0006#04767778797A6162
(1682544440.387135) can1 18EB0004#0563646566676869
(1682544440.388448) can1 18EC000F#20F906FFFF0FFE00
(1682544440.389522) can1 18EB000B#0268696A6B6C6D6E
(1682544440.390076) can1 18EB000D#0161626364656667
(1682544440.391541) can1 18EB0009#036F707172737475
(1682544440.392146) can1 18EB0002#066A6B6C6D6E6F70
(1682544440.392666) can1 0CF00400#F87D7D000000F07D
(1682544440.393756) can1 18EB0007#04767778797A6162
(1682544440.395392) can1 18EB0005#0563646566676869
(1682544440.398292) can1 18EC0010#20F906FFFF10FE00
(1682544440.398831) can1 18EB000E#0161626364656667
(1682544440.399383) can1 18EB000C#0268696A6B6C6D6E
(1682544440.399922) can1 18EB0003#066A6B6C6D6E6F70
(1682544440.400752) can1 18EB000A#036F707172737475
(1682544440.401967) can1 18EB0008#04767778797A6162
(1682544440.402547) can1 0CF00400#F87D7D000000F07D
(1682544440.403144) can1 18F00E00#FFFF325BFFFFFFFF
(1682544440.403711) can1 0CF00300#D10000FFFFFF00FF
(1682544440.404296) can1 0CF00A00#FFFF0000FFFFFFFF
(1682544440.404837) can1 18EB0001#0771727374757677
(1682544440.405376) can1 18EB0006#0563646566676869
(1682544440.405960) can1 18EFFF00#FFFFFFFF00011980
(1682544440.406535) can1 10F01A00#0000FFFF0000B004
(1682544440.407191) can1 18EB0004#066A6B6C6D6E6F70
(1682544440.408453) can1 18EB000F#0161626364656667
(1682544440.409077) can1 18EC0011#20F906FFFF11FE00
(1682544440.409619) can1 18EB000B#036F707172737475
(1682544440.410158) can1 18EB000D#0268696A6B6C6D6E
(1682544440.411640) can1 18EB0009#04767778797A6162
(1682544440.412227) can1 18EB0002#0771727374757677
(1682544440.412755) can1 0CF00400#F87D7D000000F07D
(1682544440.413824) can1 18EB0007#0563646566676869
(1682544440.415442) can1 18EB0005#066A6B6C6D6E6F70
(1682544440.417840) can1 18EC0012#20F906FFFF12FE00
(1682544440.418372) can1 18EB0010#0161626364656667
(1682544440.418914) can1 18EB000E#0268696A6B6C6D6E
(1682544440.419467) can1 18EB000C#036F707172737475
(1682544440.419999) can1 18EB0003#0771727374757677
(1682544440.420802) can1 18EB000A#04767778797A6162
(1682544440.422044) can1 18EB0008#0563646566676869
(1682544440.422620) can1 0CF00400#F87D7D000000F07D
(1682544440.424218) can1 18EB0001#0878797A61626364
(1682544440.424628) can1 18EB0006#066A6B6C6D6E6F70
(1682544440.425363) can1 10FE6F00#FFFFFFFFFFFFFFFF
(1682544440.425941) can1 18FF3500#FFFFFF00FFFEFFFF
(1682544440.426532) can1 18FF1800#00FFFFFFFFFFFFFF
(1682544440.427106) can1 18FEF100#F3000010FF001FC5
(1682544440.427653) can1 18EB0004#0771727374757677
(1682544440.428221) can1 18EC0013#20F906FFFF13FE00
(1682544440.428771) can1 18EB000F#0268696A6B6C6D6E
(1682544440.429309) can1 18EB0011#0161626364656667
(1682544440.429856) can1 18EB000B#04767778797A6162
(1682544440.430392) can1 18EB000D#036F707172737475
(1682544440.430987) can1 18F00100#FFFFFFCFFFFFFFFF
(1682544440.431575) can1 10FCE300#FE0000FFFFFFFFFF
(1682544440.432138) can1 18EB0009#0563646566676869
(1682544440.432641) can1 18EB0002#0878797A61626364
(1682544440.433222) can1 0CF00400#F87D7D000000F07D
(1682544440.433806) can1 18FD9400#0000FFFF0000FFFF
(1682544440.434378) can1 10FCFD00#FFFFFFFF2964FFFF
(1682544440.434928) can1 18EB0007#066A6B6C6D6E6F70
(1682544440.435504) can1 18FEF200#000000FEFFFFFEFF
(1682544440.436120) can1 18EB0005#0771727374757677
(1682544440.436629) can1 18FEF000#FFFFFF0000C0FFFF
(1682544440.437207) can1 18FE9600#0CFAFFFFFFFFFFFF
(1682544440.437842) can1 18EB0012#0161626364656667
(1682544440.438395) can1 18EB0010#0268696A6B6C6D6E
(1682544440.438929) can1 18EB000E#036F707172737475
(1682544440.439483) can1 18EB000C#04767778797A6162
(1682544440.440145) can1 18EC0014#20F906FFFF14FE00
(1682544440.440601) can1 18EB0003#0878797A61626364
(1682544440.441139) can1 18EB000A#0563646566676869
(1682544440.442106) can1 18EB0008#066A6B6C6D6E6F70
(1682544440.442692) can1 0CF00400#F87D7D000000F07D
(1682544440.444182) can1 18EB0001#0965666768696A6B
(1682544440.444727) can1 18EB0006#0771727374757677
(1682544440.447308) can1 18EB0004#0878797A61626364
(1682544440.448123) can1 18EB0013#0161626364656667
(1682544440.448667) can1 18EB000F#036F707172737475
(1682544440.449216) can1 18EB0011#0268696A6B6C6D6E
(1682544440.449751) can1 18EB000B#0563646566676869
(1682544440.450293) can1 18EB000D#04767778797A6162
(1682544440.451804) can1 18EB0009#066A6B6C6D6E6F70
(1682544440.452333) can1 18EB0002#0965666768696A6B
(1682544440.452924) can1 0CF00400#F87D7D000000F07D
(1682544440.454004) can1 18EB0007#0771727374757677
(1682544440.455082) can1 18EC0015#20F906FFFF15FE00
(1682544440.455621) can1 18EB0005#0878797A61626364
(1682544440.456196) can1 18F00E00#FFFF325BFFFFFFFF
(1682544440.456773) can1 0CF00300#D10000FFFFFF00FF
(1682544440.457392) can1 0CF00A00#FFFF0000FFFFFFFF
(1682544440.457926) can1 18EFFF00#FFFFFFFF00011980
(1682544440.458498) can1 10F01A00#0000FFFF0000B004
(1682544440.459032) can1 18EB0012#0268696A6B6C6D6E
(1682544440.459581) can1 18EB0010#036F707172737475
(1682544440.460115) can1 18EB000E#04767778797A6162
(1682544440.460654) can1 18EB000C#0563646566676869
(1682544440.461199) can1 18EB0014#0161626364656667
(1682544440.461732) can1 18EB0003#0965666768696A6B
(1682544440.462271) can1 18EB000A#066A6B6C6D6E6F70
(1682544440.462886) can1 0CF00400#F87D7D000000F07D
(1682544440.463409) can1 18EB0008#0771727374757677
(1682544440.464248) can1 18EB0001#0A6C6D6E6F707172
(1682544440.464786) can1 18EB0006#0878797A61626364
(1682544440.467437) can1 18EB0004#0965666768696A6B
(1682544440.468185) can1 18EB0013#0268696A6B6C6D6E
(1682544440.468721) can1 18EB000F#04767778797A6162
(1682544440.469292) can1 18EB0011#036F707172737475
(1682544440.469822) can1 18EB000B#066A6B6C6D6E6F70
(1682544440.470361) can1 18EB000D#0563646566676869
(1682544440.471899) can1 18EB0009#0771727374757677
(1682544440.472479) can1 0CF00400#F87D7D000000F07D
(1682544440.473018) can1 18EB0002#0A6C6D6E6F707172
(1682544440.474080) can1 18EB0007#0878797A61626364
(1682544440.475105) can1 18EB0015#0161626364656667
(1682544440.475749) can1 18EB0005#0965666768696A6B
(1682544440.478017) can1 18EB0012#036F707172737475
(1682544440.478548) can1 18EB0010#04767778797A6162
(1682544440.479093) can1 18EB000E#0563646566676869
(1682544440.479639) can1 18EB000C#066A6B6C6D6E6F70
(1682544440.480169) can1 18EB0014#0268696A6B6C6D6E
(1682544440.480715) can1 18EB0003#0A6C6D6E6F707172
(1682544440.481286) can1 18EC0016#20F906FFFF16FE00
(1682544440.481816) can1 18EB000A#0771727374757677
(1682544440.482366) can1 18EB0008#0878797A61626364
(1682544440.482954) can1 0CF00400#F87D7D000000F07D
(1682544440.484332) can1 18EB0001#0B73747576777879
(1682544440.484880) can1 18EB0006#0965666768696A6B
(1682544440.487548) can1 18EB0004#0A6C6D6E6F707172
(1682544440.488448) can1 18EB0013#036F707172737475
(1682544440.488989) can1 18EB000F#0563646566676869
(1682544440.489531) can1 18EB0011#04767778797A6162
(1682544440.490066) can1 18EB000B#0771727374757677
(1682544440.490617) can1 18EB000D#066A6B6C6D6E6F70
(1682544440.491955) can1 18EB0009#0878797A61626364
(1682544440.492500) can1 18EB0002#0B73747576777879
(1682544440.493096) can1 0CF00400#F87D7D000000F07D
(1682544440.494161) can1 18EB0007#0965666768696A6B
(1682544440.495143) can1 18EB0015#0268696A6B6C6D6E
(1682544440.495841) can1 18EB0005#0A6C6D6E6F707172
(1682544440.498107) can1 18EB0012#04767778797A6162
(1682544440.498641) can1 18EB0010#0563646566676869
(1682544440.499176) can1 18EB000E#066A6B6C6D6E6F70
(1682544440.499727) can1 18EB000C#0771727374757677
(1682544440.500263) can1 18EB0014#036F707172737475
(1682544440.500800) can1 18EB0003#0B73747576777879
(1682544440.501349) can1 18EB0016#0161626364656667
(1682544440.501878) can1 18EB000A#0878797A61626364
(1682544440.502476) can1 0CF00400#F87D7D000000F07D
(1682544440.503002) can1 18EB0008#0965666768696A6B
(1682544440.503586) can1 18F00E00#FFFF325BFFFFFFFF
(1682544440.504147) can1 0CF00300#D10000FFFFFF00FF
(1682544440.504685) can1 18EB0001#0C7A616263646566
(1682544440.505225) can1 18EB0006#0A6C6D6E6F707172
(1682544440.505803) can1 18FEDF00#FE00FEFE7D0000FF
(1682544440.506394) can1 0CF00A00#FFFF0000FFFFFFFF
(1682544440.507020) can1 18EFFF00#FFFFFFFF00011980
(1682544440.507557) can1 10F01A00#0000FFFF0000B004
(1682544440.508123) can1 18EC0017#20F906FFFF17FE00
(1682544440.508675) can1 18EB0004#0B73747576777879
(1682544440.509206) can1 18EB0013#04767778797A6162
(1682544440.509744) can1 18EB000F#066A6B6C6D6E6F70
(1682544440.510285) can1 18EB0011#0563646566676869
(1682544440.510826) can1 18EB000B#0878797A61626364
(1682544440.511361) can1 18EB000D#0771727374757677
(1682544440.512145) can1 18EB0009#0965666768696A6B
(1682544440.512654) can1 0CF00400#F87D7D000000F07D
(1682544440.513183) can1 18EB0002#0C7A616263646566
(1682544440.514249) can1 18EB0007#0A6C6D6E6F707172
(1682544440.515223) can1 18EB0015#036F707172737475
(1682544440.515916) can1 18EB0005#0B73747576777879
(1682544440.518229) can1 18EB0012#0563646566676869
(1682544440.518766) can1 18EB0010#066A6B6C6D6E6F70
(1682544440.519300) can1 18EB000E#0771727374757677
(1682544440.519841) can1 18EB000C#0878797A61626364
(1682544440.520375) can1 18EB0014#04767778797A6162
(1682544440.520927) can1 18EB0003#0C7A616263646566
(1682544440.521459) can1 18EB0016#0268696A6B6C6D6E
(1682544440.521988) can1 18EB000A#0965666768696A6B
(1682544440.522591) can1 0CF00400#F87D7D000000F07D
(1682544440.523116) can1 18EB0008#0A6C6D6E6F707172
(1682544440.524500) can1 18EB0001#0D6768696A6B6C6D
(1682544440.525039) can1 18EB0006#0B73747576777879
(1682544440.525633) can1 18FD2000#00FE00FEFFFFFFFF
(1682544440.526212) can1 10FE6F00#FFFFFFFFFFFFFFFF
(1682544440.526790) can1 18FF3500#FFFFFF00FFFEFFFF
(1682544440.527373) can1 18FF3800#000000FFFF9CFFFF
(1682544440.527915) can1 18EB0004#0C7A616263646566
(1682544440.528506) can1 18FF1800#00FFFFFFFFFFFFFF
(1682544440.529043) can1 18EB0013#0563646566676869
(1682544440.529582) can1 18EB000F#0771727374757677
(1682544440.530129) can1 18EB0011#066A6B6C6D6E6F70
(1682544440.530675) can1 18EB0017#0161626364656667
(1682544440.531251) can1 18EC0018#20F906FFFF18FE00
(1682544440.531782) can1 18EB000B#0965666768696A6B
(1682544440.532320) can1 18EB000D#0878797A61626364
(1682544440.532867) can1 18EB0009#0A6C6D6E6F707172
(1682544440.533451) can1 0CF00400#F87D7D000000F07D
(1682544440.533974) can1 18EB0002#0D6768696A6B6C6D
(1682544440.534512) can1 18EB0007#0B73747576777879
(1682544440.535099) can1 18FDA100#00FE000000000FFF
(1682544440.535625) can1 18EB0015#04767778797A6162
(1682544440.536161) can1 18EB0005#0C7A616263646566
(1682544440.536740) can1 18FEF500#A8FFFF00FE00FFFF
(1682544440.537326) can1 18FD6500#00FEFFFFFFFEFFFF
(1682544440.537905) can1 18FDB400#FFFF00FEFFFFFFFF
(1682544440.538466) can1 18EB0012#066A6B6C6D6E6F70
(1682544440.538997) can1 18EB0010#0771727374757677
(1682544440.539519) can1 18EB000E#0878797A61626364
(1682544440.540121) can1 18EB000C#0965666768696A6B
(1682544440.540599) can1 18EB0014#0563646566676869
(1682544440.541157) can1 18EB0003#0D6768696A6B6C6D
(1682544440.541698) can1 18EB0016#036F707172737475
(1682544440.542236) can1 18EB000A#0A6C6D6E6F707172
(1682544440.542808) can1 18EC0019#20F906FFFF19FE00
(1682544440.543390) can1 0CF00400#F87D7D000000F07D
(1682544440.543922) can1 18EB0008#0B73747576777879
(1682544440.544515) can1 18FDB200#00FEFFFF00FEFFFF
(1682544440.545051) can1 18EB0001#0E6E6F7071727374
(1682544440.545586) can1 18EB0006#0C7A616263646566
(1682544440.546180) can1 18FDB300#00FE00FEFFFFFFFF
(1682544440.546756) can1 18E0FF00#FAFFFFFFFFFFFFFF
(1682544440.547322) can1 18FEF100#F3000010FF001FC5
(1682544440.547862) can1 18EB0004#0D6768696A6B6C6D
(1682544440.548457) can1 18FE9400#0000003F00000000
(1682544440.548991) can1 18EB0013#066A6B6C6D6E6F70
(1682544440.549525) can1 18EB000F#0878797A61626364
(1682544440.550063) can1 18EB0011#0771727374757677
(1682544440.550597) can1 18EB0017#0268696A6B6C6D6E
(1682544440.551146) can1 18EB0018#0161626364656667
(1682544440.551685) can1 18EB000B#0A6C6D6E6F707172
(1682544440.552227) can1 18EB000D#0965666768696A6B
(1682544440.552770) can1 18EB0009#0B73747576777879
(1682544440.553358) can1 0CF00400#F87D7D000000F07D
(1682544440.553881) can1 18EB0002#0E6E6F7071727374
(1682544440.554467) can1 18EC001A#20F906FFFF1AFE00
(1682544440.555000) can1 18EB0007#0C7A616263646566
(1682544440.555528) can1 18EB0015#0563646566676869
(1682544440.556146) can1 18EB0005#0D6768696A6B6C6D
(1682544440.556670) can1 18F00100#FFFFFFCFFFFFFFFF
(1682544440.557244) can1 10FD5200#FFFFFFFA00FFFFFF
(1682544440.557828) can1 18FF9A00#0000000000F0FFFF
(1682544440.558405) can1 10FCE300#FE0000FFFFFFFFFF
(1682544440.558936) can1 18EB0012#0771727374757677
(1682544440.559478) can1 18EB0010#0878797A61626364
(1682544440.560021) can1 18EB000E#0965666768696A6B
(1682544440.560567) can1 18EB000C#0A6C6D6E6F707172
(1682544440.561100) can1 18EB0014#066A6B6C6D6E6F70
(1682544440.561641) can1 18EB0003#0E6E6F7071727374
(1682544440.562176) can1 18EB0016#04767778797A6162
(1682544440.562712) can1 18EB000A#0B73747576777879
(1682544440.563296) can1 0CF00400#F87D7D000000F07D
(1682544440.563828) can1 18EB0019#0161626364656667
(1682544440.564372) can1 18EB0008#0C7A616263646566
(1682544440.564924) can1 18EB0001#0F75767778797A61
(1682544440.565459) can1 18EB0006#0D6768696A6B6C6D
(1682544440.566027) can1 18EC001B#20F906FFFF1BFE00
(1682544440.566629) can1 18FD9400#0000FFFF0000FFFF
(1682544440.567205) can1 10FCFD00#FFFFFFFF2964FFFF
(1682544440.567784) can1 18FEDB00#FFFF00FEFFFFFFFF
(1682544440.568317) can1 18EB0004#0E6E6F7071727374
(1682544440.568863) can1 18EB0013#0771727374757677
(1682544440.569416) can1 18EB000F#0965666768696A6B
(1682544440.569932) can1 18EB0011#0878797A61626364
(1682544440.570472) can1 18EB0017#036F707172737475
(1682544440.571011) can1 18EB0018#0268696A6B6C6D6E
(1682544440.571543) can1 18EB000B#0B73747576777879
(1682544440.572106) can1 18EB000D#0A6C6D6E6F707172
(1682544440.572621) can1 18EB0009#0C7A616263646566
(1682544440.573205) can1 0CF00400#F87D7D000000F07D
(1682544440.573731) can1 18EB0002#0F75767778797A61
(1682544440.574270) can1 18EB001A#0161626364656667
(1682544440.574839) can1 18EB0007#0D6768696A6B6C6D
(1682544440.575391) can1 18FEEF00#FEFFFFFE8080FFFA
(1682544440.575928) can1 18EB0015#066A6B6C6D6E6F70
(1682544440.576470) can1 18EB0005#0E6E6F7071727374
(1682544440.577042) can1 18EC001C#20F906FFFF1CFE00
(1682544440.577631) can1 18FEEE00#FEFF00FEFFFFFFFF
(1682544440.578238) can1 18FEA400#FFFFFFFFFFFF00FE
(1682544440.578780) can1 18EB0012#0878797A61626364
(1682544440.579275) can1 18EB0010#0965666768696A6B
(1682544440.579865) can1 18EB000E#0A6C6D6E6F707172
(1682544440.580371) can1 18EB000C#0B73747576777879
(1682544440.580920) can1 18EB0014#0771727374757677
(1682544440.581460) can1 18EB0003#0F75767778797A61
(1682544440.581991) can1 18EB0016#0563646566676869
(1682544440.582532) can1 18EB000A#0C7A616263646566
(1682544440.583116) can1 0CF00400#F87D7D000000F07D
(1682544440.583642) can1 18EB0019#0268696A6B6C6D6E
(1682544440.584189) can1 18EB0008#0D6768696A6B6C6D
(1682544440.584789) can1 18FD6600#FEFFFFFFFFFFFFFF
(1682544440.585326) can1 18EB0001#1062636465666768
(1682544440.585866) can1 18EB0006#0E6E6F7071727374
(1682544440.586406) can1 18EB001B#0161626364656667
(1682544440.587012) can1 18FEBD00#00F00000FFFFFFFF
(1682544440.587589) can1 18EC001D#20F906FFFF1DFE00
(1682544440.588129) can1 18EB0004#0F75767778797A61
(1682544440.588713) can1 18FEF200#000000FEFFFFFEFF
(1682544440.589258) can1 18EB0013#0878797A61626364
(1682544440.589786) can1 18EB000F#0A6C6D6E6F707172
(1682544440.590332) can1 18EB0011#0965666768696A6B
(1682544440.590867) can1 18EB0017#04767778797A6162
(1682544440.591410) can1 18EB0018#036F707172737475
(1682544440.591949) can1 18EB000B#0C7A616263646566
(1682544440.592488) can1 18EB000D#0B73747576777879
(1682544440.593070) can1 0CF00400#F87D7D000000F07D
(1682544440.593592) can1 18EB0009#0D6768696A6B6C6D
(1682544440.594135) can1 18EB0002#1062636465666768
(1682544440.594675) can1 18EB001A#0268696A6B6C6D6E
(1682544440.595214) can1 18EB0007#0E6E6F7071727374
(1682544440.595752) can1 18EB0015#0771727374757677
(1682544440.596290) can1 18EB0005#0F75767778797A61
(1682544440.596844) can1 18EB001C#0161626364656667
(1682544440.597439) can1 18FDD000#FFFFFFFFFEFFFFFF
(1682544440.598007) can1 18FF9B00#FFF0F0FFFE00FEF2
(1682544440.598550) can1 18EB0012#0965666768696A6B
(1682544440.599103) can1 18EB0010#0A6C6D6E6F707172
(1682544440.599676) can1 18EC001E#20F906FFFF1EFE00
(1682544440.600208) can1 18EB000E#0B73747576777879
(1682544440.600757) can1 18EB000C#0C7A616263646566
(1682544440.601287) can1 18EB0014#0878797A61626364
(1682544440.601845) can1 18EB0003#1062636465666768
(1682544440.602381) can1 18EB0016#066A6B6C6D6E6F70
(1682544440.602975) can1 0CF00400#F87D7D000000F07D
(1682544440.603497) can1 18EB000A#0D6768696A6B6C6D
(1682544440.604117) can1 18EB0019#036F707172737475
(1682544440.604578) can1 18EB0008#0E6E6F7071727374
(1682544440.605129) can1 18EB0001#11696A6B6C6D6E6F
(1682544440.605657) can1 18EB0006#0F75767778797A61
(1682544440.606191) can1 18EB001B#0268696A6B6C6D6E
(1682544440.606766) can1 18FD7C00#F8B34100D1CFE3FF
(1682544440.607346) can1 18FEF000#FFFFFF0000C0FFFF
(1682544440.607879) can1 18EB001D#0161626364656667
(1682544440.608427) can1 18EB0004#1062636465666768
(1682544440.608964) can1 18EB0013#0965666768696A6B
(1682544440.609502) can1 18EB000F#0B73747576777879
(1682544440.610045) can1 18EB0011#0A6C6D6E6F707172
(1682544440.610588) can1 18EB0017#0563646566676869
(1682544440.611148) can1 18EB0018#04767778797A6162
(1682544440.611673) can1 18EB000B#0D6768696A6B6C6D
(1682544440.612212) can1 18EB000D#0C7A616263646566
(1682544440.612797) can1 18EC001F#20F906FFFF1FFE00
(1682544440.613381) can1 0CF00400#F87D7D000000F07D
(1682544440.613911) can1 18EB0009#0E6E6F7071727374
(1682544440.614449) can1 18EB0002#11696A6B6C6D6E6F
(1682544440.614979) can1 18EB001A#036F707172737475
(1682544440.615579) can1 18EB0007#0F75767778797A61
(1682544440.616126) can1 18EB0015#0878797A61626364
(1682544440.616606) can1 18EB0005#1062636465666768
(1682544440.617199) can1 18FEE400#007FFFFC007FFFFF
(1682544440.617727) can1 18EB001C#0268696A6B6C6D6E
(1682544440.618313) can1 18FE9A00#FFFF00FEFFFFFFFF
(1682544440.618870) can1 18EB0012#0A6C6D6E6F707172
(1682544440.619406) can1 18EB0010#0B73747576777879
(1682544440.619934) can1 18EB001E#0161626364656667
(1682544440.620467) can1 18EB000E#0C7A616263646566
(1682544440.621020) can1 18EB000C#0D6768696A6B6C6D
(1682544440.621548) can1 18EB0014#0965666768696A6B
(1682544440.622084) can1 18EB0003#11696A6B6C6D6E6F
(1682544440.622632) can1 18EB0016#0771727374757677
(1682544440.623220) can1 0CF00400#F87D7D000000F07D
(1682544440.623752) can1 18EB000A#0E6E6F7071727374
(1682544440.624282) can1 18EB0019#04767778797A6162
(1682544440.624826) can1 18EB0008#0F75767778797A61
(1682544440.625414) can1 18EC0020#20F906FFFF20FE00
(1682544440.625952) can1 18EB0001#1270717273747576
(1682544440.626496) can1 18EB0006#1062636465666768
(1682544440.627028) can1 18EB001B#036F707172737475
(1682544440.627598) can1 18EB001D#0268696A6B6C6D6E
(1682544440.628156) can1 18FE9600#0CFAFFFFFFFFFFFF
(1682544440.628694) can1 18EB0004#11696A6B6C6D6E6F
(1682544440.629236) can1 18EB0013#0A6C6D6E6F707172
(1682544440.629773) can1 18EB000F#0C7A616263646566
(1682544440.630309) can1 18EB0011#0B73747576777879
(1682544440.630851) can1 18EB0017#066A6B6C6D6E6F70
(1682544440.631389) can1 18EB0018#0563646566676869
(1682544440.631931) can1 18EB000B#0E6E6F7071727374
(1682544440.632469) can1 18EB000D#0D6768696A6B6C6D
(1682544440.633053) can1 0CF00400#F87D7D000000F07D
(1682544440.633596) can1 18EB001F#0161626364656667
(1682544440.634127) can1 18EB0009#0F75767778797A61
(1682544440.634684) can1 18EB0002#1270717273747576
(1682544440.635219) can1 18EB001A#04767778797A6162
(1682544440.635784) can1 18EC0021#20F906FFFF21FE00
(1682544440.636336) can1 18EB0007#1062636465666768
(1682544440.636872) can1 18EB0015#0965666768696A6B
(1682544440.637411) can1 18EB0005#11696A6B6C6D6E6F
(1682544440.637974) can1 18FEC100#4CD9D102285C8F02
(1682544440.638511) can1 18EB001C#036F707172737475
(1682544440.639040) can1 18EB0012#0B73747576777879
(1682544440.639574) can1 18EB0010#0C7A616263646566
(1682544440.640118) can1 18EB001E#0268696A6B6C6D6E
(1682544440.640656) can1 18EB000E#0D6768696A6B6C6D
(1682544440.641228) can1 18EB000C#0E6E6F7071727374
(1682544440.641748) can1 18EB0014#0A6C6D6E6F707172
(1682544440.642288) can1 18EB0003#1270717273747576
(1682544440.642880) can1 0CF00400#F87D7D000000F07D
(1682544440.643407) can1 18EB0016#0878797A61626364
(1682544440.643945) can1 18EB000A#0F75767778797A61
(1682544440.644515) can1 18EB0019#0563646566676869
(1682544440.645030) can1 18EB0008#1062636465666768
(1682544440.645581) can1 18EB0020#0161626364656667
(1682544440.646122) can1 18EB0001#137778797A616263
(1682544440.646661) can1 18EB0006#11696A6B6C6D6E6F
(1682544440.647191) can1 18EB001B#04767778797A6162
(1682544440.647779) can1 18FEF700#FFFFFFFFFFFFF100
(1682544440.648350) can1 18EC0022#20F906FFFF22FE00
(1682544440.648890) can1 18EB001D#036F707172737475
(1682544440.649444) can1 18EB0004#1270717273747576
(1682544440.649971) can1 18EB0013#0B73747576777879
(1682544440.650576) can1 18EB000F#0D6768696A6B6C6D
(1682544440.651055) can1 18EB0011#0C7A616263646566
(1682544440.651587) can1 18EB0017#0771727374757677
(1682544440.652120) can1 18EB0018#066A6B6C6D6E6F70
(1682544440.652661) can1 18EB000B#0F75767778797A61
(1682544440.653244) can1 0CF00400#F87D7D000000F07D
(1682544440.653781) can1 18EB000D#0E6E6F7071727374
(1682544440.654319) can1 18EB001F#0268696A6B6C6D6E
(1682544440.654862) can1 18EB0009#1062636465666768
(1682544440.655395) can1 18EB0002#137778797A616263
(1682544440.655935) can1 18EB001A#0563646566676869
(1682544440.656476) can1 18EB0021#0161626364656667
(1682544440.657016) can1 18EB0007#11696A6B6C6D6E6F
(1682544440.657614) can1 18F00E00#FFFF325BFFFFFFFF
(1682544440.658238) can1 0CF00300#D10000FFFFFF00FF
(1682544440.658765) can1 0CF00A00#FFFF0000FFFFFFFF
(1682544440.659300) can1 18EB0015#0A6C6D6E6F707172
(1682544440.659846) can1 18EB0005#1270717273747576
(1682544440.660385) can1 18EB001C#04767778797A6162
(1682544440.660956) can1 18EC0023#20F906FFFF23FE00
(1682544440.661494) can1 18EB0012#0C7A616263646566
(1682544440.662040) can1 18EB0010#0D6768696A6B6C6D
(1682544440.662570) can1 18EB001E#036F707172737475
(1682544440.663191) can1 0CF00400#F87D7D000000F07D
(1682544440.663690) can1 18EB000E#0E6E6F7071727374
(1682544440.664230) can1 18EB000C#0F75767778797A61
(1682544440.664770) can1 18EB0014#0B73747576777879
(1682544440.665307) can1 18EB0003#137778797A616263
