(1682544964.910156) can1 0CF00300#D10000FFFFFF00FF
(1682544964.910747) can1 0CF00A00#FFFF0000FFFFFFFF
(1682544964.911322) can1 18EFFF00#FFFFFFFF00011980
(1682544964.911893) can1 10F01A00#0000FFFF0000B004
(1682544964.916492) can1 0CF00400#F87D7D000000F07D
(1682544964.926810) can1 0CF00400#F87D7D000000F07D
(1682544964.936451) can1 0CF00400#F87D7D000000F07D
(1682544964.946472) can1 0CF00400#F87D7D000000F07D
(1682544964.956435) can1 0CF00400#F87D7D000000F07D
(1682544964.957162) can1 18F00E00#FFFF325BFFFFFFFF
(1682544964.957730) can1 0CF00300#D10000FFFFFF00FF
(1682544964.958313) can1 0CF00A00#FFFF0000FFFFFFFF
(1682544964.958893) can1 18EFFF00#FFFFFFFF00011980
(1682544964.959469) can1 10F01A00#0000FFFF0000B004
(1682544964.966807) can1 0CF00400#F87D7D000000F07D
(1682544964.976485) can1 0CF00400#F87D7D000000F07D
(1682544964.979305) can1 10FE6F00#FFFFFFFFFFFFFFFF
(1682544964.979890) can1 18FF3500#FFFFFF00FFFEFFFF
(1682544964.980485) can1 18FF1800#00FFFFFFFFFFFFFF
(1682544964.981055) can1 18FEF500#A8FFFF00FE00FFFF
(1682544964.981639) can1 18E0FF00#FAFFFFFFFFFFFFFF
(1682544964.982202) can1 18FEF100#F300FE10FF001FC5
(1682544964.982787) can1 18F00100#FFFFFFCFFFFFFFFF
(1682544964.983367) can1 10FD5200#FFFFFFFA00FFFFFF
(1682544964.983951) can1 10FCE300#FE0000FFFFFFFFFF
(1682544964.984538) can1 18FD9400#0000FFFF0000FFFF
(1682544964.985117) can1 10FCFD00#FFFFFFFF2964FFFF
(1682544964.985714) can1 18FEF200#000000FEFFFFFEFF
(1682544964.986290) can1 18FDD000#FFFFFFFFFEFFFFFF
(1682544964.986865) can1 0CF00400#F87D7D000000F07D
(1682544964.987448) can1 18FEF000#FFFFFF0000C0FFFF
(1682544964.988029) can1 18FE9900#FFFF00FEFFFFFFFF
(1682544964.988610) can1 18FE9600#0CFAFFFFFFFFFFFF
(1682544964.989188) can1 18FE5600#00FFFFFF1F1FFFFF
(1682544964.996432) can1 0CF00400#F87D7D000000F07D
(1682544965.006831) can1 0CF00400#F87D7D000000F07D
(1682544965.009814) can1 18F00E00#FFFF325BFFFFFFFF
(1682544965.010382) can1 0CF00300#D10000FFFFFF00FF
(1682544965.010964) can1 0CF00A00#FFFF0000FFFFFFFF
(1682544965.011555) can1 18EFFF00#FFFFFFFF00011980
(1682544965.012133) can1 10F01A00#0000FFFF0000B004
(1682544965.016470) can1 0CF00400#F87D7D000000F07D
(1682544965.026477) can1 0CF00400#F87D7D000000F07D
(1682544965.036443) can1 0CF00400#F87D7D000000F07D
(1682544965.046796) can1 0CF00400#F87D7D000000F07D
(1682544965.056471) can1 0CF00400#F87D7D000000F07D
(1682544965.057183) can1 18F00E00#FFFF325BFFFFFFFF
(1682544965.057755) can1 0CF00300#D10000FFFFFF00FF
(1682544965.058340) can1 0CF00A00#FFFF0000FFFFFFFF
(1682544965.058920) can1 18EFFF00#FFFFFFFF00011980
(1682544965.059496) can1 10F01A00#0000FFFF0000B004
(1682544965.066491) can1 0CF00400#F87D7D000000F07D
(1682544965.076444) can1 0CF00400#F87D7D000000F07D
(1682544965.079261) can1 10FE6F00#FFFFFFFFFFFFFFFF
(1682544965.079845) can1 18FF3500#FFFFFF00FFFEFFFF
(1682544965.080441) can1 18FF1800#00FFFFFFFFFFFFFF
(1682544965.081002) can1 18FEF100#F300FE10FF001FC5
(1682544965.081595) can1 18FE9400#0000003F00000000
(1682544965.082201) can1 18F00100#FFFFFFCFFFFFFFFF
(1682544965.082765) can1 10FCE300#FE0000FFFFFFFFFF
(1682544965.083351) can1 18FD9400#0000FFFF0000FFFF
(1682544965.083927) can1 10FCFD00#FFFFFFFF2964FFFF
(1682544965.084516) can1 18FEF200#000000FEFFFFFEFF
(1682544965.085083) can1 18FF9B00#FFF0F0FFFE00FEF2
(1682544965.085667) can1 18FEF000#FFFFFF0000C0FFFF
(1682544965.086248) can1 18FE9600#0CFAFFFFFFFFFFFF
(1682544965.086824) can1 0CF00400#F87D7D000000F07D
(1682544965.087404) can1 18FEF700#FFFFFFFFFFFFF100
(1682544965.096496) can1 0CF00400#F87D7D000000F07D
(1682544965.106497) can1 0CF00400#F87D7D000000F07D
(1682544965.109478) can1 18F00E00#FFFF325BFFFFFFFF
(1682544965.110050) can1 0CF00300#D10000FFFFFF00FF
(1682544965.110624) can1 18FEDF00#FE00FEFE7D0200FF
(1682544965.111208) can1 0CF00A00#FFFF0000FFFFFFFF
(1682544965.111788) can1 18EFFF00#FFFFFFFF00011980
(1682544965.112373) can1 10F01A00#0000FFFF0000B004
(1682544965.116457) can1 0CF00400#F87D7D000000F07D
(1682544965.126689) can1 0CF00400#F87D7D000000F07D
(1682544965.136456) can1 0CF00400#F87D7D000000F07D
(1682544965.146480) can1 0CF00400#F87D7D000000F07D
(1682544965.156456) can1 0CF00400#F87D7D000000F07D
(1682544965.157190) can1 18F00E00#FFFF325BFFFFFFFF
(1682544965.157752) can1 0CF00300#D10000FFFFFF00FF
(1682544965.158335) can1 0CF00A00#FFFF0000FFFFFFFF
(1682544965.158913) can1 18EFFF00#FFFFFFFF00011980
(1682544965.159489) can1 10F01A00#0000FFFF0000B004
(1682544965.166687) can1 0CF00400#F87D7D000000F07D
(1682544965.176463) can1 0CF00400#F87D7D000000F07D
(1682544965.179278) can1 18FD2000#00FE00FEFFFFFFFF
(1682544965.179866) can1 10FE6F00#FFFFFFFFFFFFFFFF
(1682544965.180454) can1 18FF3500#FFFFFF00FFFEFFFF
(1682544965.181042) can1 18FF1800#00FFFFFFFFFFFFFF
(1682544965.181630) can1 18FDA100#00FE000000000FFF
(1682544965.182218) can1 18FD6500#00FEFFFFFFFEFFFF
(1682544965.182798) can1 18FDB400#FFFF00FEFFFFFFFF
(1682544965.183363) can1 18FEF100#F300FE10FF001FC5
(1682544965.183946) can1 18F00100#FFFFFFCFFFFFFFFF
(1682544965.184534) can1 18FF9A00#0000000000F0FFFF
(1682544965.185121) can1 10FCE300#FE0000FFFFFFFFFF
(1682544965.185708) can1 18FD9400#0000FFFF0000FFFF
(1682544965.186284) can1 10FCFD00#FFFFFFFF2964FFFF
(1682544965.186860) can1 0CF00400#F87D7D000000F07D
(1682544965.187440) can1 18FEEE00#FEFF00FEFFFFFFFF
(1682544965.188025) can1 18FEF200#000000FEFFFFFEFF
(1682544965.188589) can1 18FEF600#FAFEFEFEFF2022FF
(1682544965.189173) can1 18FEF000#FFFFFF0000C0FFFF
(1682544965.189753) can1 18FE9600#0CFAFFFFFFFFFFFF
(1682544965.196463) can1 0CF00400#F87D7D000000F07D
(1682544965.206708) can1 0CF00400#F87D7D000000F07D
(1682544965.209681) can1 18F00E00#FFFF325BFFFFFFFF
(1682544965.210252) can1 0CF00300#D10000FFFFFF00FF
(1682544965.210836) can1 0CF00A00#FFFF0000FFFFFFFF
(1682544965.211415) can1 18EFFF00#FFFFFFFF00011980
(1682544965.211991) can1 10F01A00#0000FFFF0000B004
(1682544965.216502) can1 0CF00400#F87D7D000000F07D
(1682544965.226483) can1 0CF00400#F87D7D000000F07D
(1682544965.236429) can1 0CF00400#F87D7D000000F07D
(1682544965.246677) can1 0CF00400#F87D7D000000F07D
(1682544965.256464) can1 0CF00400#F87D7D000000F07D
(1682544965.257191) can1 18F00E00#FFFF325BFFFFFFFF
(1682544965.257763) can1 0CF00300#D10000FFFFFF00FF
(1682544965.258348) can1 0CF00A00#FFFF0000FFFFFFFF
(1682544965.258928) can1 18EFFF00#FFFFFFFF00011980
(1682544965.259503) can1 10F01A00#0000FFFF0000B004
(1682544965.266482) can1 0CF00400#F87D7D000000F07D
(1682544965.276456) can1 0CF00400#F87D7D000000F07D
(1682544965.279285) can1 10FE6F00#FFFFFFFFFFFFFFFF
(1682544965.279869) can1 18FF3500#FFFFFF00FFFEFFFF
(1682544965.280465) can1 18FF1800#00FFFFFFFFFFFFFF
(1682544965.281026) can1 18FEF100#F300FE10FF001FC5
(1682544965.281610) can1 18F00100#FFFFFFCFFFFFFFFF
(1682544965.282194) can1 10FCE300#FE0000FFFFFFFFFF
(1682544965.282781) can1 18FD9400#0000FFFF0000FFFF
(1682544965.283357) can1 10FCFD00#FFFFFFFF2964FFFF
(1682544965.283938) can1 18FEA400#FFFFFFFFFFFF00FE
(1682544965.284529) can1 18FD6600#FEFFFFFFFFFFFFFF
(1682544965.285121) can1 18FEBD00#00F00000FFFFFFFF
(1682544965.285703) can1 18FEF200#000000FEFFFFFEFF
(1682544965.286287) can1 18FEF000#FFFFFF0000C0FFFF
(1682544965.286863) can1 0CF00400#F87D7D000000F07D
(1682544965.287444) can1 18FE9600#0CFAFFFFFFFFFFFF
(1682544965.296480) can1 0CF00400#F87D7D000000F07D
(1682544965.306497) can1 0CF00400#F87D7D000000F07D
(1682544965.309485) can1 18F00E00#FFFF325BFFFFFFFF
(1682544965.310054) can1 0CF00300#D10000FFFFFF00FF
(1682544965.310637) can1 0CF00A00#FFFF0000FFFFFFFF
(1682544965.311218) can1 18EFFF00#FFFFFFFF00011980
(1682544965.311793) can1 10F01A00#0000FFFF0000B004
(1682544965.316456) can1 0CF00400#F87D7D000000F07D
(1682544965.326690) can1 0CF00400#F87D7D000000F07D
(1682544965.336474) can1 0CF00400#F87D7D000000F07D
(1682544965.346483) can1 0CF00400#F87D7D000000F07D
(1682544965.356442) can1 0CF00400#F87D7D000000F07D
(1682544965.357170) can1 18F00E00#FFFF325BFFFFFFFF
(1682544965.357743) can1 0CF00300#D10000FFFFFF00FF
(1682544965.358318) can1 18FEDF00#FE00FEFE7D0200FF
(1682544965.358902) can1 0CF00A00#FFFF0000FFFFFFFF
(1682544965.359482) can1 18EFFF00#FFFFFFFF00011980
(1682544965.360066) can1 10F01A00#0000FFFF0000B004
(1682544965.366698) can1 0CF00400#F87D7D000000F07D
(1682544965.376485) can1 0CF00400#F87D7D000000F07D
(1682544965.379305) can1 10FE6F00#FFFFFFFFFFFFFFFF
(1682544965.379902) can1 18FF3500#FFFFFF00FFFEFFFF
(1682544965.380466) can1 18FF1800#00FFFFFFFFFFFFFF
(1682544965.381051) can1 18FDB200#00FEFFFF00FEFFFF
(1682544965.381638) can1 18FDB300#00FE00FEFFFFFFFF
(1682544965.382202) can1 18FEF100#F300FE10FF001FC5
(1682544965.382786) can1 18F00100#FFFFFFCFFFFFFFFF
(1682544965.383369) can1 10FCE300#FE0000FFFFFFFFFF
(1682544965.383958) can1 18FD9400#0000FFFF0000FFFF
(1682544965.384533) can1 10FCFD00#FFFFFFFF2964FFFF
(1682544965.385118) can1 18FEDB00#FFFF00FEFFFFFFFF
(1682544965.385691) can1 18FEEF00#FEFFFFFE8080FFFA
(1682544965.386275) can1 18FEF200#000000FEFFFFFEFF
(1682544965.386851) can1 0CF00400#F87D7D000000F07D
(1682544965.387415) can1 18FD7C00#F8B34100D1CFE3FF
(1682544965.387999) can1 18FEF000#FFFFFF0000C0FFFF
(1682544965.388581) can1 18FE9600#0CFAFFFFFFFFFFFF
(1682544965.396483) can1 0CF00400#F87D7D000000F07D
(1682544965.406700) can1 0CF00400#F87D7D000000F07D
(1682544965.409683) can1 18F00E00#FFFF325BFFFFFFFF
(1682544965.410250) can1 0CF00300#D10000FFFFFF00FF
(1682544965.410833) can1 0CF00A00#FFFF0000FFFFFFFF
(1682544965.411414) can1 18EFFF00#FFFFFFFF00011980
(1682544965.411990) can1 10F01A00#0000FFFF0000B004
(1682544965.416490) can1 0CF00400#F87D7D000000F07D
(1682544965.426491) can1 0CF00400#F87D7D000000F07D
(1682544965.436442) can1 0CF00400#F87D7D000000F07D
(1682544965.446672) can1 0CF00400#F87D7D000000F07D
(1682544965.456486) can1 0CF00400#F87D7D000000F07D
(1682544965.457206) can1 18F00E00#FFFF325BFFFFFFFF
(1682544965.457778) can1 0CF00300#D10000FFFFFF00FF
(1682544965.458362) can1 0CF00A00#FFFF0000FFFFFFFF
(1682544965.458942) can1 18EFFF00#FFFFFFFF00011980
(1682544965.459518) can1 10F01A00#0000FFFF0000B004
(1682544965.466489) can1 0CF00400#F87D7D000000F07D
(1682544965.476447) can1 0CF00400#F87D7D000000F07D
(1682544965.479267) can1 10FE6F00#FFFFFFFFFFFFFFFF
(1682544965.479851) can1 18FF3500#FFFFFF00FFFEFFFF
(1682544965.480448) can1 18FF1800#00FFFFFFFFFFFFFF
(1682544965.481009) can1 18FEF100#F300FE10FF001FC5
(1682544965.481592) can1 18F00100#FFFFFFCFFFFFFFFF
(1682544965.482176) can1 10FCE300#FE0000FFFFFFFFFF
(1682544965.482765) can1 18FD9400#0000FFFF0000FFFF
(1682544965.483340) can1 10FCFD00#FFFFFFFF2964FFFF
(1682544965.483924) can1 18FEF200#000000FEFFFFFEFF
(1682544965.484521) can1 18FDD000#FFFFFFFFFEFFFFFF
(1682544965.485105) can1 18FEF000#FFFFFF0000C0FFFF
(1682544965.485689) can1 18FEE400#007FFFFC007FFFFF
(1682544965.486269) can1 18FE9A00#FFFF00FEFFFFFFFF
(1682544965.486846) can1 0CF00400#F87D7D000000F07D
(1682544965.487426) can1 18FE9600#0CFAFFFFFFFFFFFF
(1682544965.496460) can1 0CF00400#F87D7D000000F07D
(1682544965.506494) can1 0CF00400#F87D7D000000F07D
(1682544965.509527) can1 18F00E00#FFFF325BFFFFFFFF
(1682544965.510096) can1 0CF00300#D10000FFFFFF00FF
(1682544965.510680) can1 0CF00A00#FFFF0000FFFFFFFF
(1682544965.511260) can1 18EFFF00#FFFFFFFF00011980
(1682544965.511836) can1 10F01A00#0000FFFF0000B004
(1682544965.516474) can1 0CF00400#F87D7D000000F07D
(1682544965.526707) can1 0CF00400#F87D7D000000F07D
(1682544965.536475) can1 0CF00400#F87D7D000000F07D
(1682544965.546482) can1 0CF00400#F87D7D000000F07D
(1682544965.556442) can1 0CF00400#F87D7D000000F07D
(1682544965.557169) can1 18F00E00#FFFF325BFFFFFFFF
(1682544965.557741) can1 0CF00300#D10000FFFFFF00FF
(1682544965.558325) can1 0CF00A00#FFFF0000FFFFFFFF
(1682544965.558905) can1 18EFFF00#FFFFFFFF00011980
(1682544965.559493) can1 10F01A00#0000FFFF0000B004
(1682544965.566692) can1 0CF00400#F87D7D000000F07D
(1682544965.576498) can1 0CF00400#F87D7D000000F07D
(1682544965.579310) can1 10FE6F00#FFFFFFFFFFFFFFFF
(1682544965.579894) can1 18FF3500#FFFFFF00FFFEFFFF
(1682544965.580491) can1 18FF1800#00FFFFFFFFFFFFFF
(1682544965.581052) can1 18FEF100#F300FE10FF001FC5
(1682544965.581639) can1 18FFB000#7F7F7F7F7F7FFFFF
(1682544965.582232) can1 18FE9400#0000003F00000000
(1682544965.582816) can1 18F00100#FFFFFFCFFFFFFFFF
(1682544965.583400) can1 10FCE300#FE0000FFFFFFFFFF
(1682544965.583988) can1 18FD9400#0000FFFF0000FFFF
(1682544965.584566) can1 10FCFD00#FFFFFFFF2964FFFF
(1682544965.585163) can1 18FEF200#000000FEFFFFFEFF
(1682544965.585725) can1 18FF9B00#FFF0F0FFFE00FEF2
(1682544965.586306) can1 18FEF000#FFFFFF0000C0FFFF
(1682544965.586883) can1 0CF00400#F87D7D000000F07D
(1682544965.587461) can1 18FE9600#0CFAFFFFFFFFFFFF
(1682544965.596463) can1 0CF00400#F87D7D000000F07D
(1682544965.606704) can1 0CF00400#F87D7D000000F07D
(1682544965.609687) can1 18F00E00#FFFF325BFFFFFFFF
(1682544965.610255) can1 0CF00300#D10000FFFFFF00FF
(1682544965.610832) can1 18FEDF00#FE00FEFE7D0000FF
(1682544965.611416) can1 0CF00A00#FFFF0000FFFFFFFF
(1682544965.611995) can1 18EFFF00#FFFFFFFF00011980
(1682544965.612573) can1 10F01A00#0000FFFF0000B004
(1682544965.616487) can1 0CF00400#F87D7D000000F07D
(1682544965.626492) can1 0CF00400#F87D7D000000F07D
(1682544965.636460) can1 0CF00400#F87D7D000000F07D
(1682544965.646686) can1 0CF00400#F87D7D000000F07D
(1682544965.656469) can1 0CF00400#F87D7D000000F07D
(1682544965.657180) can1 18F00E00#FFFF325BFFFFFFFF
(1682544965.657752) can1 0CF00300#D10000FFFFFF00FF
(1682544965.658337) can1 0CF00A00#FFFF0000FFFFFFFF
(1682544965.658917) can1 18EFFF00#FFFFFFFF00011980
(1682544965.659493) can1 10F01A00#0000FFFF0000B004
(1682544965.666487) can1 0CF00400#F87D7D000000F07D
(1682544965.676442) can1 0CF00400#F87D7D000000F07D
(1682544965.679239) can1 18FD2000#00FE00FEFFFFFFFF
(1682544965.679826) can1 10FE6F00#FFFFFFFFFFFFFFFF
(1682544965.680414) can1 18FF3500#FFFFFF00FFFEFFFF
(1682544965.681003) can1 18FF1800#00FFFFFFFFFFFFFF
(1682544965.681591) can1 18FDA100#00FE000000000FFF
(1682544965.682179) can1 18FD6500#00FEFFFFFFFEFFFF
(1682544965.682759) can1 18FDB400#FFFF00FEFFFFFFFF
(1682544965.683325) can1 18FEF100#F300FE10FF001FC5
(1682544965.683908) can1 18F00100#FFFFFFCFFFFFFFFF
(1682544965.684497) can1 10FCE300#FE0000FFFFFFFFFF
(1682544965.685081) can1 18FD9400#0000FFFF0000FFFF
(1682544965.685656) can1 10FCFD00#FFFFFFFF2964FFFF
(1682544965.686253) can1 18FEF200#000000FEFFFFFEFF
(1682544965.686829) can1 0CF00400#F87D7D000000F07D
(1682544965.687393) can1 18FEF600#FAFEFEFEFF2022FF
(1682544965.687981) can1 18FEF000#FFFFFF0000C0FFFF
(1682544965.688579) can1 18FE9600#0CFAFFFFFFFFFFFF
(1682544965.696523) can1 0CF00400#F87D7D000000F07D
(1682544965.706510) can1 0CF00400#F87D7D000000F07D
(1682544965.709483) can1 18F00E00#FFFF325BFFFFFFFF
(1682544965.710049) can1 0CF00300#D10000FFFFFF00FF
(1682544965.710632) can1 0CF00A00#FFFF0000FFFFFFFF
(1682544965.711213) can1 18EFFF00#FFFFFFFF00011980
(1682544965.711788) can1 10F01A00#0000FFFF0000B004
(1682544965.716455) can1 0CF00400#F87D7D000000F07D
(1682544965.726689) can1 0CF00400#F87D7D000000F07D
(1682544965.736454) can1 0CF00400#F87D7D000000F07D
(1682544965.746480) can1 0CF00400#F87D7D000000F07D
(1682544965.756468) can1 0CF00400#F87D7D000000F07D
(1682544965.757192) can1 18F00E00#FFFF325BFFFFFFFF
(1682544965.757764) can1 0CF00300#D10000FFFFFF00FF
(1682544965.758348) can1 0CF00A00#FFFF0000FFFFFFFF
(1682544965.758928) can1 18EFFF00#FFFFFFFF00011980
(1682544965.759504) can1 10F01A00#0000FFFF0000B004
(1682544965.766699) can1 0CF00400#F87D7D000000F07D
(1682544965.776469) can1 0CF00400#F87D7D000000F07D
(1682544965.779298) can1 10FE6F00#FFFFFFFFFFFFFFFF
(1682544965.779882) can1 18FF3500#FFFFFF00FFFEFFFF
(1682544965.780470) can1 18FF3800#000000FFFF9EFFFF
(1682544965.781058) can1 18FF1800#00FFFFFFFFFFFFFF
(1682544965.781622) can1 18FEF100#F300FE10FF001FC5
(1682544965.782206) can1 18F00100#FFFFFFCFFFFFFFFF
(1682544965.782791) can1 10FCE300#FE0000FFFFFFFFFF
(1682544965.783379) can1 18FD9400#0000FFFF0000FFFF
(1682544965.783956) can1 10FCFD00#FFFFFFFF2964FFFF
(1682544965.784541) can1 18FE6900#00FEFFFFFFFF00FE
(1682544965.785125) can1 18FEF200#000000FEFFFFFEFF
(1682544965.785717) can1 18FF5000#FFFFFFCFFFFFFFFF
(1682544965.786301) can1 18FEF000#FFFFFF0000C0FFFF
(1682544965.786877) can1 0CF00400#F87D7D000000F07D
(1682544965.787457) can1 18FE9600#0CFAFFFFFFFFFFFF
(1682544965.796455) can1 0CF00400#F87D7D000000F07D
(1682544965.806710) can1 0CF00400#F87D7D000000F07D
(1682544965.809690) can1 18F00E00#FFFF325BFFFFFFFF
(1682544965.810259) can1 0CF00300#D10000FFFFFF00FF
(1682544965.810843) can1 0CF00A00#FFFF0000FFFFFFFF
(1682544965.811437) can1 18EFFF00#FFFFFFFF00011980
(1682544965.812007) can1 10F01A00#0000FFFF0000B004
(1682544965.816507) can1 0CF00400#F87D7D000000F07D
(1682544965.826493) can1 0CF00400#F87D7D000000F07D
(1682544965.836444) can1 0CF00400#F87D7D000000F07D
(1682544965.836828) can1 18EA9600#E6FE00
(1682544965.846688) can1 0CF00400#F87D7D000000F07D
(1682544965.856477) can1 0CF00400#F87D7D000000F07D
(1682544965.857219) can1 18F00E00#FFFF325BFFFFFFFF
(1682544965.857793) can1 0CF00300#D10000FFFFFF00FF
(1682544965.858367) can1 18FEDF00#FE00FEFE7D0000FF
(1682544965.858952) can1 0CF00A00#FFFF0000FFFFFFFF
(1682544965.859533) can1 18EFFF00#FFFFFFFF00011980
(1682544965.860113) can1 10F01A00#0000FFFF0000B004
(1682544965.866502) can1 0CF00400#F87D7D000000F07D
(1682544965.876482) can1 0CF00400#F87D7D000000F07D
(1682544965.879290) can1 10FE6F00#FFFFFFFFFFFFFFFF
(1682544965.879878) can1 18FF3500#FFFFFF00FFFEFFFF
(1682544965.880474) can1 18FF1800#00FFFFFFFFFFFFFF
(1682544965.881054) can1 18FDB200#00FEFFFF00FEFFFF
(1682544965.881643) can1 18FDB300#00FE00FEFFFFFFFF
(1682544965.882226) can1 18FEF100#F300FE10FF001FC5
(1682544965.882792) can1 18F00100#FFFFFFCFFFFFFFFF
(1682544965.883376) can1 10FCE300#FE0000FFFFFFFFFF
(1682544965.883964) can1 18FD9400#0000FFFF0000FFFF
(1682544965.884538) can1 10FCFD00#FFFFFFFF2964FFFF
(1682544965.885124) can1 18FEDB00#FFFF00FEFFFFFFFF
(1682544965.885696) can1 18FEEF00#FEFFFFFE8080FFFA
(1682544965.886280) can1 18FEF200#000000FEFFFFFEFF
(1682544965.886856) can1 0CF00400#F87D7D000000F07D
(1682544965.887440) can1 18FEF000#FFFFFF0000C0FFFF
(1682544965.888020) can1 18FE9600#0CFAFFFFFFFFFFFF
(1682544965.888568) can1 18FEC100#4CD9D102285C8F02
(1682544965.896507) can1 0CF00400#F87D7D000000F07D
(1682544965.906589) can1 18FECA00#40FF66000301FFFF
(1682544965.907161) can1 0CF00400#F87D7D000000F07D
(1682544965.909591) can1 18F00E00#FFFF325BFFFFFFFF
(1682544965.910164) can1 0CF00300#D10000FFFFFF00FF
(1682544965.910747) can1 0CF00A00#FFFF0000FFFFFFFF
(1682544965.911328) can1 18EFFF00#FFFFFFFF00011980
(1682544965.911904) can1 10F01A00#0000FFFF0000B004
(1682544965.916464) can1 0CF00400#F87D7D000000F07D
(1682544965.926695) can1 0CF00400#F87D7D000000F07D
(1682544965.936497) can1 0CF00400#F87D7D000000F07D
(1682544965.946493) can1 0CF00400#F87D7D000000F07D
(1682544965.956446) can1 0CF00400#F87D7D000000F07D
(1682544965.957170) can1 18F00E00#FFFF325BFFFFFFFF
(1682544965.957743) can1 0CF00300#D10000FFFFFF00FF
(1682544965.958327) can1 0CF00A00#FFFF0000FFFFFFFF
(1682544965.958907) can1 18EFFF00#FFFFFFFF00011980
(1682544965.959483) can1 10F01A00#0000FFFF0000B004
(1682544965.966690) can1 0CF00400#F87D7D000000F07D
(1682544965.976476) can1 0CF00400#F87D7D000000F07D
(1682544965.979368) can1 10FE6F00#FFFFFFFFFFFFFFFF
(1682544965.979952) can1 18FF3500#FFFFFF00FFFEFFFF
(1682544965.980546) can1 18FF1800#00FFFFFFFFFFFFFF
(1682544965.981119) can1 18FEF500#A8FFFF00FE00FFFF
(1682544965.981702) can1 18E0FF00#FAFFFFFFFFFFFFFF
(1682544965.982266) can1 18FEF100#F300FE10FF001FC5
(1682544965.982850) can1 18F00100#FFFFFFCFFFFFFFFF
(1682544965.983430) can1 10FD5200#FFFFFFFA00FFFFFF
(1682544965.984014) can1 10FCE300#FE0000FFFFFFFFFF
(1682544965.984603) can1 18FD9400#0000FFFF0000FFFF
(1682544965.985183) can1 10FCFD00#FFFFFFFF2964FFFF
(1682544965.985766) can1 18FEF200#000000FEFFFFFEFF
(1682544965.986355) can1 18FDD000#FFFFFFFFFEFFFFFF
(1682544965.986931) can1 0CF00400#F87D7D000000F07D
(1682544965.987516) can1 18FEF000#FFFFFF0000C0FFFF
(1682544965.988100) can1 18FE9900#FFFF00FEFFFFFFFF
(1682544965.988675) can1 18FE9600#0CFAFFFFFFFFFFFF
(1682544965.989256) can1 18FE5600#00FFFFFF1F1FFFFF
(1682544965.996466) can1 0CF00400#F87D7D000000F07D
(1682544966.006717) can1 0CF00400#F87D7D000000F07D
(1682544966.009700) can1 18F00E00#FFFF325BFFFFFFFF
(1682544966.010263) can1 0CF00300#D10000FFFFFF00FF
(1682544966.010847) can1 0CF00A00#FFFF0000FFFFFFFF
(1682544966.011426) can1 18EFFF00#FFFFFFFF00011980
(1682544966.012003) can1 10F01A00#0000FFFF0000B004
(1682544966.016481) can1 0CF00400#F87D7D000000F07D
(1682544966.026486) can1 0CF00400#F87D7D000000F07D
(1682544966.036459) can1 0CF00400#F87D7D000000F07D
(1682544966.046719) can1 0CF00400#F87D7D000000F07D
(1682544966.056497) can1 0CF00400#F87D7D000000F07D
(1682544966.057216) can1 18F00E00#FFFF325BFFFFFFFF
(1682544966.057787) can1 0CF00300#D10000FFFFFF00FF
(1682544966.058371) can1 0CF00A00#FFFF0000FFFFFFFF
(1682544966.058951) can1 18EFFF00#FFFFFFFF00011980
(1682544966.059527) can1 10F01A00#0000FFFF0000B004
(1682544966.066493) can1 0CF00400#F87D7D000000F07D
(1682544966.076444) can1 0CF00400#F87D7D000000F07D
(1682544966.079270) can1 10FE6F00#FFFFFFFFFFFFFFFF
(1682544966.079853) can1 18FF3500#FFFFFF00FFFEFFFF
(1682544966.080450) can1 18FF1800#00FFFFFFFFFFFFFF
(1682544966.081009) can1 18FEF100#F300FE10FF001FC5
(1682544966.081601) can1 18FE9400#0000003F00000000
(1682544966.082185) can1 18F00100#FFFFFFCFFFFFFFFF
(1682544966.082769) can1 10FCE300#FE0000FFFFFFFFFF
(1682544966.083358) can1 18FD9400#0000FFFF0000FFFF
(1682544966.083933) can1 10FCFD00#FFFFFFFF2964FFFF
(1682544966.084527) can1 18FEF200#000000FEFFFFFEFF
(1682544966.085094) can1 18FF9B00#FFF0F0FFFE00FEF2
(1682544966.085678) can1 18FEF000#FFFFFF0000C0FFFF
(1682544966.086259) can1 18FE9600#0CFAFFFFFFFFFFFF
(1682544966.086834) can1 0CF00400#F87D7D000000F07D
(1682544966.087415) can1 18FEF700#FFFFFFFFFFFFF100
(1682544966.096478) can1 0CF00400#F87D7D000000F07D
(1682544966.106511) can1 0CF00400#F87D7D000000F07D
(1682544966.109524) can1 18F00E00#FFFF325BFFFFFFFF
(1682544966.110089) can1 0CF00300#D10000FFFFFF00FF
(1682544966.110665) can1 18FEDF00#FE00FEFE7D0200FF
(1682544966.111250) can1 0CF00A00#FFFF0000FFFFFFFF
(1682544966.111830) can1 18EFFF00#FFFFFFFF00011980
(1682544966.112421) can1 10F01A00#0000FFFF0000B004
(1682544966.116487) can1 0CF00400#F87D7D000000F07D
(1682544966.126695) can1 0CF00400#F87D7D000000F07D
(1682544966.136478) can1 0CF00400#F87D7D000000F07D
(1682544966.146496) can1 0CF00400#F87D7D000000F07D
(1682544966.156461) can1 0CF00400#F87D7D000000F07D
(1682544966.157179) can1 18F00E00#FFFF325BFFFFFFFF
(1682544966.157751) can1 0CF00300#D10000FFFFFF00FF
(1682544966.158338) can1 0CF00A00#FFFF0000FFFFFFFF
(1682544966.158919) can1 18EFFF00#FFFFFFFF00011980
(1682544966.159495) can1 10F01A00#0000FFFF0000B004
(1682544966.166694) can1 0CF00400#F87D7D000000F07D
(1682544966.176497) can1 0CF00400#F87D7D000000F07D
(1682544966.179276) can1 18FD2000#00FE00FEFFFFFFFF
(1682544966.179864) can1 10FE6F00#FFFFFFFFFFFFFFFF
(1682544966.180452) can1 18FF3500#FFFFFF00FFFEFFFF
(1682544966.181041) can1 18FF1800#00FFFFFFFFFFFFFF
(1682544966.181629) can1 18FDA100#00FE000000000FFF
(1682544966.182217) can1 18FD6500#00FEFFFFFFFEFFFF
(1682544966.182797) can1 18FDB400#FFFF00FEFFFFFFFF
(1682544966.183362) can1 18FEF100#F300FE10FF001FC5
(1682544966.183945) can1 18F00100#FFFFFFCFFFFFFFFF
(1682544966.184533) can1 18FF9A00#0000000000F0FFFF
(1682544966.185119) can1 10FCE300#FE0000FFFFFFFFFF
(1682544966.185707) can1 18FD9400#0000FFFF0000FFFF
(1682544966.186299) can1 10FCFD00#FFFFFFFF2964FFFF
(1682544966.186861) can1 0CF00400#F87D7D000000F07D
(1682544966.187441) can1 18FEEE00#FEFF00FEFFFFFFFF
(1682544966.188024) can1 18FEF200#000000FEFFFFFEFF
(1682544966.188587) can1 18FEF600#FAFEFEFEFF2022FF
(1682544966.189172) can1 18FEF000#FFFFFF0000C0FFFF
(1682544966.189753) can1 18FE9600#0CFAFFFFFFFFFFFF
(1682544966.196477) can1 0CF00400#F87D7D000000F07D
(1682544966.206718) can1 0CF00400#F87D7D000000F07D
(1682544966.209693) can1 18F00E00#FFFF325BFFFFFFFF
(1682544966.210259) can1 0CF00300#D10000FFFFFF00FF
(1682544966.210843) can1 0CF00A00#FFFF0000FFFFFFFF
(1682544966.211423) can1 18EFFF00#FFFFFFFF00011980
(1682544966.211999) can1 10F01A00#0000FFFF0000B004
(1682544966.216489) can1 0CF00400#F87D7D000000F07D
(1682544966.226492) can1 0CF00400#F87D7D000000F07D
(1682544966.236456) can1 0CF00400#F87D7D000000F07D
(1682544966.246693) can1 0CF00400#F87D7D000000F07D
(1682544966.256480) can1 0CF00400#F87D7D000000F07D
(1682544966.257206) can1 18F00E00#FFFF325BFFFFFFFF
(1682544966.257779) can1 0CF00300#D10000FFFFFF00FF
(1682544966.258363) can1 0CF00A00#FFFF0000FFFFFFFF
(1682544966.258942) can1 18EFFF00#FFFFFFFF00011980
(1682544966.259518) can1 10F01A00#0000FFFF0000B004
(1682544966.266508) can1 0CF00400#F87D7D000000F07D
(1682544966.276456) can1 0CF00400#F87D7D000000F07D
(1682544966.279286) can1 10FE6F00#FFFFFFFFFFFFFFFF
(1682544966.279869) can1 18FF3500#FFFFFF00FFFEFFFF
(1682544966.280466) can1 18FF1800#00FFFFFFFFFFFFFF
(1682544966.281025) can1 18FEF100#F300FE10FF001FC5
(1682544966.281608) can1 18F00100#FFFFFFCFFFFFFFFF
