(1682544057.283469) can1 18EC0001#20F906FFFF01FE00
(1682544057.291174) can1 18EC0002#20F906FFFF02FE00
(1682544057.298533) can1 18EC0003#20F906FFFF03FE00
(1682544057.303509) can1 18EB0001#0161626364656667
(1682544057.306283) can1 18EC0004#20F906FFFF04FE00
(1682544057.311212) can1 18EB0002#0161626364656667
(1682544057.314090) can1 18EC0005#20F906FFFF05FE00
(1682544057.318576) can1 18EB0003#0161626364656667
(1682544057.321945) can1 18EC0006#20F906FFFF06FE00
(1682544057.323599) can1 18EB0001#0268696A6B6C6D6E
(1682544057.326320) can1 18EB0004#0161626364656667
(1682544057.330050) can1 18EC0007#20F906FFFF07FE00
(1682544057.331339) can1 18EB0002#0268696A6B6C6D6E
(1682544057.334032) can1 18EB0005#0161626364656667
(1682544057.338140) can1 18EC0008#20F906FFFF08FE00
(1682544057.338682) can1 18EB0003#0268696A6B6C6D6E
(1682544057.342000) can1 18EB0006#0161626364656667
(1682544057.343691) can1 18EB0001#036F707172737475
(1682544057.346370) can1 18EB0004#0268696A6B6C6D6E
(1682544057.346943) can1 18EC0009#20F906FFFF09FE00
(1682544057.350084) can1 18EB0007#0161626364656667
(1682544057.351356) can1 18EB0002#036F707172737475
(1682544057.354060) can1 18EB0005#0268696A6B6C6D6E
(1682544057.354941) can1 18EC000A#20F906FFFF0AFE00
(1682544057.359112) can1 18EB0008#0161626364656667
(1682544057.359118) can1 18EB0003#036F707172737475
(1682544057.362053) can1 18EB0006#0268696A6B6C6D6E
(1682544057.363691) can1 18EB0001#04767778797A6162
(1682544057.364485) can1 18EC000B#20F906FFFF0BFE00
(1682544057.366508) can1 18EB0004#036F707172737475
(1682544057.367006) can1 18EB0009#0161626364656667
(1682544057.370163) can1 18EB0007#0268696A6B6C6D6E
(1682544057.371397) can1 18EB0002#04767778797A6162
(1682544057.374021) can1 18EC000C#20F906FFFF0CFE00
(1682544057.374537) can1 18EB0005#036F707172737475
(1682544057.375082) can1 18EB000A#0161626364656667
(1682544057.378290) can1 18EB0008#0268696A6B6C6D6E
(1682544057.378826) can1 18EB0003#04767778797A6162
(1682544057.382110) can1 18EB0006#036F707172737475
(1682544057.382883) can1 18EC000D#20F906FFFF0DFE00
(1682544057.383780) can1 18EB0001#0563646566676869
(1682544057.384509) can1 18EB000B#0161626364656667
(1682544057.386596) can1 18EB0004#04767778797A6162
(1682544057.387126) can1 18EB0009#0268696A6B6C6D6E
(1682544057.390234) can1 18EB0007#036F707172737475
(1682544057.391478) can1 18EB0002#0563646566676869
(1682544057.392468) can1 18EC000E#20F906FFFF0EFE00
(1682544057.394077) can1 18EB000C#0161626364656667
(1682544057.394604) can1 18EB0005#04767778797A6162
(1682544057.395146) can1 18EB000A#0268696A6B6C6D6E
(1682544057.398375) can1 18EB0008#036F707172737475
(1682544057.398912) can1 18EB0003#0563646566676869
(1682544057.401535) can1 18EC000F#20F906FFFF0FFE00
(1682544057.402347) can1 18EB0006#04767778797A6162
(1682544057.402991) can1 18EB000D#0161626364656667
(1682544057.403838) can1 18EB0001#066A6B6C6D6E6F70
(1682544057.404562) can1 18EB000B#0268696A6B6C6D6E
(1682544057.406682) can1 18EB0004#0563646566676869
(1682544057.407219) can1 18EB0009#036F707172737475
(1682544057.410271) can1 18EB0007#04767778797A6162
(1682544057.410856) can1 18EC0010#20F906FFFF10FE00
(1682544057.411642) can1 18EB0002#066A6B6C6D6E6F70
(1682544057.412477) can1 18EB000E#0161626364656667
(1682544057.414150) can1 18EB000C#0268696A6B6C6D6E
(1682544057.414673) can1 18EB0005#0563646566676869
(1682544057.415218) can1 18EB000A#036F707172737475
(1682544057.418422) can1 18EB0008#04767778797A6162
(1682544057.418965) can1 18EB0003#066A6B6C6D6E6F70
(1682544057.420178) can1 18EC0011#20F906FFFF11FE00
(1682544057.421585) can1 18EB000F#0161626364656667
(1682544057.422393) can1 18EB0006#0563646566676869
(1682544057.423178) can1 18EB000D#0268696A6B6C6D6E
(1682544057.423897) can1 18EB0001#0771727374757677
(1682544057.424688) can1 18EB000B#036F707172737475
(1682544057.426744) can1 18EB0004#066A6B6C6D6E6F70
(1682544057.427278) can1 18EB0009#04767778797A6162
(1682544057.429559) can1 18EC0012#20F906FFFF12FE00
(1682544057.430333) can1 18EB0007#0563646566676869
(1682544057.430888) can1 18EB0010#0161626364656667
(1682544057.431701) can1 18EB0002#0771727374757677
(1682544057.432525) can1 18EB000E#0268696A6B6C6D6E
(1682544057.434255) can1 18EB000C#036F707172737475
(1682544057.434775) can1 18EB0005#066A6B6C6D6E6F70
(1682544057.435315) can1 18EB000A#04767778797A6162
(1682544057.438471) can1 18EB0008#0563646566676869
(1682544057.439010) can1 18EB0003#0771727374757677
(1682544057.439914) can1 18EC0013#20F906FFFF13FE00
(1682544057.440462) can1 18EB0011#0161626364656667
(1682544057.441662) can1 18EB000F#0268696A6B6C6D6E
(1682544057.442461) can1 18EB0006#066A6B6C6D6E6F70
(1682544057.443228) can1 18EB000D#036F707172737475
(1682544057.443951) can1 18EB0001#0878797A61626364
(1682544057.444737) can1 18EB000B#04767778797A6162
(1682544057.446801) can1 18EB0004#0771727374757677
(1682544057.447336) can1 18EB0009#0563646566676869
(1682544057.449555) can1 18EB0012#0161626364656667
(1682544057.450127) can1 18EC0014#20F906FFFF14FE00
(1682544057.450667) can1 18EB0007#066A6B6C6D6E6F70
(1682544057.451244) can1 18EB0010#0268696A6B6C6D6E
(1682544057.451782) can1 18EB0002#0878797A61626364
(1682544057.452659) can1 18EB000E#036F707172737475
(1682544057.454335) can1 18EB000C#04767778797A6162
(1682544057.454872) can1 18EB0005#0771727374757677
(1682544057.455407) can1 18EB000A#0563646566676869
(1682544057.458517) can1 18EB0008#066A6B6C6D6E6F70
(1682544057.459068) can1 18EB0003#0878797A61626364
(1682544057.459641) can1 18EC0015#20F906FFFF15FE00
(1682544057.460195) can1 18EB0013#0161626364656667
(1682544057.460730) can1 18EB0011#0268696A6B6C6D6E
(1682544057.461736) can1 18EB000F#036F707172737475
(1682544057.462528) can1 18EB0006#0771727374757677
(1682544057.463302) can1 18EB000D#04767778797A6162
(1682544057.464013) can1 18EB0001#0965666768696A6B
(1682544057.464791) can1 18EB000B#0563646566676869
(1682544057.466850) can1 18EB0004#0878797A61626364
(1682544057.467386) can1 18EB0009#066A6B6C6D6E6F70
(1682544057.469498) can1 18EC0016#20F906FFFF16FE00
(1682544057.470020) can1 18EB0012#0268696A6B6C6D6E
(1682544057.470566) can1 18EB0014#0161626364656667
(1682544057.471111) can1 18EB0007#0771727374757677
(1682544057.471659) can1 18EB0010#036F707172737475
(1682544057.472184) can1 18EB0002#0965666768696A6B
(1682544057.472734) can1 18EB000E#04767778797A6162
(1682544057.474413) can1 18EB000C#0563646566676869
(1682544057.474943) can1 18EB0005#0878797A61626364
(1682544057.475476) can1 18EB000A#066A6B6C6D6E6F70
(1682544057.478574) can1 18EB0008#0771727374757677
(1682544057.479115) can1 18EB0003#0965666768696A6B
(1682544057.479662) can1 18EB0015#0161626364656667
(1682544057.480200) can1 18EB0013#0268696A6B6C6D6E
(1682544057.480747) can1 18EB0011#036F707172737475
(1682544057.481805) can1 18EB000F#04767778797A6162
(1682544057.482585) can1 18EB0006#0878797A61626364
(1682544057.483366) can1 18EB000D#0563646566676869
(1682544057.483938) can1 18EC0017#20F906FFFF17FE00
(1682544057.484476) can1 18EB0001#0A6C6D6E6F707172
(1682544057.485025) can1 18EB000B#066A6B6C6D6E6F70
(1682544057.486946) can1 18EB0004#0965666768696A6B
(1682544057.487483) can1 18EB0009#0771727374757677
(1682544057.489508) can1 18EB0016#0161626364656667
(1682544057.490046) can1 18EB0012#036F707172737475
(1682544057.490585) can1 18EB0014#0268696A6B6C6D6E
(1682544057.491123) can1 18EB0007#0878797A61626364
(1682544057.491671) can1 18EB0010#04767778797A6162
(1682544057.492233) can1 18EB0002#0A6C6D6E6F707172
(1682544057.492771) can1 18EB000E#0563646566676869
(1682544057.494512) can1 18EB000C#066A6B6C6D6E6F70
(1682544057.495043) can1 18EB0005#0965666768696A6B
(1682544057.495583) can1 18EB000A#0771727374757677
(1682544057.498684) can1 18EB0008#0878797A61626364
(1682544057.499216) can1 18EB0003#0A6C6D6E6F707172
(1682544057.499753) can1 18EB0015#0268696A6B6C6D6E
(1682544057.500313) can1 18EB0013#036F707172737475
(1682544057.500848) can1 18EB0011#04767778797A6162
(1682544057.501894) can1 18EB000F#0563646566676869
(1682544057.502647) can1 18EB0006#0965666768696A6B
(1682544057.503439) can1 18EB000D#066A6B6C6D6E6F70
(1682544057.503984) can1 18EB0017#0161626364656667
(1682544057.504521) can1 18EB0001#0B73747576777879
(1682544057.505057) can1 18EB000B#0771727374757677
(1682544057.505637) can1 18EC0018#20F906FFFF18FE00
(1682544057.507052) can1 18EB0004#0A6C6D6E6F707172
(1682544057.507581) can1 18EB0009#0878797A61626364
(1682544057.509610) can1 18EB0016#0268696A6B6C6D6E
(1682544057.510130) can1 18EB0012#04767778797A6162
(1682544057.510680) can1 18EB0014#036F707172737475
(1682544057.511223) can1 18EB0007#0965666768696A6B
(1682544057.511758) can1 18EB0010#0563646566676869
(1682544057.512290) can1 18EB0002#0B73747576777879
(1682544057.512832) can1 18EB000E#066A6B6C6D6E6F70
(1682544057.514659) can1 18EB000C#0771727374757677
(1682544057.515192) can1 18EB0005#0A6C6D6E6F707172
(1682544057.515729) can1 18EB000A#0878797A61626364
(1682544057.518771) can1 18EB0008#0965666768696A6B
(1682544057.519302) can1 18EB0003#0B73747576777879
(1682544057.519841) can1 18EB0015#036F707172737475
(1682544057.520380) can1 18EB0013#04767778797A6162
(1682544057.520918) can1 18EB0011#0563646566676869
(1682544057.521968) can1 18EB000F#066A6B6C6D6E6F70
(1682544057.522713) can1 18EB0006#0A6C6D6E6F707172
(1682544057.523488) can1 18EB000D#0771727374757677
(1682544057.524107) can1 18EB0017#0268696A6B6C6D6E
(1682544057.524564) can1 18EB0001#0C7A616263646566
(1682544057.525103) can1 18EB000B#0878797A61626364
(1682544057.525666) can1 18EB0018#0161626364656667
(1682544057.527102) can1 18EB0004#0B73747576777879
(1682544057.527646) can1 18EB0009#0965666768696A6B
(1682544057.529721) can1 18EB0016#036F707172737475
(1682544057.530250) can1 18EB0012#0563646566676869
(1682544057.530781) can1 18EB0014#04767778797A6162
(1682544057.531324) can1 18EB0007#0A6C6D6E6F707172
(1682544057.531863) can1 18EB0010#066A6B6C6D6E6F70
(1682544057.532403) can1 18EB0002#0C7A616263646566
(1682544057.532951) can1 18EB000E#0771727374757677
(1682544057.534753) can1 18EB000C#0878797A61626364
(1682544057.535284) can1 18EB0005#0B73747576777879
(1682544057.535824) can1 18EB000A#0965666768696A6B
(1682544057.538056) can1 18EC0019#20F906FFFF19FE00
(1682544057.538842) can1 18EB0008#0A6C6D6E6F707172
(1682544057.539375) can1 18EB0003#0C7A616263646566
(1682544057.539910) can1 18EB0015#04767778797A6162
(1682544057.540452) can1 18EB0013#0563646566676869
(1682544057.541013) can1 18EB0011#066A6B6C6D6E6F70
(1682544057.542037) can1 18EB000F#0771727374757677
(1682544057.542772) can1 18EB0006#0B73747576777879
(1682544057.543547) can1 18EB000D#0878797A61626364
(1682544057.544135) can1 18EB0017#036F707172737475
(1682544057.544629) can1 18EB0001#0D6768696A6B6C6D
(1682544057.545169) can1 18EB000B#0965666768696A6B
(1682544057.545709) can1 18EB0018#0268696A6B6C6D6E
(1682544057.547272) can1 18EB0004#0C7A616263646566
(1682544057.547809) can1 18EB0009#0A6C6D6E6F707172
(1682544057.549821) can1 18EB0016#04767778797A6162
(1682544057.550346) can1 18EB0012#066A6B6C6D6E6F70
(1682544057.550890) can1 18EB0014#0563646566676869
(1682544057.551428) can1 18EB0007#0B73747576777879
(1682544057.551969) can1 18EB0010#0771727374757677
(1682544057.552496) can1 18EB0002#0D6768696A6B6C6D
(1682544057.553044) can1 18EB000E#0878797A61626364
(1682544057.554805) can1 18EB000C#0965666768696A6B
(1682544057.555340) can1 18EB0005#0C7A616263646566
(1682544057.555880) can1 18EB000A#0A6C6D6E6F707172
(1682544057.557257) can1 18EC001A#20F906FFFF1AFE00
(1682544057.558087) can1 18EB0019#0161626364656667
(1682544057.558896) can1 18EB0008#0B73747576777879
(1682544057.559442) can1 18EB0003#0D6768696A6B6C6D
(1682544057.559974) can1 18EB0015#0563646566676869
(1682544057.560514) can1 18EB0013#066A6B6C6D6E6F70
(1682544057.561050) can1 18EB0011#0771727374757677
(1682544057.562116) can1 18EB000F#0878797A61626364
(1682544057.562812) can1 18EB0006#0C7A616263646566
(1682544057.563594) can1 18EB000D#0965666768696A6B
(1682544057.564126) can1 18EB0017#04767778797A6162
(1682544057.564669) can1 18EB0001#0E6E6F7071727374
(1682544057.565210) can1 18EB000B#0A6C6D6E6F707172
(1682544057.565755) can1 18EB0018#036F707172737475
(1682544057.567299) can1 18EB0004#0D6768696A6B6C6D
(1682544057.567845) can1 18EB0009#0B73747576777879
(1682544057.568412) can1 18EC001B#20F906FFFF1BFE00
(1682544057.569915) can1 18EB0016#0563646566676869
(1682544057.570452) can1 18EB0012#0771727374757677
(1682544057.570985) can1 18EB0014#066A6B6C6D6E6F70
(1682544057.571524) can1 18EB0007#0C7A616263646566
(1682544057.572140) can1 18EB0010#0878797A61626364
(1682544057.572600) can1 18EB0002#0E6E6F7071727374
(1682544057.573140) can1 18EB000E#0965666768696A6B
(1682544057.574897) can1 18EB000C#0A6C6D6E6F707172
(1682544057.575429) can1 18EB0005#0D6768696A6B6C6D
(1682544057.575967) can1 18EB000A#0B73747576777879
(1682544057.577248) can1 18EB001A#0161626364656667
(1682544057.578106) can1 18EB0019#0268696A6B6C6D6E
(1682544057.578933) can1 18EB0008#0C7A616263646566
(1682544057.579473) can1 18EB0003#0E6E6F7071727374
(1682544057.580120) can1 18EC001C#20F906FFFF1CFE00
(1682544057.580578) can1 18EB0015#066A6B6C6D6E6F70
(1682544057.581118) can1 18EB0013#0771727374757677
(1682544057.581658) can1 18EB0011#0878797A61626364
(1682544057.582195) can1 18EB000F#0965666768696A6B
(1682544057.582869) can1 18EB0006#0D6768696A6B6C6D
(1682544057.583668) can1 18EB000D#0A6C6D6E6F707172
(1682544057.584197) can1 18EB0017#0563646566676869
(1682544057.584737) can1 18EB0001#0F75767778797A61
(1682544057.585301) can1 18EB000B#0B73747576777879
(1682544057.585816) can1 18EB0018#04767778797A6162
(1682544057.587357) can1 18EB0004#0E6E6F7071727374
(1682544057.587892) can1 18EB0009#0C7A616263646566
(1682544057.588433) can1 18EB001B#0161626364656667
(1682544057.589973) can1 18EB0016#066A6B6C6D6E6F70
(1682544057.590509) can1 18EB0012#0878797A61626364
(1682544057.591066) can1 18EB0014#0771727374757677
(1682544057.591644) can1 18EC001D#20F906FFFF1DFE00
(1682544057.592171) can1 18EB0007#0D6768696A6B6C6D
(1682544057.592721) can1 18EB0010#0965666768696A6B
(1682544057.593258) can1 18EB0002#0F75767778797A61
(1682544057.593798) can1 18EB000E#0A6C6D6E6F707172
(1682544057.594992) can1 18EB000C#0B73747576777879
(1682544057.595530) can1 18EB0005#0E6E6F7071727374
(1682544057.596119) can1 18EB000A#0C7A616263646566
(1682544057.597297) can1 18EB001A#0268696A6B6C6D6E
(1682544057.598151) can1 18EB0019#036F707172737475
(1682544057.598963) can1 18EB0008#0D6768696A6B6C6D
(1682544057.599498) can1 18EB0003#0F75767778797A61
(1682544057.600096) can1 18EB001C#0161626364656667
(1682544057.600597) can1 18EB0015#0771727374757677
(1682544057.601147) can1 18EB0013#0878797A61626364
(1682544057.601750) can1 18EB0011#0965666768696A6B
(1682544057.602252) can1 18EC001E#20F906FFFF1EFE00
(1682544057.602789) can1 18EB000F#0A6C6D6E6F707172
(1682544057.603319) can1 18EB0006#0E6E6F7071727374
(1682544057.603868) can1 18EB000D#0B73747576777879
(1682544057.604403) can1 18EB0017#066A6B6C6D6E6F70
(1682544057.604954) can1 18EB0001#1062636465666768
(1682544057.605497) can1 18EB000B#0C7A616263646566
(1682544057.606037) can1 18EB0018#0563646566676869
(1682544057.607456) can1 18EB0004#0F75767778797A61
(1682544057.607958) can1 18EB0009#0D6768696A6B6C6D
(1682544057.608494) can1 18EB001B#0268696A6B6C6D6E
(1682544057.610010) can1 18EB0016#0771727374757677
(1682544057.610549) can1 18EB0012#0965666768696A6B
(1682544057.611090) can1 18EB0014#0878797A61626364
(1682544057.611639) can1 18EB001D#0161626364656667
(1682544057.612175) can1 18EB0007#0E6E6F7071727374
(1682544057.612729) can1 18EB0010#0A6C6D6E6F707172
(1682544057.613318) can1 18EC001F#20F906FFFF1FFE00
(1682544057.613859) can1 18EB0002#1062636465666768
(1682544057.614400) can1 18EB000E#0B73747576777879
(1682544057.615195) can1 18EB000C#0C7A616263646566
(1682544057.615723) can1 18EB0005#0F75767778797A61
(1682544057.616253) can1 18EB000A#0D6768696A6B6C6D
(1682544057.617377) can1 18EB001A#036F707172737475
(1682544057.618200) can1 18EB0019#04767778797A6162
(1682544057.619005) can1 18EB0008#0E6E6F7071727374
(1682544057.619550) can1 18EB0003#1062636465666768
(1682544057.620105) can1 18EB001C#0268696A6B6C6D6E
(1682544057.620625) can1 18EB0015#0878797A61626364
(1682544057.621158) can1 18EB0013#0965666768696A6B
(1682544057.621706) can1 18EB0011#0A6C6D6E6F707172
(1682544057.622246) can1 18EB001E#0161626364656667
(1682544057.622789) can1 18EB000F#0B73747576777879
(1682544057.623320) can1 18EB0006#0F75767778797A61
(1682544057.623918) can1 18EC0020#20F906FFFF20FE00
(1682544057.624456) can1 18EB000D#0C7A616263646566
(1682544057.625023) can1 18EB0017#0771727374757677
(1682544057.625538) can1 18EB0001#11696A6B6C6D6E6F
(1682544057.626080) can1 18EB000B#0D6768696A6B6C6D
(1682544057.626620) can1 18EB0018#066A6B6C6D6E6F70
(1682544057.627523) can1 18EB0004#1062636465666768
(1682544057.628134) can1 18EB0009#0E6E6F7071727374
(1682544057.628607) can1 18EB001B#036F707172737475
(1682544057.630101) can1 18EB0016#0878797A61626364
(1682544057.630636) can1 18EB0012#0A6C6D6E6F707172
(1682544057.631179) can1 18EB0014#0965666768696A6B
(1682544057.631716) can1 18EB001D#0268696A6B6C6D6E
(1682544057.632260) can1 18EB0007#0F75767778797A61
(1682544057.632803) can1 18EB0010#0B73747576777879
(1682544057.633348) can1 18EB001F#0161626364656667
(1682544057.633887) can1 18EB0002#11696A6B6C6D6E6F
(1682544057.634424) can1 18EB000E#0C7A616263646566
(1682544057.635228) can1 18EB000C#0D6768696A6B6C6D
(1682544057.635768) can1 18EB0005#1062636465666768
(1682544057.636342) can1 18EC0021#20F906FFFF21FE00
(1682544057.636929) can1 18EB000A#0E6E6F7071727374
(1682544057.637469) can1 18EB001A#04767778797A6162
(1682544057.638268) can1 18EB0019#0563646566676869
(1682544057.639069) can1 18EB0008#0F75767778797A61
(1682544057.639606) can1 18EB0003#11696A6B6C6D6E6F
(1682544057.640142) can1 18EB001C#036F707172737475
(1682544057.640680) can1 18EB0015#0965666768696A6B
(1682544057.641226) can1 18EB0013#0A6C6D6E6F707172
(1682544057.641756) can1 18EB0011#0B73747576777879
(1682544057.642295) can1 18EB001E#0268696A6B6C6D6E
(1682544057.642829) can1 18EB000F#0C7A616263646566
(1682544057.643369) can1 18EB0006#1062636465666768
(1682544057.643915) can1 18EB0020#0161626364656667
(1682544057.644481) can1 18EB000D#0D6768696A6B6C6D
(1682544057.644991) can1 18EB0017#0878797A61626364
(1682544057.645534) can1 18EB0001#1270717273747576
(1682544057.646080) can1 18EB000B#0E6E6F7071727374
(1682544057.646631) can1 18EB0018#0771727374757677
(1682544057.647205) can1 18EC0022#20F906FFFF22FE00
(1682544057.647818) can1 18EB0004#11696A6B6C6D6E6F
(1682544057.648322) can1 18EB0009#0F75767778797A61
(1682544057.648865) can1 18EB001B#04767778797A6162
(1682544057.650194) can1 18EB0016#0965666768696A6B
(1682544057.650751) can1 18EB0012#0B73747576777879
(1682544057.651277) can1 18EB0014#0A6C6D6E6F707172
(1682544057.651814) can1 18EB001D#036F707172737475
(1682544057.652351) can1 18EB0007#1062636465666768
(1682544057.652888) can1 18EB0010#0C7A616263646566
(1682544057.653429) can1 18EB001F#0268696A6B6C6D6E
(1682544057.653971) can1 18EB0002#1270717273747576
(1682544057.654514) can1 18EB000E#0D6768696A6B6C6D
(1682544057.655273) can1 18EB000C#0E6E6F7071727374
(1682544057.655813) can1 18EB0005#11696A6B6C6D6E6F
(1682544057.656353) can1 18EB0021#0161626364656667
(1682544057.656895) can1 18EB000A#0F75767778797A61
(1682544057.657575) can1 18EB001A#0563646566676869
(1682544057.658341) can1 18EB0019#066A6B6C6D6E6F70
(1682544057.658883) can1 18EC0023#20F906FFFF23FE00
(1682544057.659425) can1 18EB0008#1062636465666768
(1682544057.659983) can1 18EB0003#1270717273747576
(1682544057.660525) can1 18EB001C#04767778797A6162
(1682544057.661065) can1 18EB0015#0A6C6D6E6F707172
(1682544057.661599) can1 18EB0013#0B73747576777879
(1682544057.662134) can1 18EB0011#0C7A616263646566
(1682544057.662679) can1 18EB001E#036F707172737475
(1682544057.663212) can1 18EB000F#0D6768696A6B6C6D
(1682544057.663761) can1 18EB0006#11696A6B6C6D6E6F
(1682544057.664298) can1 18EB0020#0268696A6B6C6D6E
(1682544057.664836) can1 18EB000D#0E6E6F7071727374
(1682544057.665371) can1 18EB0017#0965666768696A6B
(1682544057.665914) can1 18EB0001#137778797A616263
(1682544057.666450) can1 18EB000B#0F75767778797A61
(1682544057.667076) can1 18EB0018#0878797A61626364
(1682544057.667569) can1 18EB0022#0161626364656667
(1682544057.668115) can1 18EB0004#1270717273747576
(1682544057.668656) can1 18EB0009#1062636465666768
(1682544057.669192) can1 18EB001B#0563646566676869
(1682544057.670291) can1 18EB0016#0A6C6D6E6F707172
(1682544057.670801) can1 18EB0012#0C7A616263646566
(1682544057.671339) can1 18EB0014#0B73747576777879
(1682544057.671875) can1 18EB001D#04767778797A6162
(1682544057.672477) can1 18EC0024#20F906FFFF24FE00
(1682544057.672995) can1 18EB0007#11696A6B6C6D6E6F
(1682544057.673536) can1 18EB0010#0D6768696A6B6C6D
(1682544057.674078) can1 18EB001F#036F707172737475
(1682544057.674614) can1 18EB0002#137778797A616263
(1682544057.675149) can1 18EB000E#0E6E6F7071727374
(1682544057.675692) can1 18EB000C#0F75767778797A61
(1682544057.676229) can1 18EB0005#1270717273747576
(1682544057.676772) can1 18EB0021#0268696A6B6C6D6E
(1682544057.677307) can1 18EB000A#1062636465666768
(1682544057.677863) can1 18EB001A#066A6B6C6D6E6F70
(1682544057.678392) can1 18EB0019#0771727374757677
(1682544057.678949) can1 18EB0023#0161626364656667
(1682544057.679497) can1 18EB0008#11696A6B6C6D6E6F
(1682544057.680095) can1 18EB0003#137778797A616263
(1682544057.680578) can1 18EB001C#0563646566676869
(1682544057.681145) can1 18EB0015#0B73747576777879
(1682544057.681653) can1 18EB0013#0C7A616263646566
(1682544057.682190) can1 18EB0011#0D6768696A6B6C6D
(1682544057.682732) can1 18EB001E#04767778797A6162
(1682544057.683272) can1 18EB000F#0E6E6F7071727374
(1682544057.683854) can1 18EC0025#20F906FFFF25FE00
(1682544057.684385) can1 18EB0006#1270717273747576
(1682544057.684932) can1 18EB0020#036F707172737475
(1682544057.685499) can1 18EB000D#0F75767778797A61
(1682544057.686020) can1 18EB0017#0A6C6D6E6F707172
(1682544057.686565) can1 18EB0001#146465666768696A
(1682544057.687141) can1 18EB000B#1062636465666768
(1682544057.687728) can1 18EB0018#0965666768696A6B
(1682544057.688254) can1 18EB0022#0268696A6B6C6D6E
(1682544057.688799) can1 18EB0004#137778797A616263
(1682544057.689332) can1 18EB0009#11696A6B6C6D6E6F
(1682544057.689873) can1 18EB001B#066A6B6C6D6E6F70
(1682544057.690415) can1 18EB0016#0B73747576777879
(1682544057.690955) can1 18EB0012#0D6768696A6B6C6D
(1682544057.691494) can1 18EB0014#0C7A616263646566
(1682544057.692086) can1 18EB001D#0563646566676869
(1682544057.692587) can1 18EB0024#0161626364656667
(1682544057.693125) can1 18EB0007#1270717273747576
(1682544057.693673) can1 18EB0010#0E6E6F7071727374
(1682544057.694222) can1 18EB001F#04767778797A6162
(1682544057.694760) can1 18EB0002#146465666768696A
(1682544057.695295) can1 18EB000E#0F75767778797A61
(1682544057.695864) can1 18EC0026#20F906FFFF26FE00
(1682544057.696453) can1 18EB000C#1062636465666768
(1682544057.696986) can1 18EB0005#137778797A616263
(1682544057.697534) can1 18EB0021#036F707172737475
(1682544057.698062) can1 18EB000A#11696A6B6C6D6E6F
(1682544057.698608) can1 18EB001A#0771727374757677
(1682544057.699144) can1 18EB0019#0878797A61626364
(1682544057.699694) can1 18EB0023#0268696A6B6C6D6E
(1682544057.700218) can1 18EB0008#1270717273747576
(1682544057.700754) can1 18EB0003#146465666768696A
(1682544057.701305) can1 18EB001C#066A6B6C6D6E6F70
(1682544057.701839) can1 18EB0015#0C7A616263646566
(1682544057.702371) can1 18EB0013#0D6768696A6B6C6D
(1682544057.702916) can1 18EB0011#0E6E6F7071727374
(1682544057.703460) can1 18EB001E#0563646566676869
(1682544057.703988) can1 18EB000F#0F75767778797A61
(1682544057.704528) can1 18EB0025#0161626364656667
(1682544057.705087) can1 18EB0006#137778797A616263
(1682544057.705630) can1 18EB0020#04767778797A6162
(1682544057.706175) can1 18EB000D#1062636465666768
(1682544057.706726) can1 18EB0017#0B73747576777879
(1682544057.707258) can1 18EB0001#156B6C6D6E6F7071
(1682544057.707803) can1 18EB000B#11696A6B6C6D6E6F
(1682544057.708350) can1 18EB0018#0A6C6D6E6F707172
(1682544057.708898) can1 18EB0022#036F707172737475
(1682544057.709435) can1 18EB0004#146465666768696A
(1682544057.709969) can1 18EB0009#1270717273747576
(1682544057.710541) can1 18EB001B#0771727374757677
(1682544057.711075) can1 18EB0016#0C7A616263646566
(1682544057.711590) can1 18EB0012#0E6E6F7071727374
(1682544057.712147) can1 18EB0014#0D6768696A6B6C6D
(1682544057.712676) can1 18EB001D#066A6B6C6D6E6F70
(1682544057.713220) can1 18EB0024#0268696A6B6C6D6E
(1682544057.713805) can1 18EB0007#137778797A616263
(1682544057.714343) can1 18EB0010#0F75767778797A61
(1682544057.714889) can1 18EB001F#0563646566676869
(1682544057.715424) can1 18EB0002#156B6C6D6E6F7071
(1682544057.715970) can1 18EB000E#1062636465666768
(1682544057.716551) can1 18EC0027#20F906FFFF27FE00
(1682544057.717087) can1 18EB0026#0161626364656667
(1682544057.717626) can1 18EB000C#11696A6B6C6D6E6F
(1682544057.718158) can1 18EB0005#146465666768696A
(1682544057.718695) can1 18EB0021#04767778797A6162
(1682544057.719233) can1 18EB000A#1270717273747576
(1682544057.719772) can1 18EB001A#0878797A61626364
(1682544057.720314) can1 18EB0019#0965666768696A6B
(1682544057.720870) can1 18EB0023#036F707172737475
(1682544057.721417) can1 18EB0008#137778797A616263
(1682544057.721964) can1 18EB0003#156B6C6D6E6F7071
(1682544057.722554) can1 18EB001C#0771727374757677
(1682544057.723247) can1 18EB0015#0D6768696A6B6C6D
(1682544057.724413) can1 18EB0013#0E6E6F7071727374
(1682544057.724417) can1 18EB0011#0F75767778797A61
(1682544057.724869) can1 18EB001E#066A6B6C6D6E6F70
(1682544057.725374) can1 18EB000F#1062636465666768
(1682544057.726917) can1 18EB0025#0268696A6B6C6D6E
(1682544057.726921) can1 18EB0006#146465666768696A
(1682544057.726923) can1 18EB0020#0563646566676869
(1682544057.728163) can1 18EB000D#11696A6B6C6D6E6F
(1682544057.728168) can1 18EB0017#0C7A616263646566
(1682544057.728633) can1 18EB0001#1672737475767778
(1682544057.729020) can1 18EB000B#1270717273747576
(1682544057.729560) can1 18EB0018#0B73747576777879
(1682544057.730091) can1 18EB0022#04767778797A6162
(1682544057.730665) can1 18EB0004#156B6C6D6E6F7071
(1682544057.731242) can1 18EB0009#137778797A616263
(1682544057.731839) can1 18EB001B#0878797A61626364
(1682544057.732316) can1 18EB0016#0D6768696A6B6C6D
(1682544057.732885) can1 18EB0012#0F75767778797A61
(1682544057.733415) can1 18EB0014#0E6E6F7071727374
(1682544057.733948) can1 18EB001D#0771727374757677
(1682544057.734491) can1 18EB0024#036F707172737475
(1682544057.735091) can1 18EB0007#146465666768696A
(1682544057.735577) can1 18EB0010#1062636465666768
(1682544057.736139) can1 18EB001F#066A6B6C6D6E6F70
(1682544057.736663) can1 18EB0002#1672737475767778
(1682544057.737192) can1 18EB000E#11696A6B6C6D6E6F
(1682544057.737746) can1 18EB0027#0161626364656667
(1682544057.738269) can1 18EB0026#0268696A6B6C6D6E
(1682544057.738816) can1 18EB000C#1270717273747576
(1682544057.739360) can1 18EB0005#156B6C6D6E6F7071
(1682544057.739941) can1 18EB0021#0563646566676869
(1682544057.740473) can1 18EB000A#137778797A616263
(1682544057.741009) can1 18EB001A#0965666768696A6B
(1682544057.741553) can1 18EB0019#0A6C6D6E6F707172
(1682544057.742096) can1 18EB0023#04767778797A6162
(1682544057.742626) can1 18EB0008#146465666768696A
(1682544057.743171) can1 18EB0003#1672737475767778
(1682544057.743708) can1 18EB001C#0878797A61626364
(1682544057.744247) can1 18EB0015#0E6E6F7071727374
(1682544057.744788) can1 18EB0013#0F75767778797A61
(1682544057.745333) can1 18EB0011#1062636465666768
(1682544057.745869) can1 18EB001E#0771727374757677
(1682544057.746450) can1 18EC0028#20F906FFFF28FE00
(1682544057.747014) can1 18EB000F#11696A6B6C6D6E6F
(1682544057.747522) can1 18EB0025#036F707172737475
(1682544057.748153) can1 18EB0006#156B6C6D6E6F7071
(1682544057.748746) can1 18EB0020#066A6B6C6D6E6F70
(1682544057.749293) can1 18EB000D#1270717273747576
(1682544057.749822) can1 18EB0017#0D6768696A6B6C6D
(1682544057.750360) can1 18EB0001#17797A6162636465
(1682544057.750892) can1 18EB000B#137778797A616263
(1682544057.751432) can1 18EB0018#0C7A616263646566
(1682544057.751970) can1 18EB0022#0563646566676869
(1682544057.752516) can1 18EB0004#1672737475767778
(1682544057.753090) can1 18EB0009#146465666768696A
(1682544057.753597) can1 18EB001B#0965666768696A6B
(1682544057.754145) can1 18EB0016#0E6E6F7071727374
(1682544057.754679) can1 18EB0012#1062636465666768
(1682544057.755220) can1 18EB0014#0F75767778797A61
(1682544057.755777) can1 18EB001D#0878797A61626364
(1682544057.756300) can1 18EB0024#04767778797A6162
(1682544057.756851) can1 18EB0007#156B6C6D6E6F7071
(1682544057.757437) can1 18EB0010#11696A6B6C6D6E6F
(1682544057.758012) can1 18EB001F#0771727374757677
(1682544057.758522) can1 18EB0002#17797A6162636465
(1682544057.759051) can1 18EB000E#1270717273747576
(1682544057.759621) can1 18EB0027#0268696A6B6C6D6E
(1682544057.760145) can1 18EB0026#036F707172737475
(1682544057.760665) can1 18EB000C#137778797A616263
(1682544057.761213) can1 18EB0005#1672737475767778
(1682544057.761742) can1 18EB0021#066A6B6C6D6E6F70
(1682544057.762299) can1 18EB000A#146465666768696A
(1682544057.762833) can1 18EB001A#0A6C6D6E6F707172
(1682544057.763389) can1 18EB0019#0B73747576777879
(1682544057.763910) can1 18EB0023#0563646566676869
(1682544057.764459) can1 18EB0008#156B6C6D6E6F7071
(1682544057.765004) can1 18EB0003#17797A6162636465
(1682544057.765526) can1 18EB001C#0965666768696A6B
(1682544057.766109) can1 18EB0015#0F75767778797A61
(1682544057.766642) can1 18EB0013#1062636465666768
(1682544057.767188) can1 18EB0011#11696A6B6C6D6E6F
(1682544057.767718) can1 18EB001E#0878797A61626364
(1682544057.768267) can1 18EB0028#0161626364656667
(1682544057.768802) can1 18EB000F#1270717273747576
(1682544057.769350) can1 18EB0025#04767778797A6162
(1682544057.769883) can1 18EB0006#1672737475767778
(1682544057.770429) can1 18EB0020#0771727374757677
(1682544057.770965) can1 18EB000D#137778797A616263
(1682544057.771506) can1 18EB0022#066A6B6C6D6E6F70
(1682544057.772116) can1 18EB0004#17797A6162636465
(1682544057.772584) can1 18EB0009#156B6C6D6E6F7071
(1682544057.773115) can1 18EB001B#0A6C6D6E6F707172
(1682544057.773661) can1 18EB0016#0F75767778797A61
(1682544057.774192) can1 18EB0012#11696A6B6C6D6E6F
(1682544057.774773) can1 18EB0014#1062636465666768
(1682544057.775305) can1 18EB001D#0965666768696A6B
(1682544057.775861) can1 18EB0024#0563646566676869
(1682544057.776386) can1 18EB0007#1672737475767778
(1682544057.776947) can1 18EB0010#1270717273747576
(1682544057.777475) can1 18EB001F#0878797A61626364
(1682544057.778030) can1 18EB0002#18666768696A6B6C
(1682544057.778572) can1 18EB000E#137778797A616263
(1682544057.779103) can1 18EB0027#036F707172737475
(1682544057.779648) can1 18EB0026#04767778797A6162
(1682544057.780183) can1 18EB000C#146465666768696A
(1682544057.780711) can1 18EB0005#17797A6162636465
(1682544057.781260) can1 18EB0021#0771727374757677
(1682544057.781800) can1 18EB000A#156B6C6D6E6F7071
(1682544057.782349) can1 18EB001A#0B73747576777879
(1682544057.782880) can1 18EB0019#0C7A616263646566
(1682544057.783455) can1 18EB0023#066A6B6C6D6E6F70
(1682544057.784008) can1 18EB0008#1672737475767778
(1682544057.784551) can1 18EB0003#18666768696A6B6C
(1682544057.785082) can1 18EB001C#0A6C6D6E6F707172
(1682544057.785625) can1 18EB0015#1062636465666768
(1682544057.786172) can1 18EB0013#11696A6B6C6D6E6F
(1682544057.786715) can1 18EB0011#1270717273747576
(1682544057.787270) can1 18EB001E#0965666768696A6B
(1682544057.787792) can1 18EB0028#0268696A6B6C6D6E
(1682544057.788334) can1 18EB000F#137778797A616263
(1682544057.788872) can1 18EB0006#17797A6162636465
(1682544057.789416) can1 18EB0020#0878797A61626364
(1682544057.789952) can1 18EB000D#146465666768696A
(1682544057.790475) can1 18EB0017#0F75767778797A61
(1682544057.791020) can1 18EB0001#196D6E6F70717273
(1682544057.791565) can1 18EB000B#156B6C6D6E6F7071
(1682544057.792142) can1 18EB0018#0E6E6F7071727374
(1682544057.792695) can1 18EB0022#0771727374757677
(1682544057.793224) can1 18EB0004#18666768696A6B6C
(1682544057.793778) can1 18EB0009#1672737475767778
(1682544057.794307) can1 18EB001B#0B73747576777879
(1682544057.794848) can1 18EB0016#1062636465666768
(1682544057.795382) can1 18EB0012#1270717273747576
(1682544057.795952) can1 18EB0014#11696A6B6C6D6E6F
(1682544057.796473) can1 18EB001D#0A6C6D6E6F707172
(1682544057.797018) can1 18EB0024#066A6B6C6D6E6F70
(1682544057.797555) can1 18EB001F#0965666768696A6B
(1682544057.798097) can1 18EB0002#196D6E6F70717273
(1682544057.798646) can1 18EB000E#146465666768696A
(1682544057.799174) can1 18EB0027#04767778797A6162
(1682544057.799720) can1 18EB0026#0563646566676869
(1682544057.800295) can1 18EB000C#156B6C6D6E6F7071
(1682544057.800869) can1 18EB0005#18666768696A6B6C
(1682544057.801406) can1 18EB0021#0878797A61626364
(1682544057.801945) can1 18EB000A#1672737475767778
(1682544057.802480) can1 18EB001A#0C7A616263646566
(1682544057.803012) can1 18EB0019#0D6768696A6B6C6D
(1682544057.803561) can1 18EB0023#0771727374757677
(1682544057.804105) can1 18EB0008#17797A6162636465
(1682544057.804647) can1 18EB0003#196D6E6F70717273
(1682544057.805185) can1 18EB001C#0B73747576777879
(1682544057.805720) can1 18EB0015#11696A6B6C6D6E6F
(1682544057.806268) can1 18EB0013#1270717273747576
(1682544057.806805) can1 18EB0011#137778797A616263
(1682544057.807347) can1 18EB001E#0A6C6D6E6F707172
(1682544057.807890) can1 18EB0028#036F707172737475
(1682544057.808426) can1 18EB000F#146465666768696A
(1682544057.808964) can1 18EB0025#066A6B6C6D6E6F70
(1682544057.809557) can1 18EB0029#0161626364656667
(1682544057.810095) can1 18EB0006#18666768696A6B6C
(1682544057.810626) can1 18EB0020#0965666768696A6B
(1682544057.811167) can1 18EB000D#156B6C6D6E6F7071
(1682544057.811714) can1 18EB0017#1062636465666768
(1682544057.812301) can1 18EC002A#20F906FFFF2AFE00
(1682544057.812833) can1 18EB0001#1A7475767778797A
(1682544057.813370) can1 18EB000B#1672737475767778
(1682544057.813910) can1 18EB0018#0F75767778797A61
(1682544057.814457) can1 18EB0022#0878797A61626364
(1682544057.814983) can1 18EB0016#11696A6B6C6D6E6F
(1682544057.815548) can1 18EB0012#137778797A616263
(1682544057.816108) can1 18EB0014#1270717273747576
(1682544057.816618) can1 18EB001D#0B73747576777879
(1682544057.817163) can1 18EB0024#0771727374757677
(1682544057.817691) can1 18EB0007#18666768696A6B6C
(1682544057.818301) can1 18EB0010#146465666768696A
(1682544057.818818) can1 18EB001F#0A6C6D6E6F707172
(1682544057.819347) can1 18EB0002#1A7475767778797A
(1682544057.819896) can1 18EB000E#156B6C6D6E6F7071
(1682544057.820450) can1 18EB0027#0563646566676869
(1682544057.820973) can1 18EB0026#066A6B6C6D6E6F70
(1682544057.821539) can1 18EB000C#1672737475767778
(1682544057.822060) can1 18EB0005#196D6E6F70717273
(1682544057.822588) can1 18EB0021#0965666768696A6B
(1682544057.823220) can1 18EB000A#17797A6162636465
(1682544057.823673) can1 18EB0019#0E6E6F7071727374
(1682544057.824197) can1 18EB0023#0878797A61626364
(1682544057.824740) can1 18EB0008#18666768696A6B6C
(1682544057.825275) can1 18EB0003#1A7475767778797A
(1682544057.825816) can1 18EB001C#0C7A616263646566
(1682544057.826356) can1 18EB0015#1270717273747576
(1682544057.826925) can1 18EB0013#137778797A616263
(1682544057.827459) can1 18EB0011#146465666768696A
(1682544057.828003) can1 18EB001E#0B73747576777879
(1682544057.828548) can1 18EB0028#04767778797A6162
(1682544057.829091) can1 18EB000F#156B6C6D6E6F7071
(1682544057.829628) can1 18EB0025#0771727374757677
(1682544057.830173) can1 18EB0029#0268696A6B6C6D6E
(1682544057.830710) can1 18EB0006#196D6E6F70717273
(1682544057.831249) can1 18EB0020#0A6C6D6E6F707172
(1682544057.831796) can1 18EB000D#1672737475767778
(1682544057.832339) can1 18EB0022#0965666768696A6B
(1682544057.832882) can1 18EB0004#1A7475767778797A
(1682544057.833412) can1 18EB0009#18666768696A6B6C
(1682544057.833989) can1 18EC002C#20F906FFFF2CFE00
(1682544057.834517) can1 18EB001B#0D6768696A6B6C6D
(1682544057.835063) can1 18EB0016#1270717273747576
(1682544057.835667) can1 18EB0012#146465666768696A
(1682544057.836173) can1 18EB0014#137778797A616263
(1682544057.836707) can1 18EB001D#0C7A616263646566
(1682544057.837250) can1 18EB0024#0878797A61626364
(1682544057.837786) can1 18EB0007#196D6E6F70717273
(1682544057.838332) can1 18EB0010#156B6C6D6E6F7071
(1682544057.838875) can1 18EB001F#0B73747576777879
(1682544057.839409) can1 18EB0002#1B61626364656667
(1682544057.839954) can1 18EB000E#1672737475767778
(1682544057.840502) can1 18EB0027#066A6B6C6D6E6F70
(1682544057.841036) can1 18EB000C#17797A6162636465
(1682544057.841581) can1 18EB0005#1A7475767778797A
(1682544057.842118) can1 18EB0021#0A6C6D6E6F707172
(1682544057.842656) can1 18EB000A#18666768696A6B6C
(1682544057.843229) can1 18EB002B#0161626364656667
(1682544057.843749) can1 18EB001A#0E6E6F7071727374
(1682544057.844330) can1 18EB0019#0F75767778797A61
(1682544057.844867) can1 18EB0023#0965666768696A6B
(1682544057.845424) can1 18EB0008#196D6E6F70717273
(1682544057.845962) can1 18EB0003#1B61626364656667
(1682544057.846510) can1 18EB001C#0D6768696A6B6C6D
(1682544057.847085) can1 18EC002D#20F906FFFF2DFE00
(1682544057.847611) can1 18EB0015#137778797A616263
(1682544057.848151) can1 18EB0013#146465666768696A
(1682544057.848690) can1 18EB0011#156B6C6D6E6F7071
(1682544057.849232) can1 18EB001E#0C7A616263646566
(1682544057.849766) can1 18EB000D#17797A6162636465
(1682544057.850310) can1 18EB0017#1270717273747576
(1682544057.850846) can1 18EB002A#0268696A6B6C6D6E
(1682544057.851384) can1 18EB0001#1C68696A6B6C6D6E
(1682544057.851928) can1 18EB000B#18666768696A6B6C
(1682544057.852469) can1 18EB0018#11696A6B6C6D6E6F
(1682544057.853045) can1 18EB0022#0A6C6D6E6F707172
(1682544057.853587) can1 18EB0004#1B61626364656667
(1682544057.854153) can1 18EB0009#196D6E6F70717273
(1682544057.854671) can1 18EB002C#0161626364656667
(1682544057.855217) can1 18EB001B#0E6E6F7071727374
(1682544057.855767) can1 18EB0016#137778797A616263
(1682544057.856287) can1 18EB0012#156B6C6D6E6F7071
(1682544057.856872) can1 18EB0014#146465666768696A
(1682544057.857366) can1 18EB001D#0D6768696A6B6C6D
(1682544057.857906) can1 18EB0024#0965666768696A6B
(1682544057.858443) can1 18EB000E#17797A6162636465
(1682544057.859024) can1 18EC002E#20F906FFFF2EFE00
(1682544057.859556) can1 18EB0027#0771727374757677
(1682544057.860117) can1 18EB0026#0878797A61626364
(1682544057.860638) can1 18EB000C#18666768696A6B6C
(1682544057.861168) can1 18EB0005#1B61626364656667
(1682544057.861742) can1 18EB0021#0B73747576777879
(1682544057.862278) can1 18EB000A#196D6E6F70717273
(1682544057.862857) can1 18EB002B#0268696A6B6C6D6E
(1682544057.863348) can1 18EB001A#0F75767778797A61
(1682544057.863908) can1 18EB0019#1062636465666768
(1682544057.864431) can1 18EB0023#0A6C6D6E6F707172
(1682544057.864971) can1 18EB0008#1A7475767778797A
(1682544057.865511) can1 18EB0003#1C68696A6B6C6D6E
(1682544057.866064) can1 18EB001C#0E6E6F7071727374
(1682544057.866618) can1 18EB002D#0161626364656667
(1682544057.867149) can1 18EB001E#0D6768696A6B6C6D
(1682544057.867681) can1 18EB0028#066A6B6C6D6E6F70
(1682544057.868225) can1 18EB000F#17797A6162636465
(1682544057.868785) can1 18EB0025#0965666768696A6B
(1682544057.869309) can1 18EB0029#04767778797A6162
(1682544057.869847) can1 18EB0006#1B61626364656667
(1682544057.870475) can1 18EB0020#0C7A616263646566
(1682544057.870976) can1 18EB000D#18666768696A6B6C
(1682544057.871511) can1 18EB0017#137778797A616263
(1682544057.872140) can1 18EB002A#036F707172737475
(1682544057.872586) can1 18EB0001#1D6F707172737475
(1682544057.873162) can1 18EB000B#196D6E6F70717273
(1682544057.873672) can1 18EB0018#1270717273747576
(1682544057.874277) can1 18EC002F#20F906FFFF2FFE00
(1682544057.874783) can1 18EB0022#0B73747576777879
(1682544057.875333) can1 18EB0004#1C68696A6B6C6D6E
(1682544057.875870) can1 18EB0016#146465666768696A
(1682544057.876408) can1 18EB0012#1672737475767778
(1682544057.876952) can1 18EB0014#156B6C6D6E6F7071
(1682544057.877495) can1 18EB001D#0E6E6F7071727374
(1682544057.878039) can1 18EB0024#0A6C6D6E6F707172
(1682544057.878575) can1 18EB0007#1B61626364656667
(1682544057.879152) can1 18EB0010#17797A6162636465
(1682544057.879698) can1 18EB001F#0D6768696A6B6C6D
(1682544057.880261) can1 18EB0002#1D6F707172737475
(1682544057.880777) can1 18EB000E#18666768696A6B6C
(1682544057.881314) can1 18EB002E#0161626364656667
(1682544057.881865) can1 18EB0027#0878797A61626364
(1682544057.882387) can1 18EB0026#0965666768696A6B
(1682544057.882930) can1 18EB000C#196D6E6F70717273
(1682544057.883464) can1 18EB0005#1C68696A6B6C6D6E
(1682544057.884001) can1 18EB0021#0C7A616263646566
(1682544057.884595) can1 18EC0030#20F906FFFF30FE00
(1682544057.885130) can1 18EB0008#1B61626364656667
(1682544057.885671) can1 18EB0003#1D6F707172737475
(1682544057.886213) can1 18EB001C#0F75767778797A61
(1682544057.886754) can1 18EB002D#0268696A6B6C6D6E
(1682544057.887296) can1 18EB0015#156B6C6D6E6F7071
(1682544057.887869) can1 18EB0013#1672737475767778
(1682544057.888405) can1 18EB0011#17797A6162636465
(1682544057.888997) can1 18EB001E#0E6E6F7071727374
(1682544057.889489) can1 18EB0028#0771727374757677
(1682544057.890021) can1 18EB000F#18666768696A6B6C
(1682544057.890589) can1 18EB0025#0A6C6D6E6F707172
(1682544057.891107) can1 18EB0029#0563646566676869
(1682544057.891645) can1 18EB0006#1C68696A6B6C6D6E
(1682544057.892174) can1 18EB0020#0D6768696A6B6C6D
(1682544057.892719) can1 18EB000D#196D6E6F70717273
(1682544057.893266) can1 18EB0022#0C7A616263646566
(1682544057.893805) can1 18EB0004#1D6F707172737475
(1682544057.894354) can1 18EB0009#1B61626364656667
(1682544057.894894) can1 18EB002C#036F707172737475
(1682544057.895437) can1 18EB001B#1062636465666768
(1682544057.895979) can1 18EB0016#156B6C6D6E6F7071
(1682544057.896571) can1 18EB0012#17797A6162636465
(1682544057.897104) can1 18EB0014#1672737475767778
(1682544057.897641) can1 18EB001D#0F75767778797A61
(1682544057.898180) can1 18EB0024#0B73747576777879
(1682544057.898714) can1 18EB0007#1C68696A6B6C6D6E
(1682544057.899245) can1 18EB0010#18666768696A6B6C
(1682544057.899793) can1 18EB001F#0E6E6F7071727374
(1682544057.900332) can1 18EB0002#1E767778797A6162
(1682544057.900906) can1 18EC0031#20F906FFFF31FE00
(1682544057.901461) can1 18EB000E#196D6E6F70717273
(1682544057.901981) can1 18EB000A#1B61626364656667
(1682544057.902521) can1 18EB002B#04767778797A6162
(1682544057.903063) can1 18EB001A#11696A6B6C6D6E6F
(1682544057.903603) can1 18EB0019#1270717273747576
(1682544057.904137) can1 18EB0023#0C7A616263646566
(1682544057.904717) can1 18EB0030#0161626364656667
(1682544057.905330) can1 18EB0008#1C68696A6B6C6D6E
(1682544057.905913) can1 18EB0003#1E767778797A6162
(1682544057.906424) can1 18EB001C#1062636465666768
(1682544057.906971) can1 18EB002D#036F707172737475
(1682544057.907513) can1 18EB0015#1672737475767778
(1682544057.908121) can1 18EB0013#17797A6162636465
(1682544057.908577) can1 18EB0011#18666768696A6B6C
(1682544057.909117) can1 18EB001E#0F75767778797A61
(1682544057.909668) can1 18EB0028#0878797A61626364
(1682544057.910212) can1 18EB000F#196D6E6F70717273
(1682544057.910766) can1 18EB002A#0563646566676869
(1682544057.911293) can1 18EB0001#1F63646566676869
(1682544057.911830) can1 18EB000B#1B61626364656667
(1682544057.912404) can1 18EC0032#20F906FFFF32FE00
(1682544057.912947) can1 18EB0018#146465666768696A
(1682544057.913477) can1 18EB002F#0268696A6B6C6D6E
(1682544057.914051) can1 18EB0022#0D6768696A6B6C6D
(1682544057.914588) can1 18EB0004#1E767778797A6162
(1682544057.915132) can1 18EB0009#1C68696A6B6C6D6E
(1682544057.915670) can1 18EB002C#04767778797A6162
(1682544057.916208) can1 18EB001B#11696A6B6C6D6E6F
(1682544057.916752) can1 18EB0016#1672737475767778
(1682544057.917295) can1 18EB0012#18666768696A6B6C
(1682544057.917830) can1 18EB0014#17797A6162636465
(1682544057.918387) can1 18EB001D#1062636465666768
(1682544057.918922) can1 18EB0024#0C7A616263646566
(1682544057.919459) can1 18EB0027#0A6C6D6E6F707172
(1682544057.920010) can1 18EB0026#0B73747576777879
(1682544057.920552) can1 18EB000C#1B61626364656667
(1682544057.921111) can1 18EB0005#1E767778797A6162
(1682544057.921628) can1 18EB0021#0E6E6F7071727374
(1682544057.922169) can1 18EB000A#1C68696A6B6C6D6E
(1682544057.922750) can1 18EB002B#0563646566676869
(1682544057.923321) can1 18EC0033#20F906FFFF33FE00
(1682544057.923852) can1 18EB001A#1270717273747576
(1682544057.924392) can1 18EB0019#137778797A616263
(1682544057.924958) can1 18EB0023#0D6768696A6B6C6D
(1682544057.925470) can1 18EB0030#0268696A6B6C6D6E
(1682544057.926012) can1 18EB0008#1D6F707172737475
(1682544057.926554) can1 18EB0003#1F63646566676869
(1682544057.927109) can1 18EB001C#11696A6B6C6D6E6F
(1682544057.927645) can1 18EB002D#04767778797A6162
(1682544057.928172) can1 18EB000F#1A7475767778797A
(1682544057.928707) can1 18EB0025#0C7A616263646566
(1682544057.929241) can1 18EB0029#0771727374757677
(1682544057.929782) can1 18EB0006#1E767778797A6162
(1682544057.930320) can1 18EB0020#0F75767778797A61
(1682544057.930860) can1 18EB000D#1B61626364656667
(1682544057.931431) can1 18EB0017#1672737475767778
(1682544057.931968) can1 18EB002A#066A6B6C6D6E6F70
(1682544057.932516) can1 18EB0001#206A6B6C6D6E6F70
(1682544057.933052) can1 18EB000B#1C68696A6B6C6D6E
(1682544057.933590) can1 18EB0032#0161626364656667
(1682544057.934139) can1 18EB0018#156B6C6D6E6F7071
(1682544057.934688) can1 18EB002F#036F707172737475
(1682544057.935230) can1 18EB0022#0E6E6F7071727374
(1682544057.935775) can1 18EB0004#1F63646566676869
(1682544057.936310) can1 18EB0009#1D6F707172737475
(1682544057.936847) can1 18EB0007#1E767778797A6162
(1682544057.937389) can1 18EB0010#1A7475767778797A
(1682544057.937978) can1 18EB001F#1062636465666768
(1682544057.938640) can1 18EB0002#206A6B6C6D6E6F70
(1682544057.939062) can1 18EB0031#0268696A6B6C6D6E
(1682544057.940182) can1 18EB000E#1B61626364656667
(1682544057.940776) can1 18EB002E#04767778797A6162
(1682544057.941303) can1 18EB0027#0B73747576777879
(1682544057.941843) can1 18EB0026#0C7A616263646566
(1682544057.942384) can1 18EB000C#1C68696A6B6C6D6E
(1682544057.942927) can1 18EB0005#1F63646566676869
(1682544057.943463) can1 18EB0021#0F75767778797A61
(1682544057.944011) can1 18EB000A#1D6F707172737475
(1682544057.944535) can1 18EB002B#066A6B6C6D6E6F70
(1682544057.945069) can1 18EB0033#0161626364656667
(1682544057.945622) can1 18EB001A#137778797A616263
(1682544057.946154) can1 18EB002D#0563646566676869
(1682544057.946696) can1 18EB0015#18666768696A6B6C
(1682544057.947237) can1 18EB0013#196D6E6F70717273
(1682544057.947808) can1 18EB0011#1A7475767778797A
(1682544057.948311) can1 18EB001E#11696A6B6C6D6E6F
(1682544057.948866) can1 18EB0028#0A6C6D6E6F707172
(1682544057.949451) can1 18EB000F#1B61626364656667
(1682544057.949990) can1 18EB0025#0D6768696A6B6C6D
(1682544057.950529) can1 18EB0029#0878797A61626364
(1682544057.951064) can1 18EB0006#1F63646566676869
(1682544057.951616) can1 18EB0020#1062636465666768
(1682544057.952148) can1 18EB000D#1C68696A6B6C6D6E
(1682544057.952690) can1 18EB0017#17797A6162636465
(1682544057.953234) can1 18EB002A#0771727374757677
(1682544057.953784) can1 18EB0001#2171727374757677
(1682544057.954329) can1 18EB000B#1D6F707172737475
(1682544057.954891) can1 18EB001B#137778797A616263
(1682544057.955446) can1 18EC0034#20F906FFFF34FE00
(1682544057.956235) can1 18EB0016#18666768696A6B6C
(1682544057.956535) can1 18EB0012#1A7475767778797A
(1682544057.957057) can1 18EB0014#196D6E6F70717273
(1682544057.957605) can1 18EB001D#1270717273747576
(1682544057.958195) can1 18EB0024#0E6E6F7071727374
(1682544057.958768) can1 18EB0007#1F63646566676869
(1682544057.959273) can1 18EB0010#1B61626364656667
(1682544057.959817) can1 18EB001F#11696A6B6C6D6E6F
(1682544057.960381) can1 18EB0002#2171727374757677
(1682544057.960920) can1 18EB0031#036F707172737475
(1682544057.961451) can1 18EB000E#1C68696A6B6C6D6E
(1682544057.961999) can1 18EB002E#0563646566676869
(1682544057.962526) can1 18EB0027#0C7A616263646566
(1682544057.963084) can1 18EB0026#0D6768696A6B6C6D
(1682544057.963621) can1 18EB001A#146465666768696A
(1682544057.964134) can1 18EB0019#156B6C6D6E6F7071
(1682544057.964685) can1 18EB0023#0F75767778797A61
(1682544057.965223) can1 18EB0030#04767778797A6162
(1682544057.965773) can1 18EB0008#1F63646566676869
(1682544057.966306) can1 18EB0003#2171727374757677
(1682544057.966892) can1 18EB001C#137778797A616263
(1682544057.967433) can1 18EB002D#066A6B6C6D6E6F70
(1682544057.968018) can1 18EB0015#196D6E6F70717273
(1682544057.968511) can1 18EB0013#1A7475767778797A
(1682544057.969071) can1 18EB0011#1B61626364656667
(1682544057.969589) can1 18EB001E#1270717273747576
(1682544057.970141) can1 18EB0028#0B73747576777879
(1682544057.970683) can1 18EB000F#1C68696A6B6C6D6E
(1682544057.971215) can1 18EB0025#0E6E6F7071727374
(1682544057.971769) can1 18EB0029#0965666768696A6B
(1682544057.972286) can1 18EB002F#0563646566676869
(1682544057.972825) can1 18EB0022#1062636465666768
(1682544057.973368) can1 18EB0004#2171727374757677
(1682544057.973909) can1 18EB0009#1F63646566676869
(1682544057.974454) can1 18EB002C#0771727374757677
(1682544057.975009) can1 18EB001B#146465666768696A
(1682544057.975603) can1 18EB0034#0161626364656667
(1682544057.976130) can1 18EB0016#196D6E6F70717273
(1682544057.976680) can1 18EB0012#1B61626364656667
(1682544057.977223) can1 18EB0014#1A7475767778797A
(1682544057.977761) can1 18EB001D#137778797A616263
(1682544057.978294) can1 18EB0024#0F75767778797A61
(1682544057.978843) can1 18EB0007#206A6B6C6D6E6F70
(1682544057.979387) can1 18EB0010#1C68696A6B6C6D6E
(1682544057.979930) can1 18EB001F#1270717273747576
(1682544057.980500) can1 18EB0002#2278797A61626364
(1682544057.981009) can1 18EB000C#1E767778797A6162
(1682544057.981548) can1 18EB0005#2171727374757677
(1682544057.982088) can1 18EB0021#11696A6B6C6D6E6F
(1682544057.982642) can1 18EB000A#1F63646566676869
(1682544057.983231) can1 18EB002B#0878797A61626364
(1682544057.983762) can1 18EB0033#036F707172737475
(1682544057.984355) can1 18EB001A#156B6C6D6E6F7071
(1682544057.984882) can1 18EB0019#1672737475767778
(1682544057.985422) can1 18EB0023#1062636465666768
(1682544057.985962) can1 18EB0030#0563646566676869
(1682544057.986526) can1 18EB0008#206A6B6C6D6E6F70
(1682544057.987047) can1 18EB0003#2278797A61626364
(1682544057.987585) can1 18EB001C#146465666768696A
(1682544057.988170) can1 18EB002D#0771727374757677
(1682544057.988662) can1 18EB0015#1A7475767778797A
(1682544057.989328) can1 18EB0013#1B61626364656667
(1682544057.989743) can1 18EB0020#1270717273747576
(1682544057.990279) can1 18EB000D#1E767778797A6162
(1682544057.990824) can1 18EB0017#196D6E6F70717273
(1682544057.991362) can1 18EB002A#0965666768696A6B
(1682544057.991908) can1 18EB0001#2365666768696A6B
(1682544057.992459) can1 18EB000B#1F63646566676869
(1682544057.993043) can1 18EB0032#04767778797A6162
(1682544057.993607) can1 18EB0018#18666768696A6B6C
(1682544057.994119) can1 18EB002F#066A6B6C6D6E6F70
(1682544057.994684) can1 18EB0022#11696A6B6C6D6E6F
(1682544057.995203) can1 18EB0004#2278797A61626364
(1682544057.995752) can1 18EB0009#206A6B6C6D6E6F70
(1682544057.996324) can1 18EC0035#20F906FFFF35FE00
(1682544057.996867) can1 18EB002C#0878797A61626364
(1682544057.997420) can1 18EB001B#156B6C6D6E6F7071
(1682544057.997978) can1 18EB0034#0268696A6B6C6D6E
(1682544057.998498) can1 18EB0002#2365666768696A6B
(1682544057.999030) can1 18EB0031#0563646566676869
(1682544057.999574) can1 18EB000E#1E767778797A6162
(1682544058.000126) can1 18EB002E#0771727374757677
(1682544058.000648) can1 18EB0027#0E6E6F7071727374
(1682544058.001188) can1 18EB0026#0F75767778797A61
(1682544058.001769) can1 18EB000C#1F63646566676869
(1682544058.002304) can1 18EB0005#2278797A61626364
(1682544058.002863) can1 18EB0021#1270717273747576
(1682544058.003395) can1 18EB000A#206A6B6C6D6E6F70
(1682544058.003932) can1 18EB002B#0965666768696A6B
(1682544058.004488) can1 18EB0033#04767778797A6162
(1682544058.005019) can1 18EB001A#1672737475767778
(1682544058.005591) can1 18EB0019#17797A6162636465
(1682544058.006112) can1 18EB0023#11696A6B6C6D6E6F
(1682544058.006664) can1 18EB0030#066A6B6C6D6E6F70
(1682544058.007179) can1 18EB0013#1C68696A6B6C6D6E
(1682544058.007718) can1 18EB0011#1D6F707172737475
(1682544058.008241) can1 18EB001E#146465666768696A
(1682544058.008824) can1 18EB0028#0D6768696A6B6C6D
(1682544058.009325) can1 18EB000F#1E767778797A6162
(1682544058.009895) can1 18EB0025#1062636465666768
(1682544058.010463) can1 18EB0029#0B73747576777879
(1682544058.011003) can1 18EB0006#2278797A61626364
(1682544058.011543) can1 18EB0020#137778797A616263
(1682544058.012113) can1 18EB000D#1F63646566676869
(1682544058.012615) can1 18EB0017#1A7475767778797A
(1682544058.013156) can1 18EB002A#0A6C6D6E6F707172
(1682544058.013724) can1 18EB0001#246C6D6E6F707172
(1682544058.014243) can1 18EB000B#206A6B6C6D6E6F70
(1682544058.014802) can1 18EB0032#0563646566676869
(1682544058.015316) can1 18EB0018#196D6E6F70717273
(1682544058.015860) can1 18EB0016#1B61626364656667
(1682544058.016396) can1 18EB0012#1D6F707172737475
(1682544058.016933) can1 18EB0014#1C68696A6B6C6D6E
(1682544058.017472) can1 18EB001D#156B6C6D6E6F7071
(1682544058.018023) can1 18EB0024#11696A6B6C6D6E6F
(1682544058.018564) can1 18EB0007#2278797A61626364
(1682544058.019144) can1 18EB0010#1E767778797A6162
(1682544058.019687) can1 18EB001F#146465666768696A
(1682544058.020226) can1 18EB0002#246C6D6E6F707172
(1682544058.020764) can1 18EB0031#066A6B6C6D6E6F70
(1682544058.021313) can1 18EB000E#1F63646566676869
(1682544058.021837) can1 18EB002E#0878797A61626364
(1682544058.022373) can1 18EB0027#0F75767778797A61
(1682544058.022930) can1 18EB0026#1062636465666768
(1682544058.023466) can1 18EB000C#206A6B6C6D6E6F70
(1682544058.024007) can1 18EB0005#2365666768696A6B
(1682544058.024574) can1 18EC0036#20F906FFFF36FE00
(1682544058.025117) can1 18EB0019#18666768696A6B6C
(1682544058.025654) can1 18EB0023#1270717273747576
(1682544058.026232) can1 18EB0030#0771727374757677
(1682544058.026730) can1 18EB0008#2278797A61626364
(1682544058.027271) can1 18EB0003#246C6D6E6F707172
(1682544058.027847) can1 18EB001C#1672737475767778
(1682544058.028380) can1 18EB002D#0965666768696A6B
(1682544058.028919) can1 18EB0015#1C68696A6B6C6D6E
(1682544058.029474) can1 18EB0013#1D6F707172737475
(1682544058.030003) can1 18EB0011#1E767778797A6162
(1682544058.030545) can1 18EB001E#156B6C6D6E6F7071
(1682544058.031092) can1 18EB0028#0E6E6F7071727374
(1682544058.031634) can1 18EB000F#1F63646566676869
(1682544058.032175) can1 18EB0025#11696A6B6C6D6E6F
(1682544058.032723) can1 18EB0029#0C7A616263646566
(1682544058.033264) can1 18EB0022#137778797A616263
(1682544058.033828) can1 18EB0004#246C6D6E6F707172
(1682544058.034352) can1 18EB0009#2278797A61626364
(1682544058.034913) can1 18EB0035#0268696A6B6C6D6E
(1682544058.035460) can1 18EB002C#0A6C6D6E6F707172
(1682544058.035973) can1 18EB001B#17797A6162636465
(1682544058.036555) can1 18EB0034#04767778797A6162
(1682544058.037131) can1 18EB0016#1C68696A6B6C6D6E
(1682544058.037623) can1 18EB0012#1E767778797A6162
(1682544058.038225) can1 18EB0014#1D6F707172737475
(1682544058.038703) can1 18EB001D#1672737475767778
(1682544058.039248) can1 18EB0024#1270717273747576
(1682544058.039786) can1 18EB0007#2365666768696A6B
(1682544058.040332) can1 18EB0010#1F63646566676869
(1682544058.040908) can1 18EC0037#20F906FFFF37FE00
(1682544058.041458) can1 18EB001F#156B6C6D6E6F7071
(1682544058.042000) can1 18EB000C#2171727374757677
(1682544058.042546) can1 18EB0005#246C6D6E6F707172
(1682544058.043086) can1 18EB0021#146465666768696A
(1682544058.043625) can1 18EB000A#2278797A61626364
(1682544058.044163) can1 18EB002B#0B73747576777879
(1682544058.044705) can1 18EB0033#066A6B6C6D6E6F70
(1682544058.045402) can1 18EB001A#18666768696A6B6C
(1682544058.045848) can1 18EB0036#0161626364656667
(1682544058.046371) can1 18EB0019#196D6E6F70717273
(1682544058.046912) can1 18EB0023#137778797A616263
(1682544058.047467) can1 18EB0030#0878797A61626364
(1682544058.048001) can1 18EB0008#2365666768696A6B
(1682544058.048536) can1 18EB0003#2573747576777879
(1682544058.049073) can1 18EB001C#17797A6162636465
(1682544058.049610) can1 18EB002D#0A6C6D6E6F707172
(1682544058.050162) can1 18EB0015#1D6F707172737475
(1682544058.050694) can1 18EB002A#0C7A616263646566
(1682544058.051229) can1 18EB0001#267A616263646566
(1682544058.051781) can1 18EB000B#2278797A61626364
(1682544058.052299) can1 18EB0032#0771727374757677
(1682544058.052838) can1 18EB0018#1B61626364656667
(1682544058.053374) can1 18EB002F#0965666768696A6B
(1682544058.053956) can1 18EB0022#146465666768696A
(1682544058.054483) can1 18EB0004#2573747576777879
(1682544058.055035) can1 18EB0009#2365666768696A6B
(1682544058.055560) can1 18EB0035#036F707172737475
(1682544058.056100) can1 18EB002C#0B73747576777879
(1682544058.056639) can1 18EB001B#18666768696A6B6C
(1682544058.057195) can1 18EB0034#0563646566676869
(1682544058.057727) can1 18EB0016#1D6F707172737475
(1682544058.058291) can1 18EB0012#1F63646566676869
(1682544058.058821) can1 18EB0014#1E767778797A6162
(1682544058.059374) can1 18EB0031#0878797A61626364
(1682544058.059915) can1 18EB000E#2171727374757677
(1682544058.060427) can1 18EB002E#0A6C6D6E6F707172
(1682544058.060971) can1 18EB0027#11696A6B6C6D6E6F
(1682544058.061511) can1 18EB0026#1270717273747576
(1682544058.062052) can1 18EB000C#2278797A61626364
(1682544058.062624) can1 18EB0005#2573747576777879
(1682544058.063169) can1 18EB0021#156B6C6D6E6F7071
(1682544058.063733) can1 18EC0039#20F906FFFF39FE00
(1682544058.064272) can1 18EB000A#2365666768696A6B
(1682544058.064809) can1 18EB002B#0C7A616263646566
(1682544058.065366) can1 18EB0033#0771727374757677
(1682544058.065886) can1 18EB001A#196D6E6F70717273
(1682544058.066432) can1 18EB0036#0268696A6B6C6D6E
(1682544058.066965) can1 18EB0019#1A7475767778797A
(1682544058.067509) can1 18EB0023#146465666768696A
(1682544058.068104) can1 18EB0028#1062636465666768
(1682544058.068589) can1 18EB000F#2171727374757677
(1682544058.069126) can1 18EB0025#137778797A616263
(1682544058.069710) can1 18EB0029#0E6E6F7071727374
(1682544058.070232) can1 18EB0006#2573747576777879
(1682544058.070762) can1 18EB0020#1672737475767778
(1682544058.071349) can1 18EB000D#2278797A61626364
(1682544058.071896) can1 18EB0017#1D6F707172737475
(1682544058.072437) can1 18EB0038#0161626364656667
(1682544058.072998) can1 18EB002A#0D6768696A6B6C6D
(1682544058.073547) can1 18EB0001#276768696A6B6C6D
(1682544058.074063) can1 18EB000B#2365666768696A6B
(1682544058.074609) can1 18EB0032#0878797A61626364
(1682544058.075147) can1 18EB0018#1C68696A6B6C6D6E
(1682544058.075694) can1 18EB002F#0A6C6D6E6F707172
(1682544058.076230) can1 18EB0022#156B6C6D6E6F7071
(1682544058.076767) can1 18EB0016#1E767778797A6162
(1682544058.077308) can1 18EB0012#206A6B6C6D6E6F70
(1682544058.077853) can1 18EB0014#1F63646566676869
(1682544058.078389) can1 18EB001D#18666768696A6B6C
(1682544058.078950) can1 18EB0024#146465666768696A
(1682544058.079469) can1 18EB0007#2573747576777879
(1682544058.080131) can1 18EB0010#2171727374757677
(1682544058.080589) can1 18EB0037#0268696A6B6C6D6E
(1682544058.081125) can1 18EB001F#17797A6162636465
(1682544058.081668) can1 18EB0002#276768696A6B6C6D
(1682544058.082216) can1 18EB0031#0965666768696A6B
(1682544058.082748) can1 18EB000E#2278797A61626364
(1682544058.083284) can1 18EB002E#0B73747576777879
(1682544058.083828) can1 18EB0027#1270717273747576
(1682544058.084363) can1 18EB0026#137778797A616263
(1682544058.084904) can1 18EB000C#2365666768696A6B
(1682544058.085491) can1 18EB0030#0A6C6D6E6F707172
(1682544058.085983) can1 18EB0008#2573747576777879
(1682544058.086559) can1 18EB0003#276768696A6B6C6D
(1682544058.087069) can1 18EB001C#196D6E6F70717273
(1682544058.087610) can1 18EB002D#0C7A616263646566
(1682544058.088139) can1 18EB0015#1F63646566676869
(1682544058.088779) can1 18EC003B#20F906FFFF3BFE00
(1682544058.089298) can1 18EB0013#206A6B6C6D6E6F70
(1682544058.089837) can1 18EB0011#2171727374757677
(1682544058.090383) can1 18EB001E#18666768696A6B6C
(1682544058.090921) can1 18EB0028#11696A6B6C6D6E6F
(1682544058.091456) can1 18EB000F#2278797A61626364
(1682544058.091998) can1 18EB0025#146465666768696A
(1682544058.092539) can1 18EB0029#0F75767778797A61
(1682544058.093090) can1 18EB0006#267A616263646566
(1682544058.093631) can1 18EB0020#17797A6162636465
(1682544058.094157) can1 18EB0022#1672737475767778
(1682544058.094706) can1 18EB0004#276768696A6B6C6D
(1682544058.095256) can1 18EB0009#2573747576777879
(1682544058.095779) can1 18EB0035#0563646566676869
(1682544058.096317) can1 18EB002C#0D6768696A6B6C6D
(1682544058.096859) can1 18EB003A#0161626364656667
(1682544058.097472) can1 18EB001B#1A7475767778797A
(1682544058.098005) can1 18EB0034#0771727374757677
(1682544058.098545) can1 18EB0016#1F63646566676869
(1682544058.099094) can1 18EB0012#2171727374757677
(1682544058.099665) can1 18EB0014#206A6B6C6D6E6F70
(1682544058.100182) can1 18EB001D#196D6E6F70717273
(1682544058.100712) can1 18EB0024#156B6C6D6E6F7071
(1682544058.101247) can1 18EB0007#267A616263646566
(1682544058.101895) can1 18EB0010#2278797A61626364
(1682544058.102330) can1 18EB0037#036F707172737475
(1682544058.102869) can1 18EB000A#2573747576777879
(1682544058.103408) can1 18EB002B#0E6E6F7071727374
(1682544058.103943) can1 18EB0033#0965666768696A6B
(1682544058.104490) can1 18EB001A#1B61626364656667
(1682544058.105019) can1 18EB0036#04767778797A6162
(1682544058.105553) can1 18EB0019#1C68696A6B6C6D6E
(1682544058.106121) can1 18EB0023#1672737475767778
(1682544058.106668) can1 18EB0030#0B73747576777879
(1682544058.107207) can1 18EB0008#267A616263646566
(1682544058.107758) can1 18EB0003#286E6F7071727374
(1682544058.108290) can1 18EB001C#1A7475767778797A
(1682544058.108840) can1 18EB002D#0D6768696A6B6C6D
(1682544058.109371) can1 18EB0015#206A6B6C6D6E6F70
(1682544058.109929) can1 18EB003B#0161626364656667
(1682544058.110459) can1 18EB0013#2171727374757677
(1682544058.110999) can1 18EB0011#2278797A61626364
(1682544058.111540) can1 18EB000B#2573747576777879
(1682544058.112125) can1 18EB0032#0A6C6D6E6F707172
(1682544058.112669) can1 18EC003D#20F906FFFF3DFE00
(1682544058.113197) can1 18EB0018#1E767778797A6162
(1682544058.113726) can1 18EB002F#0C7A616263646566
(1682544058.114249) can1 18EB0022#17797A6162636465
(1682544058.114834) can1 18EB0004#286E6F7071727374
(1682544058.115363) can1 18EB0009#267A616263646566
(1682544058.115910) can1 18EB0035#066A6B6C6D6E6F70
(1682544058.116453) can1 18EB002C#0E6E6F7071727374
(1682544058.116990) can1 18EB003A#0268696A6B6C6D6E
(1682544058.117528) can1 18EB001B#1B61626364656667
(1682544058.118078) can1 18EB0034#0878797A61626364
(1682544058.118620) can1 18EB0016#206A6B6C6D6E6F70
(1682544058.119178) can1 18EB0012#2278797A61626364
(1682544058.119728) can1 18EB0014#2171727374757677
(1682544058.120240) can1 18EB0027#146465666768696A
(1682544058.120790) can1 18EB0026#156B6C6D6E6F7071
(1682544058.121329) can1 18EB000C#2573747576777879
(1682544058.121900) can1 18EB0005#286E6F7071727374
(1682544058.122409) can1 18EB0021#18666768696A6B6C
(1682544058.122944) can1 18EB0039#036F707172737475
(1682544058.123528) can1 18EB000A#267A616263646566
(1682544058.124169) can1 18EB002B#0F75767778797A61
(1682544058.124605) can1 18EB0033#0A6C6D6E6F707172
(1682544058.125147) can1 18EB001A#1C68696A6B6C6D6E
(1682544058.125721) can1 18EC003E#20F906FFFF3EFE00
(1682544058.126263) can1 18EB0036#0563646566676869
(1682544058.126804) can1 18EB0019#1D6F707172737475
(1682544058.127347) can1 18EB0023#17797A6162636465
(1682544058.127889) can1 18EB0030#0C7A616263646566
(1682544058.128431) can1 18EB0008#276768696A6B6C6D
(1682544058.128980) can1 18EB000F#246C6D6E6F707172
(1682544058.129509) can1 18EB0025#1672737475767778
(1682544058.130044) can1 18EB0029#11696A6B6C6D6E6F
(1682544058.130588) can1 18EB0006#286E6F7071727374
(1682544058.131136) can1 18EB0020#196D6E6F70717273
(1682544058.131690) can1 18EB000D#2573747576777879
(1682544058.132324) can1 18EB0017#206A6B6C6D6E6F70
(1682544058.132853) can1 18EB0038#04767778797A6162
(1682544058.133393) can1 18EB002A#1062636465666768
(1682544058.133987) can1 18EB0001#2A62636465666768
(1682544058.134491) can1 18EB000B#267A616263646566
(1682544058.135025) can1 18EB0032#0B73747576777879
(1682544058.135562) can1 18EB003D#0161626364656667
(1682544058.136146) can1 18EB0018#1F63646566676869
(1682544058.136729) can1 18EB002F#0D6768696A6B6C6D
(1682544058.137226) can1 18EB0022#18666768696A6B6C
(1682544058.137739) can1 18EB0016#2171727374757677
(1682544058.138254) can1 18EB0012#2365666768696A6B
(1682544058.138790) can1 18EB0014#2278797A61626364
(1682544058.139325) can1 18EB001D#1B61626364656667
(1682544058.139869) can1 18EB0024#17797A6162636465
(1682544058.140411) can1 18EB0007#286E6F7071727374
(1682544058.140988) can1 18EB0010#246C6D6E6F707172
(1682544058.141528) can1 18EB0037#0563646566676869
(1682544058.142068) can1 18EB001F#1A7475767778797A
(1682544058.142608) can1 18EB0002#2A62636465666768
(1682544058.143144) can1 18EB0031#0C7A616263646566
(1682544058.143697) can1 18EB003C#0268696A6B6C6D6E
(1682544058.144226) can1 18EB000E#2573747576777879
(1682544058.144770) can1 18EB002E#0E6E6F7071727374
(1682544058.145322) can1 18EB0027#156B6C6D6E6F7071
(1682544058.145859) can1 18EB0026#1672737475767778
(1682544058.146432) can1 18EB002D#0F75767778797A61
(1682544058.146977) can1 18EB0015#2278797A61626364
(1682544058.147480) can1 18EB003B#036F707172737475
(1682544058.148020) can1 18EB0013#2365666768696A6B
(1682544058.148612) can1 18EB0011#246C6D6E6F707172
(1682544058.149125) can1 18EB001E#1B61626364656667
(1682544058.149790) can1 18EB0028#146465666768696A
(1682544058.150345) can1 18EC0040#20F906FFFF40FE00
(1682544058.150886) can1 18EB000F#2573747576777879
(1682544058.151418) can1 18EB0025#17797A6162636465
(1682544058.151969) can1 18EB0029#1270717273747576
(1682544058.152496) can1 18EB0006#2975767778797A61
(1682544058.153040) can1 18EB0020#1A7475767778797A
(1682544058.153586) can1 18EB000D#267A616263646566
(1682544058.154120) can1 18EB0017#2171727374757677
(1682544058.154662) can1 18EB0038#0563646566676869
(1682544058.155198) can1 18EB003A#04767778797A6162
(1682544058.155735) can1 18EB001B#1D6F707172737475
(1682544058.156281) can1 18EB0034#0A6C6D6E6F707172
(1682544058.156825) can1 18EB003F#0161626364656667
(1682544058.157360) can1 18EB0016#2278797A61626364
(1682544058.157900) can1 18EB0012#246C6D6E6F707172
(1682544058.158504) can1 18EB0014#2365666768696A6B
(1682544058.159012) can1 18EB001D#1C68696A6B6C6D6E
(1682544058.159548) can1 18EB0024#18666768696A6B6C
(1682544058.160091) can1 18EB0007#2975767778797A61
(1682544058.160628) can1 18EB0010#2573747576777879
(1682544058.161163) can1 18EB0037#066A6B6C6D6E6F70
(1682544058.161714) can1 18EB001F#1B61626364656667
(1682544058.162253) can1 18EB0002#2B696A6B6C6D6E6F
(1682544058.162806) can1 18EB0031#0D6768696A6B6C6D
(1682544058.163346) can1 18EB003C#036F707172737475
(1682544058.163888) can1 18EB001A#1E767778797A6162
(1682544058.164413) can1 18EB003E#0268696A6B6C6D6E
(1682544058.164955) can1 18EB0036#0771727374757677
(1682544058.165644) can1 18EB0019#1F63646566676869
(1682544058.166071) can1 18EB0023#196D6E6F70717273
(1682544058.166582) can1 18EB0030#0E6E6F7071727374
(1682544058.168206) can1 18EB0008#2975767778797A61
(1682544058.168211) can1 18EB0003#2B696A6B6C6D6E6F
(1682544058.168276) can1 18EB001C#1D6F707172737475
(1682544058.168791) can1 18EB002D#1062636465666768
(1682544058.169329) can1 18EB0015#2365666768696A6B
(1682544058.169861) can1 18EB003B#04767778797A6162
(1682544058.170404) can1 18EB0013#246C6D6E6F707172
(1682544058.170948) can1 18EB0011#2573747576777879
(1682544058.171478) can1 18EB001E#1C68696A6B6C6D6E
(1682544058.172130) can1 18EB0028#156B6C6D6E6F7071
(1682544058.172559) can1 18EB002F#0F75767778797A61
(1682544058.173098) can1 18EB0022#1A7475767778797A
(1682544058.173644) can1 18EB0004#2B696A6B6C6D6E6F
(1682544058.174175) can1 18EB0009#2975767778797A61
(1682544058.174724) can1 18EB0035#0965666768696A6B
(1682544058.175262) can1 18EB002C#11696A6B6C6D6E6F
(1682544058.175847) can1 18EB003A#0563646566676869
(1682544058.176380) can1 18EB001B#1E767778797A6162
(1682544058.176923) can1 18EB0034#0B73747576777879
(1682544058.177469) can1 18EB003F#0268696A6B6C6D6E
(1682544058.178008) can1 18EB0016#2365666768696A6B
(1682544058.178570) can1 18EB0012#2573747576777879
(1682544058.179105) can1 18EB0014#246C6D6E6F707172
(1682544058.179643) can1 18EB001D#1D6F707172737475
(1682544058.180179) can1 18EB0024#196D6E6F70717273
(1682544058.180725) can1 18EB0007#2A62636465666768
(1682544058.181254) can1 18EB0027#17797A6162636465
(1682544058.181800) can1 18EB0026#18666768696A6B6C
(1682544058.182340) can1 18EB000C#286E6F7071727374
(1682544058.182975) can1 18EB0005#2B696A6B6C6D6E6F
(1682544058.183408) can1 18EB0021#1B61626364656667
(1682544058.183942) can1 18EB0039#066A6B6C6D6E6F70
(1682544058.184518) can1 18EB000A#2975767778797A61
(1682544058.185060) can1 18EB002B#1270717273747576
(1682544058.185603) can1 18EB0033#0D6768696A6B6C6D
(1682544058.186155) can1 18EB001A#1F63646566676869
(1682544058.186679) can1 18EB003E#036F707172737475
(1682544058.187216) can1 18EB0036#0878797A61626364
(1682544058.187775) can1 18EB0019#206A6B6C6D6E6F70
(1682544058.188308) can1 18EB0023#1A7475767778797A
(1682544058.188853) can1 18EB0030#0F75767778797A61
(1682544058.189441) can1 18EB0008#2A62636465666768
(1682544058.189939) can1 18EB0006#2B696A6B6C6D6E6F
(1682544058.190496) can1 18EB0020#1C68696A6B6C6D6E
(1682544058.191036) can1 18EB000D#286E6F7071727374
(1682544058.191569) can1 18EB0017#2365666768696A6B
(1682544058.192143) can1 18EB0038#0771727374757677
(1682544058.192654) can1 18EB002A#137778797A616263
(1682544058.193244) can1 18EB0001#2D7778797A616263
(1682544058.193780) can1 18EB000B#2975767778797A61
(1682544058.194327) can1 18EB0032#0E6E6F7071727374
(1682544058.194860) can1 18EB003D#04767778797A6162
(1682544058.195411) can1 18EB0018#2278797A61626364
(1682544058.195950) can1 18EB002F#1062636465666768
(1682544058.196493) can1 18EB0022#1B61626364656667
(1682544058.197033) can1 18EB0004#2C70717273747576
(1682544058.197582) can1 18EB0009#2A62636465666768
(1682544058.198118) can1 18EB0035#0A6C6D6E6F707172
(1682544058.198659) can1 18EB001F#1D6F707172737475
(1682544058.199201) can1 18EB0002#2D7778797A616263
(1682544058.199739) can1 18EB0031#0F75767778797A61
(1682544058.200283) can1 18EB003C#0563646566676869
(1682544058.200828) can1 18EB000E#286E6F7071727374
(1682544058.201359) can1 18EB002E#11696A6B6C6D6E6F
(1682544058.201955) can1 18EB0041#0161626364656667
(1682544058.202487) can1 18EB0027#18666768696A6B6C
(1682544058.203021) can1 18EB0026#196D6E6F70717273
(1682544058.203594) can1 18EB000C#2975767778797A61
(1682544058.204126) can1 18EB0005#2C70717273747576
(1682544058.204653) can1 18EB0021#1C68696A6B6C6D6E
(1682544058.205179) can1 18EB0039#0771727374757677
(1682544058.205748) can1 18EB000A#2A62636465666768
(1682544058.206261) can1 18EB002B#137778797A616263
(1682544058.206798) can1 18EB0033#0E6E6F7071727374
(1682544058.207345) can1 18EB003B#066A6B6C6D6E6F70
(1682544058.207890) can1 18EB0013#267A616263646566
(1682544058.208433) can1 18EB0011#276768696A6B6C6D
(1682544058.208960) can1 18EB001E#1E767778797A6162
(1682544058.209513) can1 18EB0028#17797A6162636465
(1682544058.210048) can1 18EB0040#036F707172737475
(1682544058.210630) can1 18EB000F#286E6F7071727374
(1682544058.211161) can1 18EB0025#1A7475767778797A
(1682544058.211699) can1 18EB0029#156B6C6D6E6F7071
(1682544058.212236) can1 18EB0006#2C70717273747576
(1682544058.212788) can1 18EB0020#1D6F707172737475
(1682544058.213334) can1 18EB000D#2975767778797A61
(1682544058.213876) can1 18EB0017#246C6D6E6F707172
(1682544058.214415) can1 18EB0038#0878797A61626364
(1682544058.214945) can1 18EB002A#146465666768696A
(1682544058.215490) can1 18EB0001#2E6465666768696A
(1682544058.216119) can1 18EB003F#04767778797A6162
(1682544058.216566) can1 18EB0016#2573747576777879
(1682544058.217092) can1 18EB0012#276768696A6B6C6D
(1682544058.217634) can1 18EB0014#267A616263646566
(1682544058.218192) can1 18EB001D#1F63646566676869
(1682544058.218724) can1 18EB0024#1B61626364656667
(1682544058.219314) can1 18EB0007#2C70717273747576
(1682544058.219853) can1 18EB0010#286E6F7071727374
(1682544058.220389) can1 18EB0037#0965666768696A6B
(1682544058.220935) can1 18EB001F#1E767778797A6162
(1682544058.221471) can1 18EB0002#2E6465666768696A
(1682544058.222018) can1 18EB0031#1062636465666768
(1682544058.222561) can1 18EB003C#066A6B6C6D6E6F70
(1682544058.223093) can1 18EB000E#2975767778797A61
(1682544058.223662) can1 18EB002E#1270717273747576
(1682544058.224178) can1 18EB0041#0268696A6B6C6D6E
(1682544058.224716) can1 18EB003E#0563646566676869
(1682544058.225258) can1 18EB0036#0A6C6D6E6F707172
(1682544058.225801) can1 18EB0019#2278797A61626364
(1682544058.226328) can1 18EB0023#1C68696A6B6C6D6E
(1682544058.226878) can1 18EB0030#11696A6B6C6D6E6F
(1682544058.227418) can1 18EB0008#2C70717273747576
(1682544058.228003) can1 18EB0003#2E6465666768696A
(1682544058.228544) can1 18EB001C#206A6B6C6D6E6F70
(1682544058.229077) can1 18EB002D#137778797A616263
(1682544058.229623) can1 18EB0015#267A616263646566
(1682544058.230150) can1 18EB003B#0771727374757677
(1682544058.230698) can1 18EB0013#276768696A6B6C6D
(1682544058.231235) can1 18EB0011#286E6F7071727374
(1682544058.231773) can1 18EB001E#1F63646566676869
(1682544058.232312) can1 18EB0028#18666768696A6B6C
(1682544058.232849) can1 18EB0040#04767778797A6162
(1682544058.233397) can1 18EB0022#1D6F707172737475
(1682544058.233942) can1 18EB0004#2E6465666768696A
(1682544058.234478) can1 18EB0009#2C70717273747576
(1682544058.235018) can1 18EB0035#0C7A616263646566
(1682544058.235550) can1 18EB002C#146465666768696A
(1682544058.236133) can1 18EB003A#0878797A61626364
(1682544058.236718) can1 18EB001B#2171727374757677
(1682544058.237262) can1 18EB0034#0E6E6F7071727374
(1682544058.237814) can1 18EB003F#0563646566676869
(1682544058.238348) can1 18EB0016#267A616263646566
(1682544058.238882) can1 18EB0012#286E6F7071727374
(1682544058.239425) can1 18EB0014#276768696A6B6C6D
(1682544058.239976) can1 18EB001D#206A6B6C6D6E6F70
(1682544058.240512) can1 18EB0024#1C68696A6B6C6D6E
(1682544058.241046) can1 18EB0007#2D7778797A616263
(1682544058.241586) can1 18EB0010#2975767778797A61
(1682544058.242140) can1 18EB000C#2B696A6B6C6D6E6F
(1682544058.242671) can1 18EB0005#2E6465666768696A
(1682544058.243204) can1 18EB0021#1E767778797A6162
(1682544058.243742) can1 18EB0039#0965666768696A6B
(1682544058.244285) can1 18EB000A#2C70717273747576
(1682544058.244821) can1 18EB002B#156B6C6D6E6F7071
(1682544058.245393) can1 18EB0033#1062636465666768
(1682544058.245935) can1 18EB0042#0161626364656667
(1682544058.246469) can1 18EB001A#2278797A61626364
(1682544058.247023) can1 18EB003E#066A6B6C6D6E6F70
(1682544058.247559) can1 18EB0036#0B73747576777879
(1682544058.248138) can1 18EB0019#2365666768696A6B
(1682544058.248641) can1 18EB0023#1D6F707172737475
(1682544058.249239) can1 18EB0030#1270717273747576
(1682544058.249727) can1 18EB0008#2D7778797A616263
(1682544058.250303) can1 18EB0003#2F6B6C6D6E6F7071
(1682544058.250826) can1 18EB0020#1F63646566676869
(1682544058.251364) can1 18EB000D#2B696A6B6C6D6E6F
(1682544058.251900) can1 18EB0017#267A616263646566
(1682544058.252444) can1 18EB0038#0A6C6D6E6F707172
(1682544058.252970) can1 18EB002A#1672737475767778
(1682544058.253520) can1 18EB0001#3072737475767778
(1682544058.254104) can1 18EB000B#2C70717273747576
(1682544058.254639) can1 18EB0032#11696A6B6C6D6E6F
(1682544058.255211) can1 18EC0043#20F906FFFF43FE00
(1682544058.255776) can1 18EB003D#0771727374757677
(1682544058.256296) can1 18EB0018#2573747576777879
(1682544058.256832) can1 18EB002F#137778797A616263
(1682544058.257368) can1 18EB0022#1E767778797A6162
(1682544058.257914) can1 18EB0004#2F6B6C6D6E6F7071
(1682544058.258454) can1 18EB0009#2D7778797A616263
(1682544058.258995) can1 18EB0035#0D6768696A6B6C6D
(1682544058.259540) can1 18EB0002#3072737475767778
(1682544058.260126) can1 18EB0031#1270717273747576
(1682544058.260622) can1 18EB003C#0878797A61626364
(1682544058.261157) can1 18EB000E#2B696A6B6C6D6E6F
(1682544058.261702) can1 18EB002E#146465666768696A
(1682544058.262243) can1 18EB0041#04767778797A6162
(1682544058.262821) can1 18EB0027#1B61626364656667
(1682544058.263359) can1 18EB0026#1C68696A6B6C6D6E
(1682544058.263904) can1 18EB000C#2C70717273747576
(1682544058.264444) can1 18EB0005#2F6B6C6D6E6F7071
(1682544058.264986) can1 18EB0021#1F63646566676869
(1682544058.265523) can1 18EB0039#0A6C6D6E6F707172
(1682544058.266080) can1 18EB000A#2D7778797A616263
(1682544058.266594) can1 18EB002B#1672737475767778
(1682544058.267133) can1 18EB0033#11696A6B6C6D6E6F
(1682544058.267668) can1 18EB0042#0268696A6B6C6D6E
(1682544058.268207) can1 18EB003B#0965666768696A6B
(1682544058.268744) can1 18EB0013#2975767778797A61
(1682544058.269280) can1 18EB0011#2A62636465666768
(1682544058.269824) can1 18EB001E#2171727374757677
(1682544058.270370) can1 18EB0028#1A7475767778797A
(1682544058.270914) can1 18EB0040#066A6B6C6D6E6F70
(1682544058.271493) can1 18EB000F#2B696A6B6C6D6E6F
(1682544058.272101) can1 18EB0025#1D6F707172737475
(1682544058.272570) can1 18EB0029#18666768696A6B6C
(1682544058.273103) can1 18EB0006#2F6B6C6D6E6F7071
(1682544058.273662) can1 18EB0020#206A6B6C6D6E6F70
(1682544058.274222) can1 18EB000D#2C70717273747576
(1682544058.274775) can1 18EB0017#276768696A6B6C6D
(1682544058.275281) can1 18EB0038#0B73747576777879
(1682544058.275852) can1 18EB002A#17797A6162636465
(1682544058.276360) can1 18EB0001#31797A6162636465
(1682544058.276930) can1 18EC0045#20F906FFFF45FE00
(1682544058.277482) can1 18EB003F#0771727374757677
(1682544058.278009) can1 18EB0016#286E6F7071727374
(1682544058.278549) can1 18EB0012#2A62636465666768
(1682544058.279087) can1 18EB0014#2975767778797A61
(1682544058.279626) can1 18EB001D#2278797A61626364
(1682544058.280205) can1 18EB0024#1E767778797A6162
(1682544058.280754) can1 18EB0007#2F6B6C6D6E6F7071
(1682544058.281304) can1 18EB0010#2B696A6B6C6D6E6F
(1682544058.281839) can1 18EB0037#0C7A616263646566
(1682544058.282381) can1 18EB001F#2171727374757677
(1682544058.282915) can1 18EB0002#31797A6162636465
(1682544058.283458) can1 18EB0031#137778797A616263
(1682544058.284009) can1 18EB003C#0965666768696A6B
(1682544058.284675) can1 18EB000E#2C70717273747576
(1682544058.285100) can1 18EB002E#156B6C6D6E6F7071
(1682544058.285640) can1 18EB003E#0878797A61626364
(1682544058.286222) can1 18EB0036#0D6768696A6B6C6D
(1682544058.286717) can1 18EB0019#2573747576777879
(1682544058.287274) can1 18EB0023#1F63646566676869
(1682544058.287808) can1 18EB0030#146465666768696A
(1682544058.288350) can1 18EB0008#2F6B6C6D6E6F7071
(1682544058.288937) can1 18EB0003#31797A6162636465
(1682544058.289502) can1 18EB001C#2365666768696A6B
(1682544058.290015) can1 18EB002D#1672737475767778
(1682544058.290553) can1 18EB0015#2975767778797A61
(1682544058.291092) can1 18EB003B#0A6C6D6E6F707172
(1682544058.291625) can1 18EB0013#2A62636465666768
(1682544058.292169) can1 18EB0011#2B696A6B6C6D6E6F
(1682544058.292704) can1 18EB001E#2278797A61626364
(1682544058.293243) can1 18EB0028#1B61626364656667
(1682544058.293835) can1 18EC0046#20F906FFFF46FE00
(1682544058.294361) can1 18EB0022#206A6B6C6D6E6F70
(1682544058.294908) can1 18EB0004#31797A6162636465
(1682544058.295439) can1 18EB0009#2F6B6C6D6E6F7071
(1682544058.295975) can1 18EB0035#0F75767778797A61
(1682544058.296520) can1 18EB002C#17797A6162636465
(1682544058.297105) can1 18EB003A#0B73747576777879
(1682544058.297772) can1 18EB001B#246C6D6E6F707172
(1682544058.298310) can1 18EB0034#11696A6B6C6D6E6F
(1682544058.298878) can1 18EB0045#0161626364656667
(1682544058.299405) can1 18EB003F#0878797A61626364
(1682544058.299939) can1 18EB0016#2975767778797A61
(1682544058.300488) can1 18EB0012#2B696A6B6C6D6E6F
(1682544058.301029) can1 18EB0014#2A62636465666768
(1682544058.301558) can1 18EB001D#2365666768696A6B
(1682544058.302113) can1 18EB0024#1F63646566676869
(1682544058.302686) can1 18EB0007#3072737475767778
(1682544058.303183) can1 18EB000C#2E6465666768696A
(1682544058.303723) can1 18EB0005#31797A6162636465
(1682544058.304273) can1 18EB0021#2171727374757677
(1682544058.304794) can1 18EB0039#0C7A616263646566
(1682544058.305336) can1 18EB000A#2F6B6C6D6E6F7071
(1682544058.305876) can1 18EB002B#18666768696A6B6C
(1682544058.306442) can1 18EB0033#137778797A616263
(1682544058.306972) can1 18EB0042#04767778797A6162
(1682544058.307508) can1 18EB001A#2573747576777879
(1682544058.308090) can1 18EB0044#0268696A6B6C6D6E
(1682544058.308597) can1 18EB003E#0965666768696A6B
(1682544058.309146) can1 18EB0036#0E6E6F7071727374
(1682544058.309686) can1 18EB0019#267A616263646566
(1682544058.310238) can1 18EB0023#206A6B6C6D6E6F70
(1682544058.310783) can1 18EB0030#156B6C6D6E6F7071
(1682544058.311322) can1 18EB0008#3072737475767778
(1682544058.311857) can1 18EB002A#196D6E6F70717273
(1682544058.312406) can1 18EB0001#336D6E6F70717273
(1682544058.313017) can1 18EB000B#2F6B6C6D6E6F7071
(1682544058.313486) can1 18EB0032#146465666768696A
(1682544058.314024) can1 18EB0043#036F707172737475
(1682544058.314569) can1 18EB003D#0A6C6D6E6F707172
(1682544058.315158) can1 18EB0018#286E6F7071727374
(1682544058.315707) can1 18EB002F#1672737475767778
(1682544058.316274) can1 18EC0048#20F906FFFF48FE00
(1682544058.316808) can1 18EB0022#2171727374757677
(1682544058.317388) can1 18EB0004#32666768696A6B6C
(1682544058.317887) can1 18EB0009#3072737475767778
(1682544058.318432) can1 18EB0035#1062636465666768
(1682544058.318971) can1 18EB002C#18666768696A6B6C
(1682544058.319509) can1 18EB003A#0C7A616263646566
(1682544058.320083) can1 18EB001B#2573747576777879
(1682544058.320595) can1 18EB003C#0B73747576777879
(1682544058.321136) can1 18EB000E#2E6465666768696A
(1682544058.321678) can1 18EB002E#17797A6162636465
(1682544058.322217) can1 18EB0041#0771727374757677
(1682544058.322769) can1 18EB0027#1E767778797A6162
(1682544058.323286) can1 18EB0026#1F63646566676869
(1682544058.323876) can1 18EB0047#0161626364656667
(1682544058.324404) can1 18EB000C#2F6B6C6D6E6F7071
(1682544058.324946) can1 18EB0005#32666768696A6B6C
(1682544058.325478) can1 18EB0021#2278797A61626364
(1682544058.326025) can1 18EB0039#0D6768696A6B6C6D
(1682544058.326574) can1 18EB000A#3072737475767778
(1682544058.327103) can1 18EB002B#196D6E6F70717273
(1682544058.327634) can1 18EB0033#146465666768696A
(1682544058.328169) can1 18EB0042#0563646566676869
(1682544058.328716) can1 18EB001A#267A616263646566
(1682544058.329238) can1 18EB0046#0268696A6B6C6D6E
(1682544058.329772) can1 18EB0040#0965666768696A6B
(1682544058.330306) can1 18EB000F#2E6465666768696A
(1682544058.330852) can1 18EB0025#206A6B6C6D6E6F70
(1682544058.331394) can1 18EB0029#1B61626364656667
(1682544058.331934) can1 18EB0006#32666768696A6B6C
(1682544058.332514) can1 18EB0020#2365666768696A6B
(1682544058.333106) can1 18EB000D#2F6B6C6D6E6F7071
(1682544058.333593) can1 18EB0017#2A62636465666768
(1682544058.334140) can1 18EB0038#0E6E6F7071727374
(1682544058.334680) can1 18EB002A#1A7475767778797A
(1682544058.335222) can1 18EB0001#347475767778797A
(1682544058.335769) can1 18EB000B#3072737475767778
(1682544058.336307) can1 18EB0032#156B6C6D6E6F7071
(1682544058.336840) can1 18EB0043#04767778797A6162
(1682544058.337406) can1 18EB003D#0B73747576777879
(1682544058.337915) can1 18EB0016#2B696A6B6C6D6E6F
(1682544058.338452) can1 18EB0012#2D7778797A616263
(1682544058.338996) can1 18EB0014#2C70717273747576
(1682544058.339540) can1 18EB001D#2573747576777879
(1682544058.340115) can1 18EB0024#2171727374757677
(1682544058.340607) can1 18EB0007#32666768696A6B6C
(1682544058.341178) can1 18EB0010#2E6465666768696A
(1682544058.341712) can1 18EB0037#0F75767778797A61
(1682544058.342260) can1 18EB001F#246C6D6E6F707172
(1682544058.342806) can1 18EB0002#347475767778797A
(1682544058.343360) can1 18EC004A#20F906FFFF4AFE00
(1682544058.343900) can1 18EB0031#1672737475767778
(1682544058.344456) can1 18EB003C#0C7A616263646566
(1682544058.344991) can1 18EB000E#2F6B6C6D6E6F7071
(1682544058.345533) can1 18EB002E#18666768696A6B6C
(1682544058.346075) can1 18EB0041#0878797A61626364
(1682544058.346607) can1 18EB0049#0161626364656667
(1682544058.347156) can1 18EB0008#32666768696A6B6C
(1682544058.347699) can1 18EB0003#347475767778797A
(1682544058.348237) can1 18EB001C#267A616263646566
(1682544058.348786) can1 18EB002D#196D6E6F70717273
(1682544058.349321) can1 18EB0015#2C70717273747576
(1682544058.349900) can1 18EB003B#0D6768696A6B6C6D
(1682544058.350449) can1 18EB0013#2D7778797A616263
(1682544058.350981) can1 18EB0011#2E6465666768696A
(1682544058.351511) can1 18EB001E#2573747576777879
(1682544058.352129) can1 18EB0028#1E767778797A6162
(1682544058.352591) can1 18EB0046#036F707172737475
(1682544058.353193) can1 18EB0040#0A6C6D6E6F707172
(1682544058.353669) can1 18EB000F#2F6B6C6D6E6F7071
(1682544058.354203) can1 18EB0025#2171727374757677
(1682544058.354739) can1 18EB0029#1C68696A6B6C6D6E
(1682544058.355280) can1 18EB0022#2365666768696A6B
(1682544058.355820) can1 18EB0004#347475767778797A
(1682544058.356358) can1 18EB0009#32666768696A6B6C
(1682544058.356898) can1 18EB0035#1270717273747576
(1682544058.357440) can1 18EB002C#1A7475767778797A
(1682544058.357978) can1 18EB003A#0E6E6F7071727374
(1682544058.358543) can1 18EB001B#276768696A6B6C6D
(1682544058.359083) can1 18EB0034#146465666768696A
(1682544058.359673) can1 18EB0045#04767778797A6162
(1682544058.360187) can1 18EB003F#0B73747576777879
(1682544058.360714) can1 18EB0016#2C70717273747576
(1682544058.361253) can1 18EB0012#2E6465666768696A
(1682544058.361797) can1 18EB0014#2D7778797A616263
(1682544058.362339) can1 18EB001D#267A616263646566
(1682544058.362888) can1 18EB0024#2278797A61626364
(1682544058.363417) can1 18EB0007#336D6E6F70717273
(1682544058.363950) can1 18EB0033#1672737475767778
(1682544058.364490) can1 18EB0042#0771727374757677
(1682544058.365036) can1 18EB001A#286E6F7071727374
(1682544058.365567) can1 18EB0044#0563646566676869
(1682544058.366152) can1 18EC004C#20F906FFFF4CFE00
(1682544058.366685) can1 18EB003E#0C7A616263646566
(1682544058.367258) can1 18EB0036#11696A6B6C6D6E6F
(1682544058.367794) can1 18EB0019#2975767778797A61
(1682544058.368331) can1 18EB0023#2365666768696A6B
(1682544058.368871) can1 18EB0030#18666768696A6B6C
(1682544058.369401) can1 18EB0049#0268696A6B6C6D6E
(1682544058.369945) can1 18EB0008#336D6E6F70717273
(1682544058.370483) can1 18EB0003#3561626364656667
(1682544058.371021) can1 18EB001C#276768696A6B6C6D
(1682544058.371564) can1 18EB002D#1A7475767778797A
(1682544058.372143) can1 18EB0015#2D7778797A616263
(1682544058.372648) can1 18EB004B#0161626364656667
(1682544058.373381) can1 18EB003D#0D6768696A6B6C6D
(1682544058.373734) can1 18EB0018#2B696A6B6C6D6E6F
(1682544058.374269) can1 18EB002F#196D6E6F70717273
(1682544058.374842) can1 18EB0048#036F707172737475
(1682544058.375347) can1 18EB0022#246C6D6E6F707172
(1682544058.375939) can1 18EB0004#3561626364656667
(1682544058.376475) can1 18EB0009#336D6E6F70717273
(1682544058.377012) can1 18EB0035#137778797A616263
(1682544058.377646) can1 18EB002C#1B61626364656667
(1682544058.378085) can1 18EB003A#0F75767778797A61
(1682544058.378630) can1 18EB001B#286E6F7071727374
(1682544058.379176) can1 18EB0034#156B6C6D6E6F7071
(1682544058.379752) can1 18EC004D#20F906FFFF4DFE00
(1682544058.380285) can1 18EB0045#0563646566676869
(1682544058.380816) can1 18EB003F#0C7A616263646566
(1682544058.381357) can1 18EB0027#2171727374757677
(1682544058.381894) can1 18EB0026#2278797A61626364
(1682544058.382424) can1 18EB0047#04767778797A6162
(1682544058.382964) can1 18EB000C#32666768696A6B6C
(1682544058.383500) can1 18EB0005#3561626364656667
(1682544058.384102) can1 18EB0021#2573747576777879
(1682544058.384676) can1 18EB0039#1062636465666768
(1682544058.385226) can1 18EB000A#336D6E6F70717273
(1682544058.385763) can1 18EB002B#1C68696A6B6C6D6E
(1682544058.386301) can1 18EB0033#17797A6162636465
(1682544058.386839) can1 18EB0042#0878797A61626364
(1682544058.387367) can1 18EB001A#2975767778797A61
(1682544058.387914) can1 18EB0044#066A6B6C6D6E6F70
(1682544058.388454) can1 18EB004C#0161626364656667
(1682544058.388996) can1 18EB003E#0D6768696A6B6C6D
(1682544058.389542) can1 18EB0036#1270717273747576
(1682544058.390073) can1 18EB000F#31797A6162636465
(1682544058.390647) can1 18EB0025#2365666768696A6B
(1682544058.391149) can1 18EB0029#1E767778797A6162
(1682544058.391679) can1 18EB0006#3561626364656667
(1682544058.393328) can1 18EB0020#267A616263646566
(1682544058.393346) can1 18EB000D#32666768696A6B6C
(1682544058.393945) can1 18EB0017#2D7778797A616263
(1682544058.394505) can1 18EB0038#11696A6B6C6D6E6F
(1682544058.395029) can1 18EB002A#1D6F707172737475
(1682544058.395573) can1 18EB0001#376F707172737475
(1682544058.396146) can1 18EB000B#336D6E6F70717273
(1682544058.396692) can1 18EB0032#18666768696A6B6C
(1682544058.397234) can1 18EB0043#0771727374757677
(1682544058.397717) can1 18EB004B#0268696A6B6C6D6E
(1682544058.398269) can1 18EB003D#0E6E6F7071727374
(1682544058.398815) can1 18EB0018#2C70717273747576
(1682544058.399354) can1 18EB0012#3072737475767778
(1682544058.399903) can1 18EB0014#2F6B6C6D6E6F7071
(1682544058.400438) can1 18EB001D#286E6F7071727374
(1682544058.400985) can1 18EB0024#246C6D6E6F707172
(1682544058.401564) can1 18EB0007#3561626364656667
(1682544058.402064) can1 18EB0010#31797A6162636465
(1682544058.402652) can1 18EB0037#1270717273747576
(1682544058.403185) can1 18EB001F#276768696A6B6C6D
(1682544058.403734) can1 18EB0002#376F707172737475
(1682544058.404263) can1 18EB004A#036F707172737475
(1682544058.404808) can1 18EB0031#196D6E6F70717273
(1682544058.405361) can1 18EB003C#0F75767778797A61
(1682544058.405891) can1 18EB000E#32666768696A6B6C
(1682544058.406456) can1 18EB002E#1B61626364656667
(1682544058.406955) can1 18EB0041#0B73747576777879
(1682544058.407520) can1 18EB0027#2278797A61626364
(1682544058.408144) can1 18EB003B#1062636465666768
(1682544058.408602) can1 18EB0013#3072737475767778
(1682544058.409140) can1 18EB0011#31797A6162636465
(1682544058.409683) can1 18EB001E#286E6F7071727374
(1682544058.410220) can1 18EB0028#2171727374757677
(1682544058.410759) can1 18EB0046#066A6B6C6D6E6F70
(1682544058.411343) can1 18EB0040#0D6768696A6B6C6D
(1682544058.411886) can1 18EB000F#32666768696A6B6C
(1682544058.412419) can1 18EB0025#246C6D6E6F707172
(1682544058.412956) can1 18EB0029#1F63646566676869
(1682544058.413615) can1 18EB0006#3668696A6B6C6D6E
(1682544058.414040) can1 18EB0020#276768696A6B6C6D
(1682544058.414592) can1 18EB000D#336D6E6F70717273
(1682544058.415112) can1 18EB0017#2E6465666768696A
(1682544058.415668) can1 18EB0038#1270717273747576
(1682544058.416196) can1 18EB002A#1E767778797A6162
(1682544058.416741) can1 18EB004D#0268696A6B6C6D6E
(1682544058.417273) can1 18EB0045#0771727374757677
(1682544058.417811) can1 18EB003F#0E6E6F7071727374
(1682544058.418366) can1 18EB0016#2F6B6C6D6E6F7071
(1682544058.418905) can1 18EB0012#31797A6162636465
(1682544058.419445) can1 18EB0014#3072737475767778
(1682544058.420124) can1 18EB001D#2975767778797A61
(1682544058.420565) can1 18EB0024#2573747576777879
(1682544058.421108) can1 18EB0007#3668696A6B6C6D6E
(1682544058.421656) can1 18EB0010#32666768696A6B6C
(1682544058.422189) can1 18EB0037#137778797A616263
(1682544058.422738) can1 18EB001F#286E6F7071727374
(1682544058.423308) can1 18EB0002#38767778797A6162
(1682544058.423806) can1 18EB004A#04767778797A6162
(1682544058.424343) can1 18EB0031#1A7475767778797A
(1682544058.424901) can1 18EB003C#1062636465666768
(1682544058.425448) can1 18EB003E#0F75767778797A61
(1682544058.425985) can1 18EB0036#146465666768696A
(1682544058.426520) can1 18EB0019#2C70717273747576
(1682544058.427050) can1 18EB0023#267A616263646566
(1682544058.427594) can1 18EB0030#1B61626364656667
(1682544058.428129) can1 18EB0049#0563646566676869
(1682544058.428716) can1 18EB0008#3668696A6B6C6D6E
(1682544058.429268) can1 18EB0003#38767778797A6162
(1682544058.429792) can1 18EB001C#2A62636465666768
(1682544058.430332) can1 18EB002D#1D6F707172737475
(1682544058.430875) can1 18EB0015#3072737475767778
(1682544058.431408) can1 18EB004E#0161626364656667
(1682544058.431953) can1 18EB003B#11696A6B6C6D6E6F
(1682544058.432487) can1 18EB0013#31797A6162636465
(1682544058.433025) can1 18EB0011#32666768696A6B6C
(1682544058.433591) can1 18EB001E#2975767778797A61
(1682544058.434102) can1 18EB0048#066A6B6C6D6E6F70
(1682544058.434654) can1 18EB0022#276768696A6B6C6D
(1682544058.435185) can1 18EB0004#38767778797A6162
(1682544058.435721) can1 18EB0009#3668696A6B6C6D6E
(1682544058.436250) can1 18EB0035#1672737475767778
(1682544058.436804) can1 18EB002C#1E767778797A6162
(1682544058.437386) can1 18EB003A#1270717273747576
(1682544058.437938) can1 18EB001B#2B696A6B6C6D6E6F
(1682544058.438466) can1 18EB0034#18666768696A6B6C
(1682544058.439007) can1 18EB004D#036F707172737475
(1682544058.439573) can1 18EB0045#0878797A61626364
(1682544058.440142) can1 18EB003F#0F75767778797A61
(1682544058.440617) can1 18EB0016#3072737475767778
(1682544058.441158) can1 18EB0012#32666768696A6B6C
(1682544058.441686) can1 18EB0014#31797A6162636465
(1682544058.442228) can1 18EB001D#2A62636465666768
(1682544058.442765) can1 18EB0047#0771727374757677
(1682544058.443306) can1 18EB000C#3561626364656667
(1682544058.443842) can1 18EB0005#38767778797A6162
(1682544058.444391) can1 18EB0021#286E6F7071727374
(1682544058.444925) can1 18EB0039#137778797A616263
(1682544058.445472) can1 18EB000A#3668696A6B6C6D6E
(1682544058.446060) can1 18EB002B#1F63646566676869
(1682544058.446601) can1 18EB0033#1A7475767778797A
(1682544058.447132) can1 18EB0042#0B73747576777879
(1682544058.447666) can1 18EB001A#2C70717273747576
(1682544058.448210) can1 18EB0044#0965666768696A6B
(1682544058.448760) can1 18EB004C#04767778797A6162
(1682544058.449300) can1 18EB003E#1062636465666768
(1682544058.449845) can1 18EB0036#156B6C6D6E6F7071
(1682544058.450382) can1 18EB0019#2D7778797A616263
(1682544058.450920) can1 18EB0023#276768696A6B6C6D
(1682544058.451459) can1 18EB0020#2975767778797A61
(1682544058.452001) can1 18EB000D#3561626364656667
(1682544058.452540) can1 18EB0017#3072737475767778
(1682544058.453080) can1 18EB0038#146465666768696A
(1682544058.453627) can1 18EB002A#206A6B6C6D6E6F70
(1682544058.454163) can1 18EB0001#3A6A6B6C6D6E6F70
(1682544058.454767) can1 18EB000B#3668696A6B6C6D6E
(1682544058.455276) can1 18EB0032#1B61626364656667
(1682544058.455807) can1 18EB0043#0A6C6D6E6F707172
(1682544058.456349) can1 18EB004B#0563646566676869
(1682544058.456890) can1 18EB003D#11696A6B6C6D6E6F
(1682544058.457442) can1 18EB0018#2F6B6C6D6E6F7071
(1682544058.457971) can1 18EB002F#1D6F707172737475
(1682544058.458554) can1 18EC004F#20F906FFFF4FFE00
(1682544058.459087) can1 18EB0048#0771727374757677
(1682544058.459625) can1 18EB0022#286E6F7071727374
(1682544058.460162) can1 18EB0002#3A6A6B6C6D6E6F70
(1682544058.460704) can1 18EB004A#066A6B6C6D6E6F70
(1682544058.461250) can1 18EB0031#1C68696A6B6C6D6E
(1682544058.461792) can1 18EB003C#1270717273747576
(1682544058.462340) can1 18EB000E#3561626364656667
(1682544058.462883) can1 18EB002E#1E767778797A6162
(1682544058.463478) can1 18EB0041#0E6E6F7071727374
(1682544058.464169) can1 18EB0027#2573747576777879
(1682544058.464549) can1 18EB0026#267A616263646566
(1682544058.465110) can1 18EB0047#0878797A61626364
(1682544058.465644) can1 18EB000C#3668696A6B6C6D6E
(1682544058.466182) can1 18EB0005#3963646566676869
(1682544058.466721) can1 18EB0021#2975767778797A61
(1682544058.467273) can1 18EB0039#146465666768696A
(1682544058.467795) can1 18EB000A#376F707172737475
(1682544058.468343) can1 18EB002B#206A6B6C6D6E6F70
(1682544058.468883) can1 18EB003B#137778797A616263
(1682544058.469453) can1 18EB0013#336D6E6F70717273
(1682544058.469962) can1 18EB0011#347475767778797A
(1682544058.470502) can1 18EB001E#2B696A6B6C6D6E6F
(1682544058.471044) can1 18EB0028#246C6D6E6F707172
(1682544058.471569) can1 18EB0046#0965666768696A6B
(1682544058.472170) can1 18EB0040#1062636465666768
(1682544058.472723) can1 18EB000F#3561626364656667
(1682544058.473262) can1 18EB0025#276768696A6B6C6D
(1682544058.473795) can1 18EB0029#2278797A61626364
(1682544058.474339) can1 18EB0006#3963646566676869
(1682544058.474908) can1 18EB0020#2A62636465666768
(1682544058.475411) can1 18EB000D#3668696A6B6C6D6E
(1682544058.475948) can1 18EB0017#31797A6162636465
(1682544058.476493) can1 18EB0038#156B6C6D6E6F7071
(1682544058.477058) can1 18EB002A#2171727374757677
(1682544058.477579) can1 18EB004D#0563646566676869
(1682544058.478108) can1 18EB0045#0A6C6D6E6F707172
(1682544058.478659) can1 18EB003F#11696A6B6C6D6E6F
(1682544058.479194) can1 18EB0016#32666768696A6B6C
(1682544058.479731) can1 18EB0012#347475767778797A
(1682544058.480269) can1 18EB0014#336D6E6F70717273
(1682544058.480857) can1 18EB001D#2C70717273747576
(1682544058.481404) can1 18EB0024#286E6F7071727374
(1682544058.481932) can1 18EB0007#3963646566676869
(1682544058.482489) can1 18EB0010#3561626364656667
(1682544058.483027) can1 18EB0037#1672737475767778
(1682544058.483562) can1 18EB001F#2B696A6B6C6D6E6F
(1682544058.484149) can1 18EB0002#3B71727374757677
(1682544058.484634) can1 18EB004A#0771727374757677
(1682544058.485175) can1 18EB0031#1D6F707172737475
(1682544058.485723) can1 18EB003C#137778797A616263
(1682544058.486265) can1 18EB003E#1270717273747576
(1682544058.486801) can1 18EB0036#17797A6162636465
(1682544058.487340) can1 18EB0019#2F6B6C6D6E6F7071
(1682544058.487880) can1 18EB0023#2975767778797A61
(1682544058.488423) can1 18EB0030#1E767778797A6162
(1682544058.488957) can1 18EB0049#0878797A61626364
(1682544058.489533) can1 18EB0008#3963646566676869
(1682544058.490074) can1 18EB0003#3B71727374757677
(1682544058.490617) can1 18EB001C#2D7778797A616263
(1682544058.491166) can1 18EB002D#206A6B6C6D6E6F70
(1682544058.491711) can1 18EB0015#336D6E6F70717273
(1682544058.492241) can1 18EB004E#04767778797A6162
(1682544058.492780) can1 18EB003B#146465666768696A
(1682544058.493320) can1 18EB0013#347475767778797A
(1682544058.493863) can1 18EB0011#3561626364656667
(1682544058.494397) can1 18EB001E#2C70717273747576
(1682544058.494963) can1 18EB0048#0965666768696A6B
(1682544058.495470) can1 18EB004F#0268696A6B6C6D6E
(1682544058.496008) can1 18EB0022#2A62636465666768
(1682544058.496546) can1 18EB0004#3B71727374757677
(1682544058.497083) can1 18EB0009#3963646566676869
(1682544058.497620) can1 18EB0035#196D6E6F70717273
(1682544058.498196) can1 18EB002C#2171727374757677
(1682544058.498738) can1 18EB003A#156B6C6D6E6F7071
(1682544058.499276) can1 18EB001B#2E6465666768696A
(1682544058.499828) can1 18EB0034#1B61626364656667
(1682544058.500402) can1 18EC0051#20F906FFFF51FE00
(1682544058.500938) can1 18EB004D#066A6B6C6D6E6F70
(1682544058.501473) can1 18EB0045#0B73747576777879
(1682544058.502013) can1 18EB003F#1270717273747576
(1682544058.502580) can1 18EB0016#336D6E6F70717273
(1682544058.503094) can1 18EB0012#3561626364656667
(1682544058.503643) can1 18EB000C#38767778797A6162
(1682544058.504176) can1 18EB0005#3B71727374757677
(1682544058.504720) can1 18EB0021#2B696A6B6C6D6E6F
(1682544058.505278) can1 18EB0039#1672737475767778
(1682544058.505794) can1 18EB000A#3963646566676869
(1682544058.506326) can1 18EB002B#2278797A61626364
(1682544058.506918) can1 18EB0050#0161626364656667
(1682544058.507449) can1 18EB0033#1D6F707172737475
(1682544058.507993) can1 18EB0042#0E6E6F7071727374
(1682544058.508535) can1 18EB001A#2F6B6C6D6E6F7071
(1682544058.509071) can1 18EB0044#0C7A616263646566
(1682544058.509614) can1 18EB004C#0771727374757677
(1682544058.510163) can1 18EB003E#137778797A616263
(1682544058.510686) can1 18EB0036#18666768696A6B6C
(1682544058.511217) can1 18EB0019#3072737475767778
(1682544058.511757) can1 18EB0023#2A62636465666768
(1682544058.512289) can1 18EB002A#2365666768696A6B
(1682544058.512840) can1 18EB0001#3D65666768696A6B
(1682544058.513374) can1 18EB000B#3963646566676869
(1682544058.513910) can1 18EB0032#1E767778797A6162
(1682544058.514441) can1 18EB0043#0D6768696A6B6C6D
(1682544058.514988) can1 18EB004B#0878797A61626364
(1682544058.515560) can1 18EB003D#146465666768696A
(1682544058.516096) can1 18EB0018#32666768696A6B6C
(1682544058.516640) can1 18EB002F#206A6B6C6D6E6F70
(1682544058.517186) can1 18EB0048#0A6C6D6E6F707172
(1682544058.517726) can1 18EB004F#036F707172737475
(1682544058.518265) can1 18EB0022#2B696A6B6C6D6E6F
(1682544058.518846) can1 18EB0004#3C78797A61626364
(1682544058.519346) can1 18EB0009#3A6A6B6C6D6E6F70
(1682544058.519888) can1 18EB0035#1A7475767778797A
(1682544058.520427) can1 18EB002C#2278797A61626364
